# HZ S RI R 50
100000000 1.0080388966821314 -0.21847913140509279 -2.2475043778530403e-06 4.054569938476327e-05 0 0 0 0
109000000 1.0078165170054298 -0.23254517332072458 -9.71936286054009e-06 3.435904912783772e-06 0 0 0 0
118000000 1.0026233165492306 -0.24996853971194571 -5.491041420866846e-05 8.765053758155887e-06 0 0 0 0
127000000 0.9971007895149405 -0.26562395449652215 2.0850828678084833e-05 7.663906968578173e-05 0 0 0 0
136000000 0.9914144129973428 -0.27997290171367695 5.846574150168238e-05 -1.7862943470991768e-05 0 0 0 0
145000000 0.9830822155152961 -0.29523903218610204 4.0267946152589584e-05 -6.5706269911168164e-06 0 0 0 0
154000000 0.9778817740591801 -0.31003589697068595 6.262609935496248e-07 -6.400622975494912e-06 0 0 0 0
163000000 0.9704833523149392 -0.32755804238389435 3.7114758690168365e-05 4.840664242395844e-05 0 0 0 0
172000000 0.9645266827218033 -0.34015017092946154 -2.5604449761280066e-05 1.3698277375290329e-05 0 0 0 0
181000000 0.9583675201312635 -0.35454690541233985 -3.769871016928921e-05 -1.8544214269444534e-05 0 0 0 0
190000000 0.9513918386047923 -0.3698364127304987 -2.8319323681018374e-05 1.8691011880991163e-05 0 0 0 0
199000000 0.9439397192095361 -0.38425808379053483 1.2855941078560011e-05 4.292934230499737e-05 0 0 0 0
208000000 0.9370289952331091 -0.398758550881177 8.381653818353855e-07 -1.9475393445312184e-05 0 0 0 0
217000000 0.9296124618600944 -0.41237509440425896 7.470355724276732e-06 2.295845473488139e-05 0 0 0 0
226000000 0.9218625996540989 -0.4280807956650309 5.353545562514256e-06 1.3978298569351513e-05 0 0 0 0
235000000 0.9150601875248833 -0.44052383787420496 -4.370562773173316e-05 2.2246015860910587e-05 0 0 0 0
244000000 0.9057814336599664 -0.4561612322197326 3.250074070632132e-05 9.394031846476069e-06 0 0 0 0
253000000 0.8991262581190954 -0.4685156541036509 1.9275712832999785e-05 -4.1981071564483774e-05 0 0 0 0
262000000 0.891579270470937 -0.4817285838141671 -1.5233071544097278e-05 -2.0615576454832173e-05 0 0 0 0
271000000 0.8832641320927992 -0.49441452878509295 1.628962336839574e-05 -8.753449839944207e-06 0 0 0 0
280000000 0.8731948566064145 -0.509323032612803 -3.148103511122268e-05 4.620439707368351e-05 0 0 0 0
289000000 0.865965048637048 -0.5207642548613197 2.0306058722442627e-05 -3.6543389491804625e-06 0 0 0 0
298000000 0.8569845042427374 -0.5352458527437981 5.776898795304057e-05 1.2534362806552261e-05 0 0 0 0
307000000 0.8491246208808982 -0.5476937753925122 3.466081074716083e-05 -4.718312256163305e-05 0 0 0 0
316000000 0.8394627442555714 -0.5620845702376913 3.145165567109022e-05 -1.351891611634886e-05 0 0 0 0
325000000 0.8308098601480234 -0.5744880833479319 8.525358001096852e-07 -1.4148156532784482e-05 0 0 0 0
334000000 0.8203115423454748 -0.5857860961463168 6.572217199704106e-05 5.294759662790644e-05 0 0 0 0
343000000 0.8105406938126365 -0.5982315150037274 2.7987527021074247e-05 4.134476972917587e-05 0 0 0 0
352000000 0.8001848167066283 -0.6133463124862785 -5.424123925807997e-05 -2.5142265653009543e-05 0 0 0 0
361000000 0.7906591633166146 -0.6258562529058177 5.7453958762971725e-05 -1.0046349846206736e-05 0 0 0 0
370000000 0.7812488815780467 -0.6355561617428849 1.7423621496947875e-05 1.4036101129126162e-05 0 0 0 0
379000000 0.7678525512795455 -0.6511020693608366 9.659689965199912e-08 -6.772573274407446e-06 0 0 0 0
388000000 0.7600582189038196 -0.6605774472372443 2.9476141175196906e-05 -2.2939142428158624e-05 0 0 0 0
397000000 0.7497559675601789 -0.673309969326817 5.142870234848054e-05 -1.4758420889958074e-05 0 0 0 0
406000000 0.7384265579777521 -0.6847166330838471 -4.231087709084533e-05 -2.255210582207376e-05 0 0 0 0
415000000 0.7261065531937192 -0.6974355962590585 3.3115715545278794e-05 -2.937769920976871e-05 0 0 0 0
424000000 0.7156018194943591 -0.710068473019048 5.5601059446804045e-05 -6.536130229634688e-05 0 0 0 0
433000000 0.7040754865201915 -0.7212045482289484 4.937168646569287e-05 1.6874543647625888e-06 0 0 0 0
442000000 0.6922125384525073 -0.7331413822862324 1.906218410317063e-07 6.664370028704387e-05 0 0 0 0
451000000 0.6799984959829761 -0.7437111830790469 -6.3258497158142745e-06 7.589413511863824e-06 0 0 0 0
460000000 0.6716487113882049 -0.7526729138184349 7.26678157682085e-05 -4.188041729817337e-05 0 0 0 0
469000000 0.6586672266136141 -0.7637330516813668 1.8435133181918333e-06 -3.752511316167199e-05 0 0 0 0
478000000 0.6433388132241155 -0.7771002074655988 2.405457701285373e-05 6.932211604217754e-06 0 0 0 0
487000000 0.6324444350278505 -0.786724559163553 3.0261150822656438e-05 2.7147116803719043e-05 0 0 0 0
496000000 0.6180725223468594 -0.7991570959158872 -4.1894546649009495e-05 1.5602940764508864e-05 0 0 0 0
505000000 0.6036752152408216 -0.8106653182517577 3.3179080403256077e-05 -2.571931439386364e-06 0 0 0 0
514000000 0.5961731200715868 -0.8171526221853742 5.7197955719655964e-05 -5.269664449538801e-06 0 0 0 0
523000000 0.5786288104541903 -0.830476661503624 1.713827316344951e-05 -6.149171672029842e-05 0 0 0 0
532000000 0.564221200391869 -0.840854888860284 -2.9353991135202477e-05 3.14886419765439e-05 0 0 0 0
541000000 0.5499887854078608 -0.8503963151281186 -3.845496269093053e-05 -3.3972119224906935e-06 0 0 0 0
550000000 0.5378477337771298 -0.8591889325838578 -9.37579643189911e-08 -4.509911048080441e-06 0 0 0 0
559000000 0.5174998425013841 -0.8705717888485418 -2.5761458285842655e-05 9.433439915805407e-05 0 0 0 0
568000000 0.505631255289722 -0.881176634308347 4.5601169695592416e-05 1.97975048894621e-06 0 0 0 0
577000000 0.49149074797568004 -0.8887781957733417 -5.3805587976440584e-05 2.358197500523664e-05 0 0 0 0
586000000 0.4762412593759919 -0.8973848727605935 7.309973168653112e-05 6.289423984013766e-05 0 0 0 0
595000000 0.4637921783794494 -0.9047971422365881 3.403944572135366e-05 -5.354528725815245e-05 0 0 0 0
604000000 0.44527339336913807 -0.9152608137018057 -1.6402455135960204e-05 -2.7161091334111126e-06 0 0 0 0
613000000 0.43035453710641697 -0.9229726904373055 -7.282513814191271e-05 5.2866994824021885e-05 0 0 0 0
622000000 0.4088881734663438 -0.931000716957842 -1.4517815371362854e-05 4.057265265433919e-05 0 0 0 0
631000000 0.3885679038550833 -0.9410575926111032 6.7876352085280995e-06 5.0561932176434424e-05 0 0 0 0
640000000 0.36781142010135676 -0.9477916930966228 -1.6459316375415076e-05 2.5588871928843476e-06 0 0 0 0
649000000 0.3563067646000607 -0.9531679163018936 -9.919993764739931e-06 2.9037453974629254e-05 0 0 0 0
658000000 0.3390326554840751 -0.960730032873117 -1.7070556413441086e-05 4.6558476942053536e-05 0 0 0 0
667000000 0.32171450282172087 -0.966198747862238 2.0803410357679868e-05 2.8916177239335353e-05 0 0 0 0
676000000 0.29774695481179475 -0.9721721946763574 9.043144306033522e-05 5.530024900751633e-05 0 0 0 0
685000000 0.2747942634230018 -0.976873966302382 4.161670161699693e-05 8.1455624309251e-05 0 0 0 0
694000000 0.2616211550699078 -0.9811766964265167 -1.5310062085072198e-05 -1.4261101595765986e-05 0 0 0 0
703000000 0.24274686042703894 -0.9856054357834665 -2.3261290729175277e-06 5.2175287516123907e-05 0 0 0 0
712000000 0.21842199175978855 -0.9884511656736286 3.0472875244732097e-05 1.8597740946592992e-05 0 0 0 0
721000000 0.2062154561550939 -0.9900544664466661 6.184810916477302e-06 6.159371215258322e-05 0 0 0 0
730000000 0.18180185440650495 -0.9924972799350575 8.705785667692623e-05 0.00010026191713064565 0 0 0 0
739000000 0.16483310968781165 -0.9945278997796391 0.00012161822073218317 1.5750877358407937e-05 0 0 0 0
748000000 0.14175686630614706 -0.9952408392617367 0.00010429650601716717 5.021535319323468e-06 0 0 0 0
757000000 0.11543141948448807 -0.9953934458339005 0.00011585836506035822 -1.956533745798403e-06 0 0 0 0
766000000 0.09358004280404361 -0.9952633717627679 7.57615276562653e-05 -0.00010108606150207354 0 0 0 0
775000000 0.0825846961665753 -0.9940729588672249 3.915144321085825e-05 -5.446940917091557e-05 0 0 0 0
784000000 0.05435427714769964 -0.9918161301280128 -9.293891981119713e-06 -8.383810544138303e-05 0 0 0 0
793000000 0.034838534669615624 -0.989276480961291 2.417685402832057e-05 -2.355298928781406e-05 0 0 0 0
802000000 0.013533351135759212 -0.9848493591408422 -3.739193416233063e-05 -3.891456192664082e-05 0 0 0 0
811000000 -0.0009335981443728173 -0.9808548969179963 -3.2602025778699566e-05 -3.1173085854160506e-05 0 0 0 0
820000000 -0.014280869713512407 -0.9767712649351301 4.9533816966448994e-05 -2.2373129440701017e-05 0 0 0 0
829000000 -0.03509182728828557 -0.9743129270144332 4.1074812648147424e-05 2.2441444702659137e-06 0 0 0 0
838000000 -0.0643352292073672 -0.9664696151868397 -2.0632592008565534e-05 3.659209176359092e-06 0 0 0 0
847000000 -0.06733581334747098 -0.9617429911398108 -4.8752628980082485e-05 -8.233550215135334e-06 0 0 0 0
856000000 -0.0914999771352515 -0.9547036565742506 -7.622788855208587e-05 4.087774565087183e-05 0 0 0 0
865000000 -0.1096788727574717 -0.9468555270509529 -2.691352316146762e-05 4.2002314198465336e-05 0 0 0 0
874000000 -0.11981050770699277 -0.9420537604189445 -1.1022059129719528e-05 1.5055184138140758e-05 0 0 0 0
883000000 -0.13443078158325175 -0.9354264316478011 -1.1017884700681918e-05 4.5254007216578854e-05 0 0 0 0
892000000 -0.15978843269261597 -0.9252300848075448 -3.463039264302251e-05 6.184039405613195e-06 0 0 0 0
901000000 -0.167953279963061 -0.9176797003904645 7.362110889960834e-05 -4.158151857539945e-05 0 0 0 0
910000000 -0.19151941764718725 -0.9086872727937019 -1.9124024234547137e-05 -1.140577586120618e-06 0 0 0 0
919000000 -0.19987940458834 -0.9022886703330355 -2.117841074140406e-06 -8.782813222659816e-05 0 0 0 0
928000000 -0.21142082882035404 -0.89543883380082 -1.1235881854493558e-06 4.586757967578597e-05 0 0 0 0
937000000 -0.2315975553385044 -0.8861772852704308 -4.467179359711317e-05 -6.186744523616575e-05 0 0 0 0
946000000 -0.24474954204510038 -0.8774332976163495 8.525051999559408e-07 5.322887797454838e-05 0 0 0 0
955000000 -0.25998067691560994 -0.8690675097558183 -2.1362434033054983e-05 2.2511010337766045e-05 0 0 0 0
964000000 -0.26777224277709966 -0.860179712625333 8.659042353407989e-05 2.0672043439161347e-05 0 0 0 0
973000000 -0.2792910743117108 -0.8546464527396042 7.699978582029935e-06 -3.413064726856524e-05 0 0 0 0
982000000 -0.29485563093608697 -0.8434516055270715 2.249067692034222e-05 -2.1676988863253635e-05 0 0 0 0
991000000 -0.3062226236033875 -0.8356686165504011 -4.6271719331081304e-05 -9.301863013511289e-06 0 0 0 0
1000000000 -0.318475860103686 -0.827393946089144 -3.5732207556040263e-06 -7.18943436086513e-05 0 0 0 0
