# HZ S RI R 50
100000000 1.0120146434791673 -0.21880825551515012 1.6541179815696387e-05 2.784960390006496e-05 0 0 0 0
109000000 1.0081280654736862 -0.23452683091529813 -7.6922590885015e-06 -2.8867361613767342e-05 0 0 0 0
118000000 1.0025131093384516 -0.25004926881930717 -4.140153292054907e-05 4.076908499447594e-05 0 0 0 0
127000000 0.9970453173255347 -0.2653890812138864 -1.597918666233191e-05 2.9406921034961994e-06 0 0 0 0
136000000 0.9913111358889056 -0.2812748572256613 -1.535098558194014e-05 5.493469353884965e-05 0 0 0 0
145000000 0.9822436737252687 -0.29584406909753147 2.6652721725911963e-05 -2.964342207889497e-05 0 0 0 0
154000000 0.9766847439804645 -0.3120181151381127 2.9987989310240614e-05 -4.4371802734116015e-05 0 0 0 0
163000000 0.9712461607272319 -0.325103710438214 -7.758443562894737e-06 -2.548513483723024e-05 0 0 0 0
172000000 0.9640765124050911 -0.3396139009930541 -3.1202548124710236e-05 4.226284233734772e-05 0 0 0 0
181000000 0.9577447635250687 -0.35485840899685495 -1.9799364836683462e-05 2.8506328071070477e-05 0 0 0 0
190000000 0.9515394211087658 -0.3685136315867119 1.1871748500172387e-06 -3.123653682351056e-05 0 0 0 0
199000000 0.9441785186502762 -0.38365161109657087 3.097200367285084e-05 9.995466203132427e-06 0 0 0 0
208000000 0.9373429455252417 -0.39718911345411495 6.5904510960422105e-06 3.0035548902838024e-05 0 0 0 0
217000000 0.929712460824242 -0.4129106191604697 -6.283279944712717e-05 3.490574956471618e-05 0 0 0 0
226000000 0.9227702323995055 -0.4255830514569502 -5.540716107007269e-05 -2.102997418830591e-05 0 0 0 0
235000000 0.9151250404019863 -0.4402611954252691 1.5096112281890109e-05 -6.555209736534749e-06 0 0 0 0
244000000 0.9070935573007064 -0.45467304485786153 2.558622763014165e-05 -4.638537457408416e-05 0 0 0 0
253000000 0.8987025623764362 -0.46885228027811887 -3.659768703674644e-05 1.8141805058620484e-05 0 0 0 0
262000000 0.8907698296731162 -0.4823911619420466 3.0002240668509595e-05 1.1105912120165033e-05 0 0 0 0
271000000 0.8817139177630388 -0.4969492842313827 -5.7304637121050354e-05 4.945847474641119e-05 0 0 0 0
280000000 0.8744545295892795 -0.5092880287070409 1.574211858672215e-05 3.0285074107333035e-05 0 0 0 0
289000000 0.8653542596065952 -0.5227802117209704 -5.9991436544915206e-06 -2.12282255159939e-05 0 0 0 0
298000000 0.8576667187173413 -0.5357305512231415 3.8147922916894796e-05 -6.256469232489868e-05 0 0 0 0
307000000 0.8460978791152476 -0.5510691468181789 1.0775325386355136e-05 6.0186940771309964e-05 0 0 0 0
316000000 0.8390380509446448 -0.5618592182054394 -5.910028638007078e-05 -2.2188636374834178e-05 0 0 0 0
325000000 0.828515054799071 -0.5761790662213798 2.25184907937859e-05 -1.863781354851344e-05 0 0 0 0
334000000 0.8194265709849787 -0.588365414921535 -7.66737605154403e-06 7.4674555104513464e-06 0 0 0 0
343000000 0.8103717906082891 -0.6000779174196609 5.994978937152096e-05 1.0989475928610542e-05 0 0 0 0
352000000 0.7989270268984916 -0.614609859355091 -6.253989015052782e-07 5.7812795618888864e-06 0 0 0 0
361000000 0.7887505108211252 -0.6283062493132338 5.7593670742010296e-05 1.0763908739260699e-05 0 0 0 0
370000000 0.7800714654871262 -0.6386230196135871 -3.618229806370832e-06 1.3362158153082632e-05 0 0 0 0
379000000 0.7696438670586936 -0.6501997459004802 -5.87765721248656e-05 3.255758065378624e-05 0 0 0 0
388000000 0.7611673545798534 -0.6604444575504621 0.00010354007892638729 -3.1614920126568544e-05 0 0 0 0
397000000 0.7491099856353336 -0.673179122613115 -9.383144642504826e-06 2.9508075503005167e-05 0 0 0 0
406000000 0.7375243938290561 -0.6858623461786966 3.486358541391499e-05 3.279602666695485e-05 0 0 0 0
415000000 0.7278945770280296 -0.6954047705725792 -4.2924273572685845e-05 1.0328473067209485e-05 0 0 0 0
424000000 0.7183783967780184 -0.7071204419507833 -2.3974382554737567e-05 5.784736603232003e-06 0 0 0 0
433000000 0.703787225914831 -0.7222483104899564 3.322329787072972e-06 -2.2408390065705284e-05 0 0 0 0
442000000 0.6918705710260921 -0.7335896312183169 1.2004894484142855e-05 3.1490046655493974e-05 0 0 0 0
451000000 0.6817983140367982 -0.74367421555904 -7.122476123186477e-05 2.5330982228076455e-06 0 0 0 0
460000000 0.6678823952516976 -0.7573063622148668 1.292685433427108e-06 -1.5128545290186046e-05 0 0 0 0
469000000 0.6606227040464466 -0.7628172842778909 2.0734688744621623e-05 6.909329381211598e-05 0 0 0 0
478000000 0.6451143011202998 -0.7750857893151557 3.8011758184834074e-05 -3.5824645455197822e-06 0 0 0 0
487000000 0.6317434070525245 -0.7869771921496277 3.978122097108824e-05 -2.4806706486047397e-05 0 0 0 0
496000000 0.6189517585812604 -0.7977209786794053 6.702785649177317e-05 -7.621438127865428e-05 0 0 0 0
505000000 0.6062464589445183 -0.8080559372054132 -6.325282884515717e-06 6.0613331132876e-05 0 0 0 0
514000000 0.5911010690882299 -0.8199362318081238 7.795785213981933e-05 -3.7578805389035774e-06 0 0 0 0
523000000 0.5802113565714799 -0.829551955077757 1.649058075132766e-05 3.849745854519971e-05 0 0 0 0
532000000 0.5602717515069228 -0.8432906107641612 -6.2140379043290736e-06 1.5843240587290267e-05 0 0 0 0
541000000 0.5494330693950146 -0.850964293506669 -9.114718735085766e-06 3.196809053811193e-05 0 0 0 0
550000000 0.5350988538219955 -0.8603209384626672 -8.45064855066736e-06 -6.168015828183015e-06 0 0 0 0
559000000 0.5240632906164976 -0.8682836866414785 -4.682647414937127e-05 2.211471625044921e-05 0 0 0 0
568000000 0.5074309887295824 -0.8775533627045712 -9.373689286214684e-06 2.0457368614144512e-05 0 0 0 0
577000000 0.49286942694061736 -0.8869431961325959 8.814712657007199e-05 2.843877947343772e-05 0 0 0 0
586000000 0.4750413212316948 -0.8992118204835647 6.07719681128708e-05 -4.402474033198993e-05 0 0 0 0
595000000 0.4570662101077822 -0.9086315399706815 -1.807062032990502e-05 -1.8672273132795644e-05 0 0 0 0
604000000 0.444106051229424 -0.9145603603823087 8.102200903297638e-06 1.8027228260091765e-05 0 0 0 0
613000000 0.4311116309684928 -0.9221302876839255 2.0106026281647462e-05 -1.9624697672788216e-06 0 0 0 0
622000000 0.4067254046941348 -0.9305939032221567 -3.113538790672859e-05 3.2983139211737356e-06 0 0 0 0
631000000 0.3907083635777401 -0.9398073103009391 -3.482891499230758e-05 1.7742912735699447e-05 0 0 0 0
640000000 0.37417512813369125 -0.9479605344298309 3.399489056563821e-05 2.2684795828725712e-05 0 0 0 0
649000000 0.35662001467550647 -0.9536370198630862 -2.2583101926195105e-05 1.7340318587978413e-06 0 0 0 0
658000000 0.33910386699572426 -0.9580194396156708 3.824797343440736e-05 7.726277103533334e-05 0 0 0 0
667000000 0.3215621384802112 -0.9651756076545266 7.99702635864513e-05 2.3482153142383973e-05 0 0 0 0
676000000 0.29296216604811537 -0.9746642621644312 -4.294909989396714e-05 -2.5923188888667456e-05 0 0 0 0
685000000 0.28359986629830897 -0.9744692173586362 -6.891233057580574e-05 6.298347509321592e-05 0 0 0 0
694000000 0.2627256369674207 -0.9800420252265823 6.45879980096533e-05 8.152095975191022e-05 0 0 0 0
703000000 0.24281874101175405 -0.9833952659981678 7.326496257647982e-05 4.7783526786453996e-05 0 0 0 0
712000000 0.2244654183810553 -0.9879080248263601 2.667418446698051e-05 1.8469693623464477e-05 0 0 0 0
721000000 0.19925902498279102 -0.993000211547572 1.5291589127331974e-05 0.00011045030172865537 0 0 0 0
730000000 0.18049517174920568 -0.9924799849850734 0.00011040873451086771 -3.6436489450913725e-06 0 0 0 0
739000000 0.16278107639597275 -0.993127286109358 6.087764267717562e-05 5.451694881812737e-05 0 0 0 0
748000000 0.1384690967160144 -0.9961516644494167 9.142844254289818e-05 -1.6581304516304018e-05 0 0 0 0
757000000 0.12153090219350332 -0.9957608908520547 0.0001663577920618204 1.237082540726349e-06 0 0 0 0
766000000 0.09788981153420288 -0.994394499609155 0.00010897364848357402 -7.94720959032733e-05 0 0 0 0
775000000 0.07319730537019682 -0.9941590022110693 -9.253751531964159e-06 -2.1206006157155054e-05 0 0 0 0
784000000 0.05381419343421051 -0.9913424087042064 2.938233967155531e-05 2.9175712106293828e-05 0 0 0 0
793000000 0.04030155535133903 -0.9876506133798553 7.033214411796653e-05 -3.19287345612295e-05 0 0 0 0
802000000 0.02102536089270025 -0.9870661054571302 4.028561753019633e-05 3.198141837232028e-05 0 0 0 0
811000000 -0.006608383216466616 -0.9827359505122514 9.612715861958621e-05 -8.911959190306756e-06 0 0 0 0
820000000 -0.01940459562933105 -0.976998482487783 2.5763424458821024e-05 1.839460914658564e-05 0 0 0 0
829000000 -0.036605789292873184 -0.9734548635111484 -3.433300642715261e-05 3.1886566010731782e-06 0 0 0 0
838000000 -0.04806784695486821 -0.9670757977325584 -3.1291573995913546e-05 -5.1173159036751914e-05 0 0 0 0
847000000 -0.07798124678025814 -0.960142647204979 -4.268733461804209e-05 -3.634604899966019e-05 0 0 0 0
856000000 -0.09479011527329882 -0.9548269317623869 3.688347012179294e-05 -5.02182860424617e-05 0 0 0 0
865000000 -0.10719618539952862 -0.9491245574308326 5.8880445200464844e-05 6.109748448478454e-05 0 0 0 0
874000000 -0.12759725741088665 -0.9411113380721516 4.490775482587855e-05 2.50088913639549e-05 0 0 0 0
883000000 -0.13990982067687674 -0.9354903243431992 3.827816093752983e-05 -3.3712882060377184e-05 0 0 0 0
892000000 -0.15760515020133067 -0.9254817784536592 7.009690567699528e-06 4.839112313073182e-05 0 0 0 0
901000000 -0.17316402655821134 -0.919614561355865 2.476827856331075e-05 4.455200590379725e-06 0 0 0 0
910000000 -0.19489508656077226 -0.9087898572278488 -3.182221664740538e-05 -2.3168064954119488e-05 0 0 0 0
919000000 -0.19966824071678002 -0.9039487591982397 3.1827040415187782e-06 3.093240533167614e-05 0 0 0 0
928000000 -0.21451855742895118 -0.8938770522077631 5.52001675761923e-05 -3.860369643928002e-05 0 0 0 0
937000000 -0.23492651811308812 -0.8859665639428623 -2.0315905619761065e-05 3.880457738112022e-06 0 0 0 0
946000000 -0.24150721418218274 -0.877940832861596 8.342045920929487e-05 -1.4417522905266517e-05 0 0 0 0
955000000 -0.2535876005887777 -0.8701537430348584 4.394642242809249e-05 -1.9131122320153057e-05 0 0 0 0
964000000 -0.27360647523766574 -0.8594151572056065 -1.1244855447779429e-05 4.338041482305238e-05 0 0 0 0
973000000 -0.2825511554839177 -0.8514298671602747 -4.202125642268189e-05 -2.8348960575505948e-05 0 0 0 0
982000000 -0.29374840480281794 -0.8438516973225747 -1.7343553692279732e-05 -8.640433581661382e-07 0 0 0 0
991000000 -0.31030747695145167 -0.8340324139651393 -1.1995855140562829e-05 -8.170507269649885e-07 0 0 0 0
1000000000 -0.3198650559736411 -0.8267792450356919 1.1399909249783144e-05 -3.902681338590091e-05 0 0 0 0
