# HZ S RI R 50
100000000 1.0062422000957725 -0.21877506175514902 4.390765802696473e-06 -1.3222391657834626e-05 0 0 0 0
109000000 1.0082374043243427 -0.2341114774467128 6.256730963705096e-06 -4.523255736707789e-05 0 0 0 0
118000000 1.0025515821605253 -0.2499697720066627 2.2578613423457825e-05 3.173842883154316e-05 0 0 0 0
127000000 0.9970518473339431 -0.26540380099459127 -6.025245017929329e-05 5.189976129489373e-06 0 0 0 0
136000000 0.991421899667241 -0.28028349618284404 4.114818033041214e-06 -1.709332188857187e-05 0 0 0 0
145000000 0.9829779146313382 -0.2962742479115496 -3.2537174064022794e-06 -1.100902538208047e-06 0 0 0 0
154000000 0.977614406269711 -0.31141953882755274 -2.918285932182709e-05 3.250505123181912e-05 0 0 0 0
163000000 0.9707103216105099 -0.3259435151339529 -1.6953390172818847e-05 2.825454131404e-05 0 0 0 0
172000000 0.9643190158958234 -0.3406408056763627 -2.738085911388438e-05 -3.0195025043963073e-05 0 0 0 0
181000000 0.9573033757863912 -0.3558758425981339 2.301387069066647e-05 -1.6619943358563366e-05 0 0 0 0
190000000 0.9512508996576664 -0.36872920436393614 -1.1690680935455306e-05 3.4017723794775244e-05 0 0 0 0
199000000 0.9439830168643223 -0.3838590978072964 5.934161474544893e-08 -1.5054605073301869e-05 0 0 0 0
208000000 0.9372644814065975 -0.39785754338634954 4.77701634654794e-07 -2.574378305796447e-05 0 0 0 0
217000000 0.9287993471472107 -0.4140370996569633 -5.176338937599971e-06 3.4546986803177594e-05 0 0 0 0
226000000 0.9222378497569669 -0.4266838602177717 4.631220848185356e-05 1.4265223032384167e-05 0 0 0 0
235000000 0.9138788689266849 -0.44199966765218307 -1.537575828477939e-05 -4.125449583073942e-05 0 0 0 0
244000000 0.907927208896401 -0.4529627584048732 -2.914528372008034e-05 -1.2562044038461194e-05 0 0 0 0
253000000 0.899407742141689 -0.4674454217412583 -1.3951676587520738e-05 2.0442188606710123e-05 0 0 0 0
262000000 0.8911962780137185 -0.48209961383336686 3.2165032228981624e-05 2.6789636145163036e-05 0 0 0 0
271000000 0.88219675185573 -0.4963352247351128 1.6568814579301036e-05 9.262610649222583e-06 0 0 0 0
280000000 0.8730682647491212 -0.5085874387202041 6.534818308461209e-06 2.4504683103359415e-05 0 0 0 0
289000000 0.8652791970997729 -0.5221614535442436 6.095786396484131e-07 6.234894954674625e-06 0 0 0 0
298000000 0.8567518182000918 -0.5362685643569818 -1.0546726784699159e-05 6.331000665019635e-05 0 0 0 0
307000000 0.8473111568243046 -0.548250000660148 -2.6663807071837816e-05 -3.3828694445215393e-06 0 0 0 0
316000000 0.8393834872963707 -0.5618905508238685 -2.7431956107671962e-05 6.897628114304976e-06 0 0 0 0
325000000 0.8281768574313181 -0.5766578133213293 -1.3128876347309087e-06 -5.740205710026965e-06 0 0 0 0
334000000 0.8224026435007331 -0.5850339596025596 6.81052533861081e-05 3.5305466308539635e-05 0 0 0 0
343000000 0.8101801187678495 -0.6014177924933976 2.765716729224034e-05 -1.773419206409705e-05 0 0 0 0
352000000 0.8001456286314077 -0.6138307547855801 -2.1575999825347114e-05 -2.5899705795673117e-05 0 0 0 0
361000000 0.7898985248036253 -0.62552150030407 -3.899115061124606e-05 -4.728150806995849e-05 0 0 0 0
370000000 0.7812635827505725 -0.6368473587735138 -1.1104940565284334e-05 1.4012567798051949e-06 0 0 0 0
379000000 0.7701840288804901 -0.6495620948036321 -6.9075648109941945e-06 6.395283176794358e-06 0 0 0 0
388000000 0.7590380519277345 -0.6637799861629784 1.361964310275681e-05 2.963272500888281e-05 0 0 0 0
397000000 0.7492819700560226 -0.6727061000886334 5.093379645821469e-05 -8.537758721238734e-05 0 0 0 0
406000000 0.7378351549045263 -0.6855874746027089 -1.245626346691999e-05 2.6049241542073507e-06 0 0 0 0
415000000 0.7277516672181246 -0.6967955197529326 9.582809418449327e-07 4.648662756766413e-05 0 0 0 0
424000000 0.717880299021995 -0.7070551542324968 -4.410645862753415e-05 2.870309255238766e-05 0 0 0 0
433000000 0.7052474443110663 -0.7202386486901075 2.794715366336436e-05 -1.7295513645778373e-05 0 0 0 0
442000000 0.6920366429859044 -0.7339657129047571 -9.264845630598521e-05 5.3397954066343564e-05 0 0 0 0
451000000 0.6835168124687008 -0.7420707612029838 7.67493981547732e-06 -2.6592670699583978e-05 0 0 0 0
460000000 0.6675823277269664 -0.7569618261557968 -2.599088329177536e-05 -1.614533455896854e-06 0 0 0 0
469000000 0.657111045358777 -0.7643776650865421 7.6148337772537215e-06 3.187813338589905e-06 0 0 0 0
478000000 0.6452397739939573 -0.7755230820078832 -0.0001152135160036364 6.493674662166667e-06 0 0 0 0
487000000 0.6306185072256473 -0.7883699947267446 -1.2046559181190424e-05 3.3712016496397386e-05 0 0 0 0
496000000 0.6211177294934623 -0.7962891828440098 1.0453421518812852e-05 7.558369192940284e-06 0 0 0 0
505000000 0.606053424560368 -0.8081776182191458 -1.7707210458080384e-05 1.6638859167638932e-05 0 0 0 0
514000000 0.595445914268249 -0.8178299312804655 -4.346214613612647e-05 -9.220537311867845e-05 0 0 0 0
523000000 0.5794575342759173 -0.8288002413923804 1.2028871717374433e-05 1.2300188033585427e-06 0 0 0 0
532000000 0.5665398608413683 -0.8396729717373473 -1.9809738866016035e-05 -2.0973241921313078e-05 0 0 0 0
541000000 0.5494857805272955 -0.8511387656415716 4.281864182142906e-05 7.906825712798693e-06 0 0 0 0
550000000 0.5349399660628046 -0.860353073527047 -1.5701731100965745e-05 -3.0031104401952447e-05 0 0 0 0
559000000 0.5215626062266537 -0.8688184397477453 1.0335982265462121e-05 -7.142335705369879e-07 0 0 0 0
568000000 0.5052208909012064 -0.8811375919071813 9.44283848960529e-05 -8.813199947816976e-05 0 0 0 0
577000000 0.4894763967903176 -0.8908423943658227 3.34720188384639e-06 4.8050378835916856e-05 0 0 0 0
586000000 0.47608916835382037 -0.895968757591268 -7.328344085985491e-05 7.341776824778767e-05 0 0 0 0
595000000 0.4560717212221066 -0.9082055734632398 -3.633910318892694e-05 1.869572445493178e-05 0 0 0 0
604000000 0.44431340542502273 -0.913674930637522 8.971218027179155e-07 5.2017265694576346e-05 0 0 0 0
613000000 0.42649140516006884 -0.9250220705239984 5.38527217670942e-05 5.279891532193686e-05 0 0 0 0
622000000 0.4065938042573138 -0.9322475158892917 -1.1919457477581391e-05 -2.319718006731757e-05 0 0 0 0
631000000 0.39634602699194676 -0.9368971889761922 -5.518238923017383e-05 2.314386546272314e-05 0 0 0 0
640000000 0.3744331410733434 -0.9474116693224068 -2.091437590357727e-05 7.172786712105278e-06 0 0 0 0
649000000 0.3561607702926571 -0.9536465439690037 -2.3075310410461815e-05 2.282829783010372e-05 0 0 0 0
658000000 0.3349988881327994 -0.961288459207431 -1.2991640000044307e-05 2.5273415470498114e-05 0 0 0 0
667000000 0.3183610998702831 -0.9658750935563454 2.6014995237263135e-05 2.7533980911836127e-05 0 0 0 0
676000000 0.2967674657599873 -0.9736965971334847 -1.4380762557613126e-06 3.7643121842526837e-05 0 0 0 0
685000000 0.27813555582343225 -0.9773323044053092 6.771279421838444e-05 8.098920955975023e-05 0 0 0 0
694000000 0.25713132170661 -0.9832656150488538 6.26087198507868e-05 3.1962982323306346e-05 0 0 0 0
703000000 0.2405376509157368 -0.9858300765567188 9.666070202642701e-05 5.190262046183385e-05 0 0 0 0
712000000 0.22629371786854632 -0.9868253888869384 3.9476111566446944e-05 3.0573616072653e-05 0 0 0 0
721000000 0.20193048903166091 -0.9896177917653872 0.00013160459741454913 9.217458467952924e-06 0 0 0 0
730000000 0.1822519141596355 -0.9928908333336143 8.619260005673796e-05 1.801545042122565e-05 0 0 0 0
739000000 0.16190242737119928 -0.9957237126213973 0.000132435007379308 -2.9455335384093366e-06 0 0 0 0
748000000 0.1382043148150343 -0.9951719423776171 4.984297667118611e-05 -4.090601562131569e-05 0 0 0 0
757000000 0.11307544397781635 -0.9955841030063107 0.00012889704179421237 2.948730074761143e-05 0 0 0 0
766000000 0.09300357387730313 -0.9954422510089789 0.00011036670990427289 -5.315832028603811e-06 0 0 0 0
775000000 0.08130442459052276 -0.9916904196340622 1.5115292862684236e-05 2.4175080058941754e-05 0 0 0 0
784000000 0.056078198079781566 -0.9921331600407389 3.895738838475885e-06 -0.0001349079780612274 0 0 0 0
793000000 0.03633425740479277 -0.9891128477727126 4.3412349197085876e-05 -5.180480960802156e-05 0 0 0 0
802000000 0.019285275211859534 -0.9848234242767376 1.3633568418077523e-05 -1.6429226212555898e-05 0 0 0 0
811000000 -0.00016761349560194498 -0.9805271723827562 7.505844895532262e-05 -1.5623787544447007e-05 0 0 0 0
820000000 -0.01445776466531953 -0.9776823281653828 1.799457860386884e-06 -2.7266769870049854e-05 0 0 0 0
829000000 -0.04290708079816511 -0.9718975152311577 -4.4756656395599614e-05 3.0757337876901334e-05 0 0 0 0
838000000 -0.05694981957877373 -0.9661989436480435 -8.395620071607136e-06 -2.4193141512044948e-05 0 0 0 0
847000000 -0.0733897650924364 -0.9632679560250305 -6.176380583170709e-05 -7.779271793657918e-05 0 0 0 0
856000000 -0.09408832887275197 -0.9549928856824227 2.9427252474055806e-05 -2.7835123382471463e-05 0 0 0 0
865000000 -0.11582690875845736 -0.9483703506373559 4.594292814267336e-05 -5.127231562768246e-06 0 0 0 0
874000000 -0.1278840462367623 -0.9399274123413052 -4.317416341567473e-06 -1.9380075739973674e-05 0 0 0 0
883000000 -0.1450087947350878 -0.9350540471977963 3.519938174896009e-05 2.6461300272270718e-05 0 0 0 0
892000000 -0.15956379580954616 -0.9257381396469044 -2.644429394531946e-05 -6.0280064847852896e-05 0 0 0 0
901000000 -0.16665270892500578 -0.92052835112437 4.499952490336199e-05 3.206295192523792e-05 0 0 0 0
910000000 -0.18678102863236978 -0.9105583769817497 -1.14647343003301e-06 -2.6929953727494078e-06 0 0 0 0
919000000 -0.20587732701084255 -0.9038168900520072 5.072365138559746e-05 4.319449069627348e-05 0 0 0 0
928000000 -0.21727154329649143 -0.8934949921103743 1.7943939091051762e-05 -4.4668781708708215e-05 0 0 0 0
937000000 -0.23506922074495215 -0.8842442076520072 -9.652911532770866e-07 1.6185465656616245e-05 0 0 0 0
946000000 -0.24249441182121503 -0.8777400744891477 -1.995059960015633e-05 -1.8519201762536363e-06 0 0 0 0
955000000 -0.2584521915144196 -0.869637752618943 5.896753506091234e-05 -3.1106395628153315e-05 0 0 0 0
964000000 -0.2723063127652118 -0.8600918036228766 -1.6254732047853065e-05 -3.835620609853677e-05 0 0 0 0
973000000 -0.2842583987857948 -0.8507192486125831 1.3486628180940179e-05 -3.906978048571299e-06 0 0 0 0
982000000 -0.2869496118652783 -0.8465980518269932 -2.7217139394839825e-05 -8.749185304458872e-05 0 0 0 0
991000000 -0.30245079022567134 -0.8366326046958783 -4.967402237706181e-05 2.2928049063622134e-06 0 0 0 0
1000000000 -0.31831529376809986 -0.8263147474785568 4.174537187954628e-05 -4.0062438937317784e-05 0 0 0 0
