# HZ S RI R 50
100000000 1.0125169386026593 -0.21816977102001323 2.665234086917065e-05 1.5552994460080008e-05 0 0 0 0
109000000 1.0081085137071766 -0.23463980838890017 4.229573009433691e-05 -5.9305929602978805e-05 0 0 0 0
118000000 1.0022868827577143 -0.24999153883774702 -2.6886114221741057e-05 8.814811753648567e-05 0 0 0 0
127000000 0.9970498323198724 -0.26530802212963683 -1.1994006322597415e-05 -3.309431135832224e-05 0 0 0 0
136000000 0.9914364269145803 -0.28104843594613155 1.3625031292606158e-05 -2.4752309735701672e-05 0 0 0 0
145000000 0.9831659881402546 -0.29594613690122357 -1.8956592077751318e-05 -3.132891481568268e-05 0 0 0 0
154000000 0.9770249961966039 -0.3122718469977493 -1.2879563619642519e-05 -6.1061713925182136e-06 0 0 0 0
163000000 0.9708210274573872 -0.3254815328039743 3.0634793107094008e-06 -2.8597319175109632e-05 0 0 0 0
172000000 0.9641919790886023 -0.3387311419219568 -7.529135240719252e-06 -1.3771657615769725e-05 0 0 0 0
181000000 0.9580623120009805 -0.3555422866551059 1.6975302936019615e-05 -3.192704900830343e-05 0 0 0 0
190000000 0.9502528887426731 -0.37078140769079276 -4.0702756445630504e-05 2.308950257039288e-05 0 0 0 0
199000000 0.9438945655649507 -0.3837631339071635 6.954658001881987e-06 1.423452063436561e-05 0 0 0 0
208000000 0.9366159668169093 -0.3998181832696162 -3.1407511558667825e-08 -1.731826894093547e-05 0 0 0 0
217000000 0.9283415440935358 -0.41334754805029705 4.508020041578919e-05 2.218819709348035e-05 0 0 0 0
226000000 0.9220034063391574 -0.427849743570019 7.68944565243337e-07 -4.213366451151346e-05 0 0 0 0
235000000 0.9153122223695556 -0.44015103600812816 1.722331317463511e-05 3.9144453414113794e-05 0 0 0 0
244000000 0.9067083609555147 -0.45513247041765337 -2.0586727000105613e-05 -1.3329649213188002e-05 0 0 0 0
253000000 0.8989120794747237 -0.46768149862436326 -5.998139539295454e-05 1.2658701296863248e-05 0 0 0 0
262000000 0.8903851348970202 -0.4834113370323015 -5.112419584954295e-05 5.95824327003155e-06 0 0 0 0
271000000 0.8829175622631669 -0.495473157730491 -3.9110766962460155e-06 9.136436823067834e-06 0 0 0 0
280000000 0.8752413782846437 -0.507920253350211 -2.511414466688442e-06 -3.359481889995741e-05 0 0 0 0
289000000 0.8652203591691412 -0.5232297608725032 4.592281075679996e-06 6.134451105241596e-05 0 0 0 0
298000000 0.8569661667886761 -0.536407777577766 -1.1442358304433446e-05 -1.4503599008318828e-05 0 0 0 0
307000000 0.8491748929986644 -0.5484141673508696 -5.903258061818911e-05 -5.1860930499928514e-05 0 0 0 0
316000000 0.8391880356295188 -0.5619536190050326 -2.3434927902603142e-05 -1.055014217460871e-05 0 0 0 0
325000000 0.8296266583621623 -0.5751217551806087 -2.8772770216421115e-06 -2.0056006000336454e-06 0 0 0 0
334000000 0.8200593860510508 -0.5882420171640486 -3.7934012123881047e-06 -1.77594575754304e-05 0 0 0 0
343000000 0.8122671630861085 -0.5966387146080403 -5.2850932406604404e-05 3.477337366500972e-05 0 0 0 0
352000000 0.8013465533262204 -0.6112163937279215 -1.333412418962305e-05 -1.0464476655033172e-05 0 0 0 0
361000000 0.7909499816839274 -0.6254019061536703 -4.106930597830983e-05 -3.939430901414165e-05 0 0 0 0
370000000 0.7804522627135405 -0.6379051230590834 5.570538835931134e-05 2.3220295422299506e-05 0 0 0 0
379000000 0.7704683691930193 -0.6490524462222735 -1.8686725656426394e-05 5.2336348050209694e-05 0 0 0 0
388000000 0.7594869683211377 -0.6622553819911913 3.1359372571848294e-05 -1.1681742929850386e-05 0 0 0 0
397000000 0.750563422739945 -0.6730197537068043 3.6551708155995835e-05 -1.3555782941233047e-05 0 0 0 0
406000000 0.7394544044237529 -0.6842486780094909 1.2102174681248773e-05 -2.9857722981342256e-05 0 0 0 0
415000000 0.7295923089902775 -0.6956938494531204 -1.684870701357047e-05 -1.764475507594652e-05 0 0 0 0
424000000 0.7150787992819548 -0.7086695411575358 -4.165218273936062e-05 -5.749209819610187e-05 0 0 0 0
433000000 0.7045577727072373 -0.7201017572690677 9.378409719505443e-06 5.198283438188387e-05 0 0 0 0
442000000 0.6934469893345309 -0.7317957644004165 6.029638002328079e-05 4.8572723661494005e-05 0 0 0 0
451000000 0.6832620918959411 -0.741884951656483 -3.1410563302841945e-05 4.8077948020902626e-05 0 0 0 0
460000000 0.671747942893555 -0.7537363092775944 -3.5517180678226726e-05 3.862963808781678e-05 0 0 0 0
469000000 0.6549478589394647 -0.7666601938791592 -1.847359709962159e-05 1.0479377669922912e-05 0 0 0 0
478000000 0.6402796608409104 -0.7784574673513205 2.487518042777367e-05 3.54327632183772e-05 0 0 0 0
487000000 0.632263657519195 -0.7874662290314829 3.370130680226825e-05 -4.4265046669719796e-05 0 0 0 0
496000000 0.6208719609887285 -0.7959099785034169 1.554232183292026e-05 4.479338442764632e-06 0 0 0 0
505000000 0.6095814676510266 -0.8062484989725613 9.545828443983176e-07 -3.7055003915535895e-05 0 0 0 0
514000000 0.5912545504945037 -0.8206284742051833 -4.1470051410304326e-05 9.65603647118329e-06 0 0 0 0
523000000 0.5787335792253536 -0.830002988043132 -5.129100357477579e-06 9.724008040829145e-06 0 0 0 0
532000000 0.5631069108092588 -0.8407613055417411 -3.0703352178679076e-05 -9.146627655695923e-06 0 0 0 0
541000000 0.5514217362001529 -0.8493216945618804 2.3259344598940805e-05 2.6042823170775097e-05 0 0 0 0
550000000 0.5365513500351358 -0.8591782412125022 -2.970307470667858e-05 7.481752034579111e-05 0 0 0 0
559000000 0.5191337316411055 -0.8710561842386969 2.549653008108293e-07 1.9357787178101224e-05 0 0 0 0
568000000 0.5003704923537712 -0.8815351373183888 -3.390016542898686e-06 -2.6615580455860174e-05 0 0 0 0
577000000 0.48791973035694747 -0.8910041067297003 -7.930462345593332e-05 1.9602414006937483e-05 0 0 0 0
586000000 0.4723913759215589 -0.8996734943192448 2.7955013859092263e-06 -1.7688074301152177e-07 0 0 0 0
595000000 0.4623325758532871 -0.9051154962267867 3.158339839054852e-05 1.0166723344349878e-05 0 0 0 0
604000000 0.44307104557141386 -0.9168305302167471 -5.812149811955029e-05 4.293064774914335e-06 0 0 0 0
613000000 0.42300996910207533 -0.923762018907124 -3.4415238777336916e-06 3.770523293457538e-05 0 0 0 0
622000000 0.41060654608650554 -0.9297798594407353 7.687721166412503e-06 3.300692167006403e-05 0 0 0 0
631000000 0.3959017131962062 -0.9387712379885724 4.453150941448982e-05 2.9770509863831623e-05 0 0 0 0
640000000 0.37134133265645874 -0.9475957437350614 4.975044078511276e-05 7.490697207841747e-05 0 0 0 0
649000000 0.35730991685361796 -0.952878153662396 -4.193913928364237e-05 0.00010433874159152765 0 0 0 0
658000000 0.3365809668348287 -0.9593687333123525 2.5888350856583177e-05 0.00010205306455927232 0 0 0 0
667000000 0.3253811999616364 -0.9620335656471278 1.2354825810522e-05 -9.248973818929766e-06 0 0 0 0
676000000 0.3057452231708248 -0.9682409352820576 4.21982663805261e-05 6.469388664515306e-06 0 0 0 0
685000000 0.2853857740565422 -0.9762988771023686 4.630650521985413e-05 3.596694785526946e-05 0 0 0 0
694000000 0.26500288844706676 -0.9801000098216253 5.380947481921908e-05 4.115416549252589e-05 0 0 0 0
703000000 0.2390448653839284 -0.9858191815686951 7.589904211867824e-05 8.651139495009483e-05 0 0 0 0
712000000 0.22324738869225622 -0.9881531323830143 3.447649827278078e-05 4.3786499026152646e-05 0 0 0 0
721000000 0.2058095469673054 -0.9874229242423233 5.299204780188593e-05 8.117689267193607e-05 0 0 0 0
730000000 0.17534181539764737 -0.9954529818775532 2.5562861784367382e-05 4.913456901699168e-05 0 0 0 0
739000000 0.15787584187609785 -0.9956635172566078 7.130912885458986e-05 8.412758257291862e-06 0 0 0 0
748000000 0.13933368621432202 -0.9940264063621593 0.00010898757762698565 -4.602778277334125e-05 0 0 0 0
757000000 0.12219332222948556 -0.995689612329408 0.00011856596352433603 -3.870567810541333e-05 0 0 0 0
766000000 0.1003445194369519 -0.9943064699306164 6.598226492863093e-05 1.0852036114083312e-05 0 0 0 0
775000000 0.07211469106874412 -0.9950965045713489 5.1959505888219934e-05 1.0437056172851835e-05 0 0 0 0
784000000 0.05635617076197461 -0.9911619240894936 -3.2073709664479785e-05 1.8291747739674945e-05 0 0 0 0
793000000 0.039452091893573016 -0.9885916042404442 2.8639835376902095e-05 -3.398258072508886e-05 0 0 0 0
802000000 0.019455324686508846 -0.9842629049251269 -6.757751789158382e-05 -3.6478932234580816e-05 0 0 0 0
811000000 0.0019067225840451339 -0.9826646276798408 -5.673594816300451e-06 -4.064309048196745e-06 0 0 0 0
820000000 -0.023661023346172722 -0.9757634376727374 -2.1553464366893193e-05 3.6456276850969434e-05 0 0 0 0
829000000 -0.038399360493827854 -0.9737889581099693 -5.722405634407964e-06 -2.279710514972717e-05 0 0 0 0
838000000 -0.05739839447620572 -0.9656675789053221 -1.959752621016803e-05 -2.8048470880663014e-05 0 0 0 0
847000000 -0.06969108376931255 -0.9596600510835416 1.2806782277976948e-05 4.54914347920083e-05 0 0 0 0
856000000 -0.09355406654733692 -0.9544489989344823 -7.840030413481757e-05 -3.8062033580740235e-05 0 0 0 0
865000000 -0.10493981423619413 -0.9462916602783414 3.9661419593857765e-05 -6.917611858924296e-05 0 0 0 0
874000000 -0.13208728423957816 -0.9405442651143946 -2.2028283368188113e-05 -6.21095360934854e-05 0 0 0 0
883000000 -0.13239847255405665 -0.9364589870296338 -7.9326705030808e-05 3.152968456817122e-06 0 0 0 0
892000000 -0.1581732587781692 -0.9263326024605587 1.3746540696070821e-05 -4.286736706835705e-05 0 0 0 0
901000000 -0.1748794992875869 -0.9175299605519619 1.8325229494553022e-05 -1.0038465661267927e-05 0 0 0 0
910000000 -0.19288903218166717 -0.9084254622900584 -1.3123465944795164e-05 9.61181462636373e-06 0 0 0 0
919000000 -0.20660954776660537 -0.9027779620145121 2.261736574720182e-05 1.6151907348194953e-05 0 0 0 0
928000000 -0.22130899361858752 -0.8929794398357139 -2.654004530193092e-06 -5.4027381306205885e-05 0 0 0 0
937000000 -0.23072307833879432 -0.8870241325308992 -7.327443599183761e-06 2.1936084269956666e-05 0 0 0 0
946000000 -0.24689871253987927 -0.8767636354902922 -2.6967143296761634e-05 2.0777785143870537e-05 0 0 0 0
955000000 -0.254146427295961 -0.869516723123216 3.154384281133444e-05 -4.809194974746683e-05 0 0 0 0
964000000 -0.26573177560797884 -0.860223095667338 1.3693760139687891e-05 -1.2022965589061034e-05 0 0 0 0
973000000 -0.2778447251692329 -0.8527364056248652 3.8677562080719644e-05 7.371933757707601e-05 0 0 0 0
982000000 -0.29254693328799336 -0.8440539109172147 9.432800987780164e-05 2.8514856199055292e-06 0 0 0 0
991000000 -0.30604032084913935 -0.835292653311487 8.159044829748291e-05 4.2881157703000254e-05 0 0 0 0
1000000000 -0.31972314725218065 -0.8262151610974233 1.466990393232018e-05 0.00010675727809038208 0 0 0 0
