# HZ S RI R 50
100000000 1.0120941622280073 -0.21916172188176417 5.917689199954835e-05 0.00011018820960265939 0 0 0 0
109000000 1.007455234094732 -0.23476800051420474 1.25322916354808e-05 -3.2951768481061775e-05 0 0 0 0
118000000 1.0026177554726532 -0.24965847213203107 1.4182786363947171e-05 -9.104405092260345e-05 0 0 0 0
127000000 0.9972729711047263 -0.2651220549132057 4.985107984925509e-05 6.267299968953264e-05 0 0 0 0
136000000 0.9918659241175444 -0.2795206047174978 -4.9916093746038596e-05 -1.9017017104221302e-07 0 0 0 0
145000000 0.9831125593406693 -0.29692587667345616 -1.3648440023670785e-05 4.463339139969454e-05 0 0 0 0
154000000 0.9777171477297251 -0.3098991430178278 6.796016756497828e-05 -1.6794519308062886e-05 0 0 0 0
163000000 0.9711825641910616 -0.3243153481702535 1.978712221439384e-06 -6.528676010837105e-05 0 0 0 0
172000000 0.9636468437704239 -0.34078366312112174 4.494436851569315e-05 3.410173571355128e-06 0 0 0 0
181000000 0.9576786571964367 -0.35464852651902584 3.439164468431628e-05 3.613833319085717e-05 0 0 0 0
190000000 0.950788309955633 -0.3700733234846572 -3.1101574064086685e-05 -1.0720855534643159e-05 0 0 0 0
199000000 0.9437319336369471 -0.38506732851512837 -1.994684968996121e-05 -3.3827713628065956e-05 0 0 0 0
208000000 0.9371072757591856 -0.3980189029797117 2.2875377401560795e-05 -6.115114466194147e-05 0 0 0 0
217000000 0.9293567511795284 -0.4129601303902624 -3.646980021084108e-05 -3.091642740930634e-05 0 0 0 0
226000000 0.9215479990053685 -0.4262601886762197 1.73335814322059e-05 -7.635609110568393e-06 0 0 0 0
235000000 0.9152081266291039 -0.44001201179224064 -1.6746100678757352e-05 1.9135356876622023e-05 0 0 0 0
244000000 0.9075381620283127 -0.45327079531305703 -1.4366793980863799e-05 1.7099628248543832e-05 0 0 0 0
253000000 0.8992014660368758 -0.46836047366768224 7.105822002524512e-05 3.6343481125920396e-05 0 0 0 0
262000000 0.8905123081291719 -0.48326172632778164 -1.8084823367138502e-05 -6.9391619545928615e-06 0 0 0 0
271000000 0.8831625881905607 -0.4948020091058237 -8.370731986013076e-07 1.2174916104001492e-05 0 0 0 0
280000000 0.874200453085144 -0.5091703398085903 4.4267910835126406e-05 -2.6673750223367825e-05 0 0 0 0
289000000 0.8641535016740904 -0.5245249300893169 7.1054131641146235e-06 4.70676702160612e-05 0 0 0 0
298000000 0.8577828997107483 -0.5362596214776217 -4.001908202644109e-05 -5.1496878775187585e-06 0 0 0 0
307000000 0.8475662816880334 -0.5497988596382071 -8.082355744932429e-06 -9.115884746590693e-06 0 0 0 0
316000000 0.8398280154467693 -0.5619250578139234 3.958128867468581e-05 -4.654454053170552e-05 0 0 0 0
325000000 0.8311890604808385 -0.5741370966486078 -5.381595010253119e-06 3.123111253027067e-05 0 0 0 0
334000000 0.8203973039016198 -0.5868981780524986 5.105851146973427e-06 -9.674243316243321e-06 0 0 0 0
343000000 0.8105010966014659 -0.6008044109562467 6.56479832970141e-05 6.323816630755946e-05 0 0 0 0
352000000 0.8016027842500707 -0.6127656628833303 2.5704215895040486e-05 1.5793934791580283e-05 0 0 0 0
361000000 0.7916288994608206 -0.6251003402585092 -1.9416102655835894e-05 -5.122835747337803e-05 0 0 0 0
370000000 0.7796385615180298 -0.6379154107371746 -4.458234165059574e-05 -6.001870670751268e-05 0 0 0 0
379000000 0.7679971873150881 -0.6518387286970934 -4.119662205790519e-05 -3.6483615938611756e-05 0 0 0 0
388000000 0.7605437009042153 -0.6605731667555419 2.532487749802681e-06 -2.3557545606467715e-05 0 0 0 0
397000000 0.7482245360991485 -0.6758478351186644 5.889212601933479e-05 -2.2979584852985756e-06 0 0 0 0
406000000 0.7373963639763947 -0.6861225004100369 1.6877833771406218e-06 -6.614367657963355e-05 0 0 0 0
415000000 0.7283803534148613 -0.6961683475213858 -2.0563313919988473e-05 7.014307586828132e-06 0 0 0 0
424000000 0.716192694918001 -0.7096627347545579 -2.894260684950065e-06 -1.9032019622900208e-05 0 0 0 0
433000000 0.7044654797666774 -0.7204559073500991 -4.667313454262501e-05 -3.054535504697844e-05 0 0 0 0
442000000 0.6904029327925405 -0.7339486962535751 -5.8612545120638096e-05 -8.053298186366124e-05 0 0 0 0
451000000 0.6821694866539836 -0.7432564061858443 -3.3935323087952226e-06 -3.3930879342536214e-06 0 0 0 0
460000000 0.6698324638769128 -0.7557358180897297 -4.153964439069799e-05 -2.6379198366378102e-05 0 0 0 0
469000000 0.6559461396177463 -0.7660035100103905 7.151711121203547e-05 4.074548523921452e-05 0 0 0 0
478000000 0.6420793668211934 -0.7778023124476525 -5.175358173236784e-05 2.2141985720745527e-06 0 0 0 0
487000000 0.6300168112545508 -0.7874226947450073 4.774873591644573e-05 7.931239186271783e-05 0 0 0 0
496000000 0.619451007159941 -0.7982386551847014 9.26641268342014e-06 9.779009884505919e-06 0 0 0 0
505000000 0.6052063487471456 -0.8091741819336852 3.690672987206381e-05 2.9749845640030178e-05 0 0 0 0
514000000 0.592019581715734 -0.8191513893907116 2.0455796717369822e-05 -2.320743402222078e-05 0 0 0 0
523000000 0.5770567360161852 -0.8301213547293805 4.328179411093684e-05 -8.188090952553032e-06 0 0 0 0
532000000 0.5647145095295116 -0.8397996952665099 -1.9129899236820958e-05 -4.889926681577619e-05 0 0 0 0
541000000 0.5497247624826943 -0.851400598368577 -2.7441511782332212e-05 -3.6290048462055155e-06 0 0 0 0
550000000 0.534994279067091 -0.8599421670321702 -0.00010943711769824948 -8.955042040856373e-07 0 0 0 0
559000000 0.5219760724124659 -0.8694846001563463 7.778982700365257e-05 5.482128704776907e-05 0 0 0 0
568000000 0.5079126142147238 -0.8780384480202018 4.8511688115853154e-05 -3.145510580333256e-05 0 0 0 0
577000000 0.4914872781458769 -0.890167002239001 -2.0022180484248768e-05 1.661940860641747e-05 0 0 0 0
586000000 0.4717041938896219 -0.8998228274425968 1.600824919987586e-05 -7.979548508326318e-06 0 0 0 0
595000000 0.46037307203259187 -0.9054726528816769 5.079948835029405e-05 5.355498014774792e-05 0 0 0 0
604000000 0.44509525275926437 -0.9132247562018438 -6.543924200020934e-05 8.018005610974189e-05 0 0 0 0
613000000 0.4319688502688057 -0.9223516822832754 -1.8528412980822645e-05 9.663523216877276e-05 0 0 0 0
622000000 0.40915427908514646 -0.9317047117805103 -7.308136785021235e-05 4.146681818334814e-05 0 0 0 0
631000000 0.38921832753327007 -0.9395325621555941 -7.533114098750613e-06 2.8067656450117206e-05 0 0 0 0
640000000 0.37445325874670343 -0.944924531309266 -4.581593719447845e-05 5.1394940619356306e-05 0 0 0 0
649000000 0.3612223177372559 -0.9497235347960767 1.641657356351499e-05 0.00010210491794291364 0 0 0 0
658000000 0.3350336578777408 -0.9608333544153851 3.867713226710652e-05 7.827472394334188e-05 0 0 0 0
667000000 0.3170162426997874 -0.9673118001519753 -2.9989262424929698e-05 0.00014760121680569465 0 0 0 0
676000000 0.2955667912490119 -0.9726553073683696 5.357851036841378e-05 0.00011522973760621468 0 0 0 0
685000000 0.2829919076462639 -0.97495184347782 -4.337193034856782e-07 3.4292921105077746e-05 0 0 0 0
694000000 0.26180979939564797 -0.9800823415371285 3.4971413814440066e-05 2.9643550650923985e-05 0 0 0 0
703000000 0.23790911493091646 -0.9839286360734837 5.435793995912855e-05 1.2582920605990021e-05 0 0 0 0
712000000 0.22343972448345112 -0.989868618948463 7.528531435826673e-05 -3.761002776938003e-06 0 0 0 0
721000000 0.20079496744092087 -0.9893434786867734 7.640573285765058e-05 1.3922444987601795e-05 0 0 0 0
730000000 0.17213558932743095 -0.9941809742631957 4.0899683934319114e-05 5.785288981017542e-06 0 0 0 0
739000000 0.1639617120173159 -0.9951203518011456 0.00010922206654938751 -2.0633462158834518e-05 0 0 0 0
748000000 0.14427511125483206 -0.9946366584680576 9.70182850122514e-05 -1.6431231320299845e-05 0 0 0 0
757000000 0.11976029350354819 -0.993067285335538 5.7284265795951515e-05 3.429030182009523e-05 0 0 0 0
766000000 0.10041147025360464 -0.9944776055578602 0.00011114800644767685 -0.00015110606962761075 0 0 0 0
775000000 0.07530149791130208 -0.9920011055854909 1.4949216977412822e-05 -2.4534028320851993e-05 0 0 0 0
784000000 0.06047955495150569 -0.9915591103436672 4.54342273235127e-05 -2.161661832655425e-05 0 0 0 0
793000000 0.03868048164510122 -0.9901021323900279 -3.063057435447735e-05 5.204388759819208e-06 0 0 0 0
802000000 0.021343042590462654 -0.9852421223441677 5.225122882998238e-05 -1.7319879123006737e-05 0 0 0 0
811000000 0.0012238700152537175 -0.9824787227863585 4.690283046900626e-06 -3.343377370184602e-05 0 0 0 0
820000000 -0.01930014364136299 -0.9776086354247098 4.6342342923350785e-05 -2.3671589583562728e-05 0 0 0 0
829000000 -0.039078067934837035 -0.9716911427062187 -1.2505357517563404e-05 2.438188694212113e-05 0 0 0 0
838000000 -0.062112699978598 -0.9675727996079032 2.582076057264847e-05 3.065459337263635e-05 0 0 0 0
847000000 -0.07088700603929061 -0.9611438552774259 9.614404050098062e-06 -3.397341842586312e-05 0 0 0 0
856000000 -0.08823600048643684 -0.9558242488837718 -2.808819364899019e-05 -6.494835175923207e-05 0 0 0 0
865000000 -0.10841214748744801 -0.9496454434951396 -2.4732960131368067e-05 -1.556411398909231e-05 0 0 0 0
874000000 -0.12673210913652816 -0.9419554580546431 1.6360308213258364e-05 -4.8288742889511825e-05 0 0 0 0
883000000 -0.13734675087352327 -0.9351619337762428 -7.307342634808117e-05 5.01100152079497e-06 0 0 0 0
892000000 -0.1581732358105514 -0.9256660618356382 -3.2027296074510466e-05 3.8656896929369694e-05 0 0 0 0
901000000 -0.17167709162302836 -0.9183738834551224 -7.703034107533199e-05 -4.552687838428123e-05 0 0 0 0
910000000 -0.19324710912946969 -0.9092934756580386 3.4691051384642184e-05 6.992418561961704e-05 0 0 0 0
919000000 -0.2013750132779168 -0.9023010428703511 -3.458382160786792e-05 5.453747074320293e-05 0 0 0 0
928000000 -0.21979127424354797 -0.8951922261257449 2.615859754503799e-05 -1.1050088002879383e-05 0 0 0 0
937000000 -0.22265400932610105 -0.8868647926098889 -1.3628555779559128e-05 6.66662843981937e-05 0 0 0 0
946000000 -0.24350716093825756 -0.8790302417435826 4.345734411165185e-05 -2.931728138867779e-05 0 0 0 0
955000000 -0.2582556271345289 -0.8693102010992917 3.090719087401778e-05 4.2187540539811304e-05 0 0 0 0
964000000 -0.26593204739470533 -0.8607471576482799 -3.9036189998316224e-05 2.0430241528534348e-05 0 0 0 0
973000000 -0.28767864196488296 -0.8519464939003102 3.0092413543719885e-07 2.4890069146994273e-05 0 0 0 0
982000000 -0.29695927488691 -0.8419083412066343 -8.770700656410509e-05 -9.103475867214173e-06 0 0 0 0
991000000 -0.3041724929587676 -0.8354376735309241 -1.51759372750498e-05 3.514723403459979e-05 0 0 0 0
1000000000 -0.3148880184103879 -0.8268844670989599 1.9223747894146264e-05 1.6317813592655756e-06 0 0 0 0
