# HZ S RI R 50
100000000 1.0047764833727149 -0.21809362121565135 1.500544082577673e-07 -1.9558084651720676e-06 0 0 0 0
109000000 1.0075787851348796 -0.23411799632428384 2.4904174371451036e-05 9.877912081030425e-06 0 0 0 0
118000000 1.0022249834419705 -0.2495904598648014 -1.0180634462370722e-05 -1.4063914403483488e-05 0 0 0 0
127000000 0.9969317718026077 -0.265661093416287 9.480214396792548e-06 9.966895491310174e-06 0 0 0 0
136000000 0.991241335420607 -0.28124925899941744 -2.1347452390492208e-05 6.23072476423025e-06 0 0 0 0
145000000 0.9831082592684552 -0.29731849132292026 -1.3289168475539063e-05 -8.63243915918781e-06 0 0 0 0
154000000 0.9768898760587654 -0.3106134387608431 -2.4777274629256736e-07 2.1665486012600245e-05 0 0 0 0
163000000 0.9700031871743453 -0.3268505747156177 1.2691334878665025e-05 -2.0857360611384954e-05 0 0 0 0
172000000 0.9642906809530875 -0.34096934372747184 -5.856439405926836e-06 1.2597185938568996e-06 0 0 0 0
181000000 0.9580634634220817 -0.354728734734672 3.093437968735587e-05 -3.827570605904068e-06 0 0 0 0
190000000 0.9505764258153582 -0.3708026192837738 2.5400906784453163e-05 -1.4288090482649455e-05 0 0 0 0
199000000 0.9437467003063368 -0.38534514613782234 4.579858017989657e-05 6.081178497324529e-05 0 0 0 0
208000000 0.9369173764378737 -0.398120143127221 -1.1393418450369052e-05 1.511131375590174e-05 0 0 0 0
217000000 0.9297853253346586 -0.41350605453176176 -8.183691620477373e-06 -2.1607636374120895e-05 0 0 0 0
226000000 0.9222444867228796 -0.42589168975383285 -3.3488371435917826e-05 -2.2390760301064953e-06 0 0 0 0
235000000 0.9148932552652274 -0.44107528427572934 -2.387913475332298e-05 -7.109594134897021e-06 0 0 0 0
244000000 0.9066194658909057 -0.4557569306187347 3.7045201634978396e-05 2.2314987144503428e-05 0 0 0 0
253000000 0.8983295385248817 -0.46881257141866284 3.419718358701845e-06 1.0917599362998505e-05 0 0 0 0
262000000 0.8903409878035037 -0.48355014657570955 -9.461032283703622e-06 -6.753645562478321e-06 0 0 0 0
271000000 0.8824121186088735 -0.49642609739577576 -8.89411336049245e-06 4.58355918288493e-06 0 0 0 0
280000000 0.8731485309195484 -0.5088069196810372 -4.922635588426589e-05 3.3681845533750526e-06 0 0 0 0
289000000 0.864855550799123 -0.5245672707454591 2.258473847181309e-05 2.7423340556074937e-06 0 0 0 0
298000000 0.855562612678644 -0.5373585213762089 -1.4241452492621275e-05 1.2980053942533638e-05 0 0 0 0
307000000 0.8487858124797553 -0.5494204333916726 -2.017763299956405e-06 -8.849489285008659e-06 0 0 0 0
316000000 0.8391806817230694 -0.5619186403606764 1.5101166992826446e-05 -2.4680550998532718e-06 0 0 0 0
325000000 0.8287668017881451 -0.5743196113773117 -2.1082346625962856e-05 1.0435834443266125e-05 0 0 0 0
334000000 0.820176219424906 -0.588559853500298 2.242700390603242e-05 -4.2218951482163445e-05 0 0 0 0
343000000 0.8105207437701806 -0.6005356392242236 -8.692883594005017e-06 -2.5466412455354484e-05 0 0 0 0
352000000 0.7997634351223862 -0.6123642049883536 -2.197938017250068e-05 5.065394287039421e-05 0 0 0 0
361000000 0.7879517679792344 -0.6281214794314958 -1.7103197409203698e-05 -1.0808296682425272e-05 0 0 0 0
370000000 0.7794851290921259 -0.638068451093054 -1.1307239383380968e-05 -1.6198380891473883e-06 0 0 0 0
379000000 0.7682251839883738 -0.6509591374827561 -5.1888797722618885e-06 -1.6332499940291977e-05 0 0 0 0
388000000 0.7595909112892185 -0.6627571158307467 -3.895189817271225e-05 3.5911699263270153e-06 0 0 0 0
397000000 0.7475281039257974 -0.6753364416109991 -5.358625766921731e-07 1.0197489511510801e-05 0 0 0 0
406000000 0.7371909052056849 -0.6851566945822604 -1.651229727166818e-05 3.035040889665934e-06 0 0 0 0
415000000 0.7262613817430127 -0.6978443959060386 8.415524352222747e-06 -1.1037148411620227e-08 0 0 0 0
424000000 0.7172281768964588 -0.707659750876915 1.9218813415315042e-05 4.3999159958901285e-05 0 0 0 0
433000000 0.7025670041019849 -0.7224176523834255 2.363022970750545e-05 -2.2462767893232327e-05 0 0 0 0
442000000 0.6949618080310461 -0.731007736486004 2.1749489328382308e-06 2.9144839907039037e-05 0 0 0 0
451000000 0.6786974631146826 -0.746378049137362 1.6148561506920763e-06 1.027620303610446e-05 0 0 0 0
460000000 0.6716176164431811 -0.7520747011531603 7.58084540826415e-05 -5.0613418459062314e-05 0 0 0 0
469000000 0.6583395823446183 -0.7639093659866184 3.6421709071521877e-06 9.666832267324736e-06 0 0 0 0
478000000 0.6455823610491368 -0.7756644917114907 -4.81853609816305e-06 3.498686293658197e-05 0 0 0 0
487000000 0.6331784716361589 -0.7856997793531584 1.6189170996694164e-05 3.5960829607569194e-06 0 0 0 0
496000000 0.6193799725717385 -0.7977905259969776 -2.4540120571485635e-05 2.568447920749014e-05 0 0 0 0
505000000 0.6044570916491318 -0.8105199976751064 -5.518551011175917e-06 2.9577790497505275e-05 0 0 0 0
514000000 0.5937837921378701 -0.8184761627870412 -3.766954678538973e-05 5.177635364897454e-06 0 0 0 0
523000000 0.5788183012581647 -0.8300165700107711 -5.412757237243603e-05 3.866435518269411e-06 0 0 0 0
532000000 0.5660480743312981 -0.8392379480180134 1.9235119469093064e-05 -1.3498050337401975e-05 0 0 0 0
541000000 0.5502250357700479 -0.8502000639928845 4.611321536490738e-05 -2.993488440157969e-05 0 0 0 0
550000000 0.5387932997421384 -0.8580305231026715 -2.9378571949344587e-05 -5.4774490328570594e-05 0 0 0 0
559000000 0.521224761609765 -0.8689198500910766 -1.551404226718626e-05 7.423741991217138e-06 0 0 0 0
568000000 0.5064424823387238 -0.8784177200557287 -6.511080868812223e-07 -2.38094220021233e-05 0 0 0 0
577000000 0.4924660103573914 -0.8885982263679827 -3.756918944601653e-05 -2.0749226604498418e-05 0 0 0 0
586000000 0.47898805731870187 -0.89633784491211 -8.35482052661328e-06 -7.116277930148818e-05 0 0 0 0
595000000 0.45831206680988573 -0.9063905629482344 -6.614508095406621e-06 7.704925516680926e-06 0 0 0 0
604000000 0.4441782499785946 -0.9140883875027251 1.9419135698328376e-05 -7.857542360522964e-06 0 0 0 0
613000000 0.4272559974503776 -0.9223080818362019 2.664696199489739e-06 3.2495711873119114e-05 0 0 0 0
622000000 0.40723068194621737 -0.9328095484887753 2.879117880710476e-05 1.326149131436138e-05 0 0 0 0
631000000 0.39238250264873054 -0.9380329218254357 3.595762161869021e-05 1.574482717608623e-05 0 0 0 0
640000000 0.37337045022004406 -0.9466239832948001 1.7997135121959666e-05 1.964372029192253e-05 0 0 0 0
649000000 0.3570257534599132 -0.9534998611687111 -1.9784169703194703e-05 2.578613395628707e-05 0 0 0 0
658000000 0.3365646629190573 -0.9604119085311459 4.2431694823301916e-05 2.991771360842382e-05 0 0 0 0
667000000 0.3224222668523836 -0.9656068620079111 -1.663277597822444e-07 5.454192606823222e-05 0 0 0 0
676000000 0.3000514347341456 -0.9718363268544286 -1.9548282910165716e-05 3.204778553807226e-05 0 0 0 0
685000000 0.27755326305055716 -0.976366984804745 5.676068228121173e-05 5.937596904960869e-05 0 0 0 0
694000000 0.2590075890960019 -0.981716568281329 -2.7849465623989148e-05 3.4048916542777746e-05 0 0 0 0
703000000 0.23947506190202825 -0.9845308040733397 8.146804979332546e-05 5.9370029436348496e-05 0 0 0 0
712000000 0.2218057516249064 -0.9869832030345667 2.7414634119085422e-05 2.858140680956715e-05 0 0 0 0
721000000 0.2047654670077321 -0.9914683377509471 0.00010197726554039229 -2.2620493773082785e-05 0 0 0 0
730000000 0.18025798854309863 -0.9933006913932151 5.030338834896471e-05 -1.8786571049870293e-05 0 0 0 0
739000000 0.1583057132642015 -0.9964586742762757 4.937541724727548e-05 8.328375425838166e-05 0 0 0 0
748000000 0.13889016868911028 -0.9948898700925008 0.00010624470500830213 -3.0225667050114634e-05 0 0 0 0
757000000 0.11631541951330654 -0.9961158073875453 7.285878293164752e-05 -5.0240822492495505e-05 0 0 0 0
766000000 0.09926954806639962 -0.9936090474584944 8.079718717006735e-05 -3.157518059418971e-05 0 0 0 0
775000000 0.07849696197941729 -0.9931888124544945 9.962880425098368e-06 -2.3569927824545957e-05 0 0 0 0
784000000 0.06009117645318079 -0.9915646282888694 4.8955749602264166e-05 -7.249011034305034e-05 0 0 0 0
793000000 0.03392083920309758 -0.9890772433640683 4.8191900927933405e-05 -3.406979763032844e-05 0 0 0 0
802000000 0.024278376287503296 -0.9851997652164386 -1.77437376594358e-05 1.8717882394695195e-05 0 0 0 0
811000000 -0.004827519384931836 -0.9828261836979336 6.954927618011084e-05 -1.634202180837791e-05 0 0 0 0
820000000 -0.02324609131122577 -0.9776127831745609 3.6485171754928334e-05 -3.473022223156679e-05 0 0 0 0
829000000 -0.035152581223115084 -0.9710518588431062 -4.230539053430902e-06 1.6891883856632172e-05 0 0 0 0
838000000 -0.059744171781690156 -0.9682139292728648 2.8787163660347333e-05 -1.3675272783792215e-05 0 0 0 0
847000000 -0.06925736142863112 -0.9599957052549181 -1.4984331397757683e-05 -7.426642662307846e-07 0 0 0 0
856000000 -0.09221721933361114 -0.9550536875259563 -1.8255157897116396e-05 -1.0883800445402779e-05 0 0 0 0
865000000 -0.10574281092901122 -0.9479539142673875 7.151183391821103e-05 2.0259746444411033e-05 0 0 0 0
874000000 -0.12549219697543706 -0.9422040185601066 -1.426001225116795e-05 2.7748435486960386e-05 0 0 0 0
883000000 -0.1373318918585483 -0.9339258478003842 1.7810361428877286e-05 -3.6102983079413135e-06 0 0 0 0
892000000 -0.1609210748738787 -0.925700016978081 -1.7731088991956816e-05 4.9327436641082764e-06 0 0 0 0
901000000 -0.17503694902936945 -0.9170239150557129 2.993871048946296e-05 -3.3668332466713025e-05 0 0 0 0
910000000 -0.1945439477382827 -0.9087473370402708 -4.0129472654032234e-05 -3.7581590565533316e-05 0 0 0 0
919000000 -0.20110636849833777 -0.9021947725704272 5.344960026004089e-06 -1.9887717824753557e-05 0 0 0 0
928000000 -0.22062311923969816 -0.8927657817996391 -1.7514232156923405e-06 5.8888707220854845e-05 0 0 0 0
937000000 -0.23161852175229974 -0.8853656823590035 1.3677668185482592e-05 -1.60375385258536e-05 0 0 0 0
946000000 -0.24681383569964746 -0.876260189067083 3.354778116434905e-05 -5.459303541644259e-06 0 0 0 0
955000000 -0.2572304431039964 -0.8695363443829706 -2.9240245845552637e-05 1.6830119350560152e-05 0 0 0 0
964000000 -0.270588874324266 -0.8608603612806696 -2.0022465210772624e-05 1.555646198768208e-05 0 0 0 0
973000000 -0.2827220956032909 -0.8508788109458052 -3.670683892444194e-05 1.7847972492078833e-05 0 0 0 0
982000000 -0.28975814494260865 -0.845330993843951 5.678752455855857e-05 -2.1653400930493663e-05 0 0 0 0
991000000 -0.30015215869260753 -0.8360225799362179 -1.3793833167210794e-05 -1.066178532364751e-05 0 0 0 0
1000000000 -0.317435053007054 -0.8278539762026995 -3.844295505115432e-05 -2.7078530877365225e-05 0 0 0 0
