# HZ S RI R 50
100000000 1.0075711853878428 -0.21947855368002275 2.7571031469307246e-05 3.165060781840001e-05 0 0 0 0
109000000 1.0075801131619888 -0.23427708518157284 -2.2428506675512042e-05 -1.8203467980924468e-05 0 0 0 0
118000000 1.0023217099328114 -0.250189964257034 2.986901107086952e-06 7.995968904285746e-06 0 0 0 0
127000000 0.9970061709692811 -0.2655461593409117 2.5161948347274186e-05 5.9568449520509515e-06 0 0 0 0
136000000 0.9915596777368362 -0.28169551560855477 1.6962903543715167e-05 -3.287287561500005e-05 0 0 0 0
145000000 0.9835474836542689 -0.2942463470426981 7.286867696202902e-06 8.348330121733933e-06 0 0 0 0
154000000 0.9768908179028425 -0.3109314488615085 -2.2905266774572846e-05 -3.360245400515649e-05 0 0 0 0
163000000 0.9706470285750426 -0.32603547783142584 -3.9301907935622093e-05 4.5913596465652515e-06 0 0 0 0
172000000 0.9639967099248598 -0.34110191886152497 1.998984780654391e-05 2.9560288517947013e-05 0 0 0 0
181000000 0.9583677492659232 -0.35369232340305073 -6.150533226355638e-06 4.905714834500024e-06 0 0 0 0
190000000 0.9510650406173172 -0.3700042631486474 -2.270560918078487e-05 2.8161433322055697e-05 0 0 0 0
199000000 0.9443261280151245 -0.3839283875177009 -3.3247921402978805e-06 -3.4530980716737613e-05 0 0 0 0
208000000 0.9368825027988285 -0.3994198479405286 -6.5598091299624885e-06 -1.3072294136279074e-05 0 0 0 0
217000000 0.928407828992834 -0.41244294348036203 1.4114496353998554e-05 3.356866156443057e-05 0 0 0 0
226000000 0.9222248876568803 -0.4278137755738068 1.670931684683447e-06 4.29795552103593e-05 0 0 0 0
235000000 0.9147197464419378 -0.44061173387134195 -7.006694522095422e-05 3.0620939584493205e-05 0 0 0 0
244000000 0.907115055871646 -0.4546421097874101 -8.356192698165546e-06 3.848245908485863e-06 0 0 0 0
253000000 0.8981257668304117 -0.46963614740950704 -2.2148470031043616e-05 1.3087665588985104e-06 0 0 0 0
262000000 0.8907048617581131 -0.48188626888345143 1.112350325887104e-05 6.635979021798452e-06 0 0 0 0
271000000 0.8815082324264027 -0.49658518193748424 4.0320061165033305e-05 1.4257520674805559e-05 0 0 0 0
280000000 0.8732872820023605 -0.5093024032348936 3.6767265158730297e-06 -4.0896946424343245e-07 0 0 0 0
289000000 0.8656184275848394 -0.5244245705039545 -6.459452997142388e-06 -2.8645857270631772e-05 0 0 0 0
298000000 0.857646076160782 -0.5344765968959195 1.153896107984293e-05 4.8761266286531836e-05 0 0 0 0
307000000 0.8456441884223282 -0.551479412400854 1.7264037216578987e-05 -3.147584431285488e-05 0 0 0 0
316000000 0.8397506891139159 -0.561314489804182 -5.9316462643974975e-05 1.2901852659311606e-05 0 0 0 0
325000000 0.8299989316926508 -0.5751019051734573 2.3709826517205022e-05 2.988190978853354e-05 0 0 0 0
334000000 0.8198516502601876 -0.5880696581598454 2.1509890486419703e-05 -4.72220771509751e-05 0 0 0 0
343000000 0.8096714382545482 -0.6013181489285087 -1.5510168282443616e-05 7.342962144484295e-05 0 0 0 0
352000000 0.8004047333698205 -0.6143227040330274 3.59176715013778e-05 3.0723400988637474e-05 0 0 0 0
361000000 0.7907100531615174 -0.6268374473590989 6.186373827087449e-05 1.9673997919477703e-05 0 0 0 0
370000000 0.7809338312748334 -0.637553738746312 5.998458701702033e-05 2.8086083732764254e-05 0 0 0 0
379000000 0.7714914688065573 -0.6482988626918051 -4.561905879830842e-05 5.4158958879989366e-06 0 0 0 0
388000000 0.7607019460472744 -0.6609633512725659 4.468181340320124e-05 4.358312696934954e-05 0 0 0 0
397000000 0.7504123211037265 -0.6726311062463433 5.4092557661547965e-05 -5.32538137212266e-06 0 0 0 0
406000000 0.7343821979084959 -0.6883625350281487 6.759007162107118e-05 -2.7816172086552198e-05 0 0 0 0
415000000 0.7284774971023702 -0.6963977616383047 -2.0794460022867948e-05 4.071092671729171e-05 0 0 0 0
424000000 0.7198925934107977 -0.7068085420993022 0.00011248213365478168 1.0821972641496653e-05 0 0 0 0
433000000 0.7064316420395886 -0.7174242741026535 7.007863498930439e-06 3.630077615771216e-05 0 0 0 0
442000000 0.6917863021095444 -0.7331560434592862 -3.191542185700451e-05 9.18211056865907e-06 0 0 0 0
451000000 0.6836351380766595 -0.7418228116042892 -3.569029978444881e-05 4.648099884607925e-05 0 0 0 0
460000000 0.6724378190826399 -0.7540316371144136 -6.266569592372811e-07 9.108284245976178e-06 0 0 0 0
469000000 0.6576220432629909 -0.765503539833419 1.0864081026769949e-05 -3.6021319713300304e-07 0 0 0 0
478000000 0.6470559847659811 -0.7739131964807633 -6.747602890256904e-07 -1.8821461780094304e-05 0 0 0 0
487000000 0.6350338616240145 -0.785714405491423 -4.993341439148056e-05 -0.00013525053805827635 0 0 0 0
496000000 0.6166499854245364 -0.7989034861679188 2.285355499059954e-05 3.517502163510537e-05 0 0 0 0
505000000 0.6067807412087739 -0.8076580774803007 1.2850972856546707e-05 1.3094668844034792e-05 0 0 0 0
514000000 0.5917901552196386 -0.820182628002771 4.3056815283871076e-05 -2.5011558056075073e-05 0 0 0 0
523000000 0.5782843198433736 -0.8292124919303899 -4.3583697411448264e-06 -1.710144592056614e-05 0 0 0 0
532000000 0.5657190039112755 -0.8389443581316685 2.014293254202709e-06 6.0529228334191414e-05 0 0 0 0
541000000 0.5465588583644858 -0.8524004251871259 -7.110326714366873e-05 -7.08102045666786e-05 0 0 0 0
550000000 0.5358662583468258 -0.8604229955755747 1.9299808791597666e-05 -4.625682940162269e-05 0 0 0 0
559000000 0.5185214301968164 -0.8715586321153663 8.018629272269376e-05 3.557438917502154e-05 0 0 0 0
568000000 0.5053092612404713 -0.8804257476743447 -6.0293733582881595e-05 1.1368547531206934e-07 0 0 0 0
577000000 0.4895948255846439 -0.8892171901533189 2.9698470127064207e-05 6.1228114370203186e-06 0 0 0 0
586000000 0.47752220886714136 -0.8963903094242848 3.084949538759001e-05 -6.568983012905222e-05 0 0 0 0
595000000 0.4604043967063967 -0.9054340159390211 6.41342336290072e-05 -1.0016411277016433e-05 0 0 0 0
604000000 0.4397394739949774 -0.9165633066017282 -4.867927790630715e-06 -6.34137236340018e-05 0 0 0 0
613000000 0.4274211664067244 -0.9233097225848534 1.970485162834819e-05 1.2150396219749825e-05 0 0 0 0
622000000 0.4065935227346833 -0.9314892564931936 3.880810372075182e-05 8.608913769851348e-05 0 0 0 0
631000000 0.3878172890844121 -0.941034807117619 1.7896687644269677e-05 1.2731234206025803e-05 0 0 0 0
640000000 0.37349279145958486 -0.9460810366874268 2.678091685444587e-06 -1.773305646467451e-05 0 0 0 0
649000000 0.35635072785194233 -0.9541873018232053 3.0551673156780595e-05 -1.4309729639374926e-05 0 0 0 0
658000000 0.33769900509467454 -0.9605029121119519 2.458104075167808e-05 1.051384461975056e-05 0 0 0 0
667000000 0.32105770654625154 -0.9640163291302059 1.820418590747645e-05 1.285405127116461e-05 0 0 0 0
676000000 0.3015364230015905 -0.9717235876978914 6.296693567117259e-05 1.1790165791995931e-05 0 0 0 0
685000000 0.2802949659257668 -0.9776877916273771 3.623994664622494e-05 -1.4882514673424883e-05 0 0 0 0
694000000 0.2603670979978485 -0.9829448965646311 -6.287823699461099e-06 4.488442814558499e-06 0 0 0 0
703000000 0.2429458200395987 -0.9847455881086404 2.4018339830861235e-05 0.0001219654240382026 0 0 0 0
712000000 0.22177826272797765 -0.9890913683946934 2.6911601390455054e-05 6.249171002823207e-05 0 0 0 0
721000000 0.2089107496019671 -0.9941900556593786 6.698037523473841e-05 6.862466059372012e-05 0 0 0 0
730000000 0.1817477840578721 -0.9911397140503904 8.800525771813096e-06 3.0164484070542966e-05 0 0 0 0
739000000 0.16132684132505443 -0.992043443479581 4.746625471310217e-05 4.883568938027707e-06 0 0 0 0
748000000 0.1381769843365303 -0.9953880733462452 0.00013914218170057495 -1.691700596717931e-05 0 0 0 0
757000000 0.12053287151091895 -0.9951947293292841 0.00012417618663829633 2.372551276136634e-05 0 0 0 0
766000000 0.09683933835122654 -0.9934517303842723 5.561068511965214e-05 -2.767646950176183e-05 0 0 0 0
775000000 0.08431601259199317 -0.9944914523953423 4.234414901626772e-05 1.1897609865637576e-05 0 0 0 0
784000000 0.056449579044985536 -0.9902706616408956 4.790530994308121e-05 -6.055960865132335e-05 0 0 0 0
793000000 0.04199212927183167 -0.9894425826768554 -2.5699064298697433e-06 -7.165315963805839e-05 0 0 0 0
802000000 0.019449907973552616 -0.983857469776606 3.98191413661635e-05 -0.00011768997292996383 0 0 0 0
811000000 -0.010865735598899622 -0.9827796807996734 2.8849116335309032e-05 5.0257254799359e-05 0 0 0 0
820000000 -0.01893307621576898 -0.9766334907168579 -1.4349512120446975e-05 -1.4225996902468182e-05 0 0 0 0
829000000 -0.03867212266873941 -0.9733740088357005 -4.236401625648097e-05 -1.354629719179674e-05 0 0 0 0
838000000 -0.06338449289659782 -0.9659536849166188 -5.128476978126403e-05 -2.3601383476883904e-05 0 0 0 0
847000000 -0.0759666032525205 -0.9614665607312065 5.114432646985499e-05 -4.818141599396542e-06 0 0 0 0
856000000 -0.10006047029663909 -0.955028585184138 -9.354009003074017e-06 -1.8258187127448103e-05 0 0 0 0
865000000 -0.10284823015031176 -0.9504817443771635 -5.684700870168998e-05 2.8114999585224257e-05 0 0 0 0
874000000 -0.12158893179767086 -0.9408179108559424 2.7291883856039458e-05 2.6216475173941882e-05 0 0 0 0
883000000 -0.14617255547887179 -0.934011467013634 -2.209379489910423e-05 7.063009242907627e-05 0 0 0 0
892000000 -0.15541036696900093 -0.9265380192248626 2.118399482086168e-06 -4.342422114461803e-05 0 0 0 0
901000000 -0.17395869292803207 -0.9168845987570328 -1.559303501788466e-05 1.0737189029655923e-06 0 0 0 0
910000000 -0.18847803135485705 -0.9100758392043516 5.0377026083130483e-05 6.919398441336731e-05 0 0 0 0
919000000 -0.19987317835057927 -0.9032761464271508 3.763879903624116e-05 9.47294742270882e-06 0 0 0 0
928000000 -0.2168299894298585 -0.8953226219673633 0.00010861516609633026 -1.0832720569360645e-05 0 0 0 0
937000000 -0.23546615364574822 -0.885159566956008 3.1277318576568465e-05 -1.949762937885187e-05 0 0 0 0
946000000 -0.2454752819210995 -0.8764749837894322 1.3123374375342948e-05 -2.8473649716112013e-05 0 0 0 0
955000000 -0.25862260108701646 -0.8671129691565825 -9.695125089906166e-06 6.756097809896778e-05 0 0 0 0
964000000 -0.2649731820687063 -0.8622680000980286 3.16734235224942e-05 -4.0241964390168644e-05 0 0 0 0
973000000 -0.28389906300680445 -0.850899747723148 -7.888770305160488e-05 4.384154186633026e-05 0 0 0 0
982000000 -0.2920052337469156 -0.844493549478564 -2.7586218904257896e-06 -2.4601663553275522e-05 0 0 0 0
991000000 -0.3028484662641708 -0.8372300450454985 -3.219206737570409e-05 1.6942524978953323e-05 0 0 0 0
1000000000 -0.31329627107126023 -0.8284260637944889 5.821406361940993e-05 -1.639996754149438e-05 0 0 0 0
