# HZ S RI R 50
100000000 1.0148412949602807 -0.21922460565527882 -7.880750142409527e-05 -2.0025262712694896e-05 0 0 0 0
109000000 1.0077217270495893 -0.23429059402977026 -2.652783391623235e-05 6.809046988452974e-05 0 0 0 0
118000000 1.0025515300558934 -0.25002773540489337 1.4471307813547792e-05 3.5829802940432484e-05 0 0 0 0
127000000 0.9971919944434393 -0.2655195915286025 -4.477891248744222e-05 -1.0496103191628381e-05 0 0 0 0
136000000 0.9915776065614007 -0.28031956579122613 6.72468332244515e-07 -3.3180873225960146e-05 0 0 0 0
145000000 0.9826306432441114 -0.29585741254531434 -2.902223890480621e-05 2.872316892463998e-05 0 0 0 0
154000000 0.9771730867187723 -0.3105850080419586 3.361393229251334e-05 3.57026544333628e-05 0 0 0 0
163000000 0.9705523372263197 -0.3254252019294968 -4.1050408943713706e-05 -7.100262362910541e-05 0 0 0 0
172000000 0.9643881099555511 -0.3397943238472856 -1.722844497657261e-05 -1.431388347022468e-05 0 0 0 0
181000000 0.9577356177842301 -0.3557229660759721 4.9699619608530803e-05 2.5727675927474625e-05 0 0 0 0
190000000 0.9502201615439683 -0.3709966403728795 -8.915325599004335e-05 8.914904119749369e-06 0 0 0 0
199000000 0.9441702612321771 -0.3845856159304814 5.526959388181941e-05 -3.544701013283819e-05 0 0 0 0
208000000 0.937423727861641 -0.39795473091492556 5.453050065136564e-05 5.207255009843128e-06 0 0 0 0
217000000 0.9299162058884217 -0.41364554912648954 -2.654196170828401e-05 -5.1586280741165426e-05 0 0 0 0
226000000 0.9224027246839086 -0.42576975016065133 6.238543829554048e-05 -1.692248202268437e-05 0 0 0 0
235000000 0.9154630866474416 -0.4398058285013285 -2.2134664954313216e-05 -4.599659799179476e-05 0 0 0 0
244000000 0.9066225527969112 -0.4544988040513419 -2.2215500436646784e-06 5.648114425047375e-05 0 0 0 0
253000000 0.9000568056879714 -0.46723720962722176 3.1732483243231663e-06 8.389768931780352e-06 0 0 0 0
262000000 0.8918220898842658 -0.48191652231064835 -2.5366507682777193e-05 2.4299134741227147e-05 0 0 0 0
271000000 0.883778649235305 -0.49382022838646633 -5.5630799624000865e-05 -9.026211607838568e-06 0 0 0 0
280000000 0.8749522707437521 -0.5079280823767555 -2.7705221991390236e-05 -4.2014734238401844e-05 0 0 0 0
289000000 0.8641987942613316 -0.5242156998516254 -1.609364128141308e-05 -3.686716641885503e-05 0 0 0 0
298000000 0.8568742939418976 -0.5355458486905528 7.643162497389999e-06 8.251689932119673e-06 0 0 0 0
307000000 0.8495034757163629 -0.5473772919716322 4.740099498796803e-05 -1.6400655059511824e-05 0 0 0 0
316000000 0.8386122740073156 -0.5611620807945187 7.440811233981411e-06 -1.4044161929478903e-05 0 0 0 0
325000000 0.8284733743819848 -0.5752524743938429 1.2740043077408141e-05 -1.4822014574877395e-05 0 0 0 0
334000000 0.8214168376365011 -0.5871015124093826 -1.3050731680379227e-05 -1.1034902488729963e-06 0 0 0 0
343000000 0.8096160201253448 -0.6023376898657705 4.327973553681634e-05 -4.525830534220043e-05 0 0 0 0
352000000 0.7999212304119135 -0.6153193719607882 5.240772310613832e-05 9.620585574748983e-06 0 0 0 0
361000000 0.7901769318787369 -0.6258480545932071 -4.339182360166141e-05 -3.932538053760865e-05 0 0 0 0
370000000 0.7794677208349865 -0.6378509961287705 -1.2437284757030143e-05 -1.505760071065765e-05 0 0 0 0
379000000 0.7699806014974754 -0.6498938565035858 -3.8588574683748604e-07 2.156989783261692e-05 0 0 0 0
388000000 0.7616043457494067 -0.6592420864796783 7.146443230622858e-05 -2.463171305248414e-05 0 0 0 0
397000000 0.748450938968925 -0.6737123264460081 -2.0135670972774835e-05 -3.7190846604867063e-05 0 0 0 0
406000000 0.7370671672027398 -0.6864371995115308 -3.3933169731896115e-05 3.307103826613108e-05 0 0 0 0
415000000 0.7270062935442009 -0.6984472534635267 4.5491523870868555e-05 -3.2530740085960134e-06 0 0 0 0
424000000 0.7163117828316502 -0.7085747375161876 2.7081850628827525e-05 6.392465310610955e-05 0 0 0 0
433000000 0.702307660793752 -0.7237271637666057 8.339311612451662e-06 3.394220638987437e-05 0 0 0 0
442000000 0.6934475592021411 -0.7317930880449032 -4.02305193357335e-06 2.4876140904379466e-05 0 0 0 0
451000000 0.6813351867427706 -0.7428864079162705 -7.16928765398467e-06 2.0118415729820543e-05 0 0 0 0
460000000 0.6720526000052048 -0.7529250253598537 1.118638415879217e-05 -5.597881714050478e-05 0 0 0 0
469000000 0.6581976721322194 -0.765627503570097 5.381277467400137e-05 3.1386771774863677e-05 0 0 0 0
478000000 0.646960064629023 -0.7741316432475523 -6.391716594772489e-07 3.630878265169581e-05 0 0 0 0
487000000 0.635598577144842 -0.7838922031191308 -2.7553027076983015e-05 4.430813929308928e-05 0 0 0 0
496000000 0.622301072090769 -0.7963587766192854 2.7444650195092425e-05 5.786254750282451e-05 0 0 0 0
505000000 0.6047287593800598 -0.8097084764699763 6.392595377638907e-05 9.558757183939405e-06 0 0 0 0
514000000 0.5919201509890291 -0.8197572886263593 2.4146661584894187e-05 3.6195510602154045e-05 0 0 0 0
523000000 0.576730917809376 -0.8311728909207582 2.631290235820717e-05 3.914081350344985e-05 0 0 0 0
532000000 0.5666753869518453 -0.838400438301584 4.473857726079302e-05 -2.118168933319745e-05 0 0 0 0
541000000 0.5508697065393551 -0.8503907946728566 4.971870115251398e-05 -6.822235214814377e-05 0 0 0 0
550000000 0.5416741154876045 -0.8562017976260983 2.4467620552421035e-05 -7.236262559600415e-05 0 0 0 0
559000000 0.5228745771880753 -0.8683306361482285 -6.890268797945116e-05 -4.0341432045172125e-05 0 0 0 0
568000000 0.5045539091192262 -0.8797942332380944 -1.904608992426745e-05 -4.739709320714709e-05 0 0 0 0
577000000 0.4949406695294373 -0.8867076207093129 1.254311707909875e-05 1.2412794637667256e-05 0 0 0 0
586000000 0.47106166691883705 -0.8984297309002688 -2.708068991942957e-05 1.5490502578177103e-05 0 0 0 0
595000000 0.4574995096443878 -0.9082788807885225 6.239619048366074e-05 4.3766070652199925e-05 0 0 0 0
604000000 0.44361306804741746 -0.9148451660172677 2.318824483814144e-05 8.362991437116118e-06 0 0 0 0
613000000 0.4271335355018542 -0.9225101739024828 2.7642000617733753e-05 2.1527465090221427e-05 0 0 0 0
622000000 0.4095119289785799 -0.9300201374932093 -1.4621491945092987e-05 2.3525964892320478e-05 0 0 0 0
631000000 0.3936774942931966 -0.9394640006593409 -8.398620989822707e-07 -3.1604034646423525e-05 0 0 0 0
640000000 0.37224178602635816 -0.9469295855049522 -8.248035829112071e-05 2.319212395145511e-06 0 0 0 0
649000000 0.3527404421175363 -0.953795228670159 -2.8016712729980812e-05 5.814165534180629e-05 0 0 0 0
658000000 0.33750416389916005 -0.9605418865871307 2.855417953680677e-05 1.3581881026025273e-05 0 0 0 0
667000000 0.3226656626267811 -0.9642073282773768 -1.4735506522051265e-05 1.2874683068737909e-05 0 0 0 0
676000000 0.30051973805772564 -0.9713300061238481 3.16678971965865e-05 1.0798100886015696e-05 0 0 0 0
685000000 0.28368279242757455 -0.9768050109748758 -1.712882167103965e-05 8.557394727560469e-05 0 0 0 0
694000000 0.2622137231932728 -0.9797174527194298 -4.3102205965830384e-05 0.00012573220444430215 0 0 0 0
703000000 0.242972077000082 -0.9860574807170253 3.661748925592333e-05 4.290441184076866e-05 0 0 0 0
712000000 0.22139291897626487 -0.9876603933069238 2.3494707565054967e-05 -4.436577160258924e-06 0 0 0 0
721000000 0.2095381543204786 -0.9894078338701717 2.9357042391929787e-05 1.4021205544851393e-05 0 0 0 0
730000000 0.18020361012997946 -0.9927232144238188 9.055701053002554e-05 5.148684941987182e-05 0 0 0 0
739000000 0.16017195790671762 -0.992818013471268 5.5251086125331086e-05 4.465812896737227e-05 0 0 0 0
748000000 0.13897042255561437 -0.9955920325712213 9.863156639021837e-05 2.7989619940963676e-05 0 0 0 0
757000000 0.12459022209079776 -0.9951710094167325 9.75263966418438e-05 -4.899936964936403e-06 0 0 0 0
766000000 0.09769401939278312 -0.9944322085715214 0.00011788093371070961 -2.5194201759210182e-05 0 0 0 0
775000000 0.07728559389619938 -0.9916929201709495 -1.5604534307884265e-05 -9.286585144955822e-05 0 0 0 0
784000000 0.05483815481221555 -0.9920002216290265 3.396046793930016e-05 -8.219542362658837e-05 0 0 0 0
793000000 0.04289775220273106 -0.9875884017102152 5.428501518572022e-05 -7.948794577798519e-05 0 0 0 0
802000000 0.011666790038925118 -0.9862765979450807 -5.353487281660116e-06 2.0037388717123277e-06 0 0 0 0
811000000 0.0008897695989438522 -0.9826079287673407 -1.089000370851409e-05 -4.4176309301413514e-05 0 0 0 0
820000000 -0.013839202525892429 -0.9765704752402051 3.4166306295841315e-05 1.4345025460565059e-05 0 0 0 0
829000000 -0.039480909802897805 -0.9713360073218623 -5.235306456160693e-05 1.6470062753195386e-06 0 0 0 0
838000000 -0.06037194336488945 -0.9660544376836052 1.5687842685114323e-05 -1.4317292981014373e-05 0 0 0 0
847000000 -0.07657322741716546 -0.9616523620247664 3.0258230324632353e-05 8.909196081848256e-05 0 0 0 0
856000000 -0.08677164066238544 -0.9563603290545106 1.784359992858328e-06 2.1271559936035997e-05 0 0 0 0
865000000 -0.11345615121657383 -0.9476875135624901 -4.393261517046468e-05 -3.303468370416543e-05 0 0 0 0
874000000 -0.13001038481562893 -0.9401450286007081 -2.296377862499716e-05 -6.149342114597953e-05 0 0 0 0
883000000 -0.1439625889701063 -0.9328644323646149 3.9283548474546064e-05 -1.0047558041005279e-05 0 0 0 0
892000000 -0.15588522610997113 -0.9269631501995959 -2.4103348721035554e-05 -1.2926206099693786e-07 0 0 0 0
901000000 -0.16757770817204115 -0.919584921172744 -8.927494197029204e-06 3.5553318947237595e-05 0 0 0 0
910000000 -0.18901400365645696 -0.9108825761315882 -3.3656859502571306e-05 3.951440012404858e-05 0 0 0 0
919000000 -0.20995738565524485 -0.8974325964400859 3.298374779996627e-05 -1.286364619057955e-05 0 0 0 0
928000000 -0.20894144194980324 -0.8951646658470115 3.860123144380829e-05 2.0226552133777832e-06 0 0 0 0
937000000 -0.2388242997042358 -0.8842627856753982 6.56680059838429e-05 -2.609524871529859e-05 0 0 0 0
946000000 -0.24716095890618528 -0.8763419225435062 -6.73632087283296e-05 -2.5354411375866675e-05 0 0 0 0
955000000 -0.2564083794721769 -0.8695474841956234 -1.4577575312726955e-05 -7.827958346089158e-05 0 0 0 0
964000000 -0.26792299131338904 -0.8606929739806253 6.435757090832351e-05 -3.151448310638543e-05 0 0 0 0
973000000 -0.2774116170713831 -0.8551650747631724 -3.174803686297958e-05 -9.853299023134816e-06 0 0 0 0
982000000 -0.29162051170693165 -0.8458803700737925 3.851009239345422e-05 6.376598965174393e-05 0 0 0 0
991000000 -0.3037491788060442 -0.8373978821088679 3.074702573825346e-05 2.576322536334442e-05 0 0 0 0
1000000000 -0.31774115850157647 -0.8271201677658122 3.799718825287772e-05 -3.922228776014202e-05 0 0 0 0
