# HZ S RI R 50
100000000 1.0079865481971464 -0.21857072945626613 4.35689649273695e-05 -2.4779046282999834e-05 0 0 0 0
109000000 1.0080477667285481 -0.23500437603891822 -4.071853722223713e-05 -3.341370687351838e-05 0 0 0 0
118000000 1.0025945458564993 -0.2500212607476525 4.56100259012625e-05 -3.280951475626264e-05 0 0 0 0
127000000 0.9969887953956675 -0.2654140302444439 2.28316103576382e-05 2.2963188641455318e-05 0 0 0 0
136000000 0.9913829668952528 -0.2796111224435654 6.263906671567616e-05 2.60670669799669e-06 0 0 0 0
145000000 0.983658352280963 -0.29459789574853723 -5.304503711892072e-05 -2.5015066340177746e-05 0 0 0 0
154000000 0.9773012713755245 -0.31127241147918044 -2.1400938986032868e-05 1.565409338607791e-05 0 0 0 0
163000000 0.9700123942311111 -0.32599839897768723 2.747733094245894e-05 -4.255739343889109e-05 0 0 0 0
172000000 0.9643206776779604 -0.34088033309040605 -2.579392692700659e-06 5.4882462492650637e-05 0 0 0 0
181000000 0.957383874413464 -0.3553213234031019 1.2909298352301914e-05 6.526266665813993e-06 0 0 0 0
190000000 0.9511518263388943 -0.37060694896019897 1.2835537903428307e-05 8.186767597592277e-06 0 0 0 0
199000000 0.9437649987548182 -0.38499284009442314 -3.4515888653166025e-05 5.8272731229360056e-05 0 0 0 0
208000000 0.9362524252081945 -0.4002927811137824 -9.763738146576837e-06 -2.7268617593344094e-05 0 0 0 0
217000000 0.9304084421451163 -0.41212054430771766 -2.2163612274780722e-05 -3.0188902404185996e-05 0 0 0 0
226000000 0.9228502960818009 -0.4260376658861039 1.599140134751063e-05 2.4293694701921195e-05 0 0 0 0
235000000 0.9162554963758857 -0.43875491376601206 3.838763925479372e-05 1.2547398682405593e-05 0 0 0 0
244000000 0.9068806459438735 -0.45492466994112934 -3.9254164279224075e-05 2.2430113976477982e-05 0 0 0 0
253000000 0.8984016082936096 -0.4695980196761414 -1.6844117946865006e-05 -4.158677863234999e-05 0 0 0 0
262000000 0.8918979682399877 -0.4801776499433844 1.656675433915281e-05 -5.764954788510978e-05 0 0 0 0
271000000 0.8833191133922594 -0.4947910094720782 -6.540808936877656e-05 3.844770508587154e-05 0 0 0 0
280000000 0.8730785278096013 -0.5099027546486182 -4.951986345903808e-05 -5.478478818862981e-06 0 0 0 0
289000000 0.8664606742259457 -0.5221406331144917 5.472493054374621e-05 6.701710922347653e-05 0 0 0 0
298000000 0.8564493882954437 -0.5370967931017885 -4.93498443405422e-05 4.099654513365521e-05 0 0 0 0
307000000 0.8477326829276787 -0.5492684357092716 -8.954440201890922e-05 6.662123400400172e-06 0 0 0 0
316000000 0.8391517341728073 -0.5616740425399197 7.468953479673015e-06 -4.3608389805124534e-06 0 0 0 0
325000000 0.8304213689373445 -0.5746567306015609 -7.509269056610462e-05 2.4772345708098466e-05 0 0 0 0
334000000 0.8213446419491441 -0.5871474317672046 9.357404251543061e-06 4.568201185389384e-05 0 0 0 0
343000000 0.8116526076678285 -0.5983043631969609 -3.5208165844975196e-05 4.608874686919616e-05 0 0 0 0
352000000 0.8016236790728727 -0.6122923748599425 1.4537889036651277e-05 8.794104683080286e-06 0 0 0 0
361000000 0.7906284168302663 -0.6254158143800183 4.98742066801529e-06 -3.847649392035926e-05 0 0 0 0
370000000 0.7807909737980716 -0.6368303377924805 3.1949332806458893e-05 6.108080377100225e-05 0 0 0 0
379000000 0.7695364048122796 -0.649869005716914 -7.904233228499637e-05 2.3337146325264118e-05 0 0 0 0
388000000 0.7599085064519968 -0.6604519333480561 1.3415245529085591e-05 -4.0953227486773836e-05 0 0 0 0
397000000 0.7498893278958625 -0.6737443322855673 3.0506399887307687e-05 -4.8689332791905105e-05 0 0 0 0
406000000 0.7371162025737485 -0.6858681277255456 -7.544104867215097e-06 -5.742187908889646e-05 0 0 0 0
415000000 0.7266926644359647 -0.6983207125263304 -3.338954125646457e-05 4.355490623038819e-06 0 0 0 0
424000000 0.7157057792917656 -0.7108804224064413 3.972477478537651e-05 2.554537591276739e-05 0 0 0 0
433000000 0.7030326143047552 -0.7224346013408921 3.2957685492214013e-06 2.3681270746901687e-05 0 0 0 0
442000000 0.693027187339535 -0.731582137913472 -2.0049182619160016e-05 -4.764958565767939e-06 0 0 0 0
451000000 0.6825247654198484 -0.7419727241493848 3.1193429068571414e-06 4.81479112739578e-05 0 0 0 0
460000000 0.6712988719507804 -0.7523830233036849 2.141734193453456e-05 8.412834114937568e-06 0 0 0 0
469000000 0.6565806034535675 -0.7658749604002087 -2.8266683803489692e-05 9.819700616807434e-06 0 0 0 0
478000000 0.6454150168159054 -0.775235864780984 -1.0097949795595251e-05 -4.320043872289059e-05 0 0 0 0
487000000 0.6270501995662963 -0.790426569065463 1.499415860477217e-05 4.754860781206963e-05 0 0 0 0
496000000 0.6180169545679787 -0.798692785952246 -2.7168942253819042e-05 7.504949197668798e-06 0 0 0 0
505000000 0.6051156435918262 -0.810885761582 7.988935212881015e-05 3.501249230245272e-05 0 0 0 0
514000000 0.5932465158997293 -0.8176492862624128 4.852506764580124e-06 -7.038132422555697e-05 0 0 0 0
523000000 0.5772771122215659 -0.8310120149071412 -4.614975216458279e-05 1.4762386355436346e-05 0 0 0 0
532000000 0.5643718409643707 -0.8407615633363116 4.898108855907782e-05 -1.4629897396981417e-05 0 0 0 0
541000000 0.551855483478902 -0.8491352061486791 2.4340669184707143e-05 -3.444354266852769e-05 0 0 0 0
550000000 0.5375332026633729 -0.8589178707921289 -1.934060971904955e-05 -4.055314549398684e-05 0 0 0 0
559000000 0.5210966820013166 -0.8700030775293223 3.625562175847785e-05 -2.177168012829134e-06 0 0 0 0
568000000 0.5047487558322015 -0.8801719243361315 -2.8673032847997568e-05 6.837738473395078e-05 0 0 0 0
577000000 0.4901819711533045 -0.8887631408175999 -5.428877655784045e-06 -1.469764387587553e-06 0 0 0 0
586000000 0.47830731894891804 -0.894181472567674 -1.9946474977625403e-06 -8.332028557258782e-05 0 0 0 0
595000000 0.45764579159905533 -0.9067562739561507 3.2989961447617984e-05 7.075655505687528e-05 0 0 0 0
604000000 0.4406316974064466 -0.9156976676987085 4.79603932340785e-05 3.5053782853487634e-05 0 0 0 0
613000000 0.4261437005221307 -0.9225284637865652 0.00010819723289508156 -2.930528000388136e-05 0 0 0 0
622000000 0.4102830934930078 -0.9292442764483457 -6.604798350322347e-05 -3.864798671830467e-05 0 0 0 0
631000000 0.38989622797043444 -0.939809230773565 3.568844703736905e-05 2.5375663811470635e-05 0 0 0 0
640000000 0.36584279175636386 -0.9481276316264685 -6.771953977953987e-05 4.438482353308293e-05 0 0 0 0
649000000 0.35842940280800983 -0.9510173413387978 -8.89379843447268e-06 -1.2470874736377083e-05 0 0 0 0
658000000 0.3345828643338333 -0.9603087651773854 -4.890515512490854e-05 3.485959458819853e-05 0 0 0 0
667000000 0.3171310204987412 -0.9651965759861015 -3.6479664799509775e-05 4.94081138457009e-05 0 0 0 0
676000000 0.30267228723688394 -0.9705984832678167 8.075004633128534e-05 -2.9487411453061384e-05 0 0 0 0
685000000 0.2804219286719075 -0.9782220527289757 5.9702989719074686e-05 1.2909716900198945e-05 0 0 0 0
694000000 0.25806511717386255 -0.9815169583320437 6.882952446948848e-05 -2.4644441290066263e-05 0 0 0 0
703000000 0.239323738704427 -0.9852141369569526 3.4952377767602986e-05 5.8187235143360347e-05 0 0 0 0
712000000 0.22420955776662255 -0.987085717856609 8.047343293416008e-05 0.0001074247704164828 0 0 0 0
721000000 0.2013672306188282 -0.9904678903785555 -5.152510746026543e-05 8.283592675931441e-05 0 0 0 0
730000000 0.1780831692372507 -0.9924846245262506 5.9899321331541965e-05 1.5102149697010654e-06 0 0 0 0
739000000 0.16410316522712132 -0.9929231048897402 7.01111454842674e-05 3.821777913464654e-05 0 0 0 0
748000000 0.13965905459892394 -0.9941686016496439 0.00011401117857798458 6.162139274359043e-05 0 0 0 0
757000000 0.11488022616239708 -0.9966334039993319 0.000134252655552077 2.202579671132689e-05 0 0 0 0
766000000 0.09650433870615172 -0.9940802209511967 8.772847031793053e-05 -7.359255590313834e-05 0 0 0 0
775000000 0.08219558500241154 -0.9953590242805603 3.973898557201405e-06 8.266809024107772e-06 0 0 0 0
784000000 0.06376075103994402 -0.9897213156788206 5.5806890563619045e-05 -6.983630383251194e-05 0 0 0 0
793000000 0.03825698142257356 -0.9888206323180772 6.518530462254803e-05 1.4203399060285053e-05 0 0 0 0
802000000 0.023729152091995317 -0.9850486913635318 2.14898251943529e-05 -3.975306314170546e-05 0 0 0 0
811000000 -0.0038993225904638347 -0.9827472761395684 -2.5113230819354473e-05 5.8356751269320295e-05 0 0 0 0
820000000 -0.023388648372325915 -0.9761488409683837 2.200815168013349e-05 -4.4488688671058305e-06 0 0 0 0
829000000 -0.037739387576390206 -0.9716831563416456 3.884474679019635e-05 -6.581998248130364e-05 0 0 0 0
838000000 -0.05279516385514313 -0.9670800774453039 -1.1299972134471095e-05 -5.841900160527789e-06 0 0 0 0
847000000 -0.07753337915191202 -0.958654729805805 2.8022442772588007e-05 -3.5518533744221985e-05 0 0 0 0
856000000 -0.0926132580705947 -0.9526285375645245 -3.5474651681786435e-05 -1.383498164685966e-05 0 0 0 0
865000000 -0.1103686312495558 -0.9479130234742612 -1.9019724530906132e-05 -8.419546640119282e-05 0 0 0 0
874000000 -0.1233554532833594 -0.9421212199607466 3.473714229039702e-05 3.3655000678631924e-05 0 0 0 0
883000000 -0.14281557949650223 -0.9335059983536241 -3.378859105412607e-05 -4.790564901636077e-05 0 0 0 0
892000000 -0.16231465991136945 -0.9256789602097042 5.530251776765958e-05 -7.664480889577108e-05 0 0 0 0
901000000 -0.1672897782259378 -0.9188724303999037 -1.2325545517824702e-05 1.318694231855717e-05 0 0 0 0
910000000 -0.1875940836235431 -0.9110348276035146 -4.2341638431660586e-05 1.613761855988134e-05 0 0 0 0
919000000 -0.20119679627934758 -0.9041004263695972 -1.221408605853416e-05 2.894978044404497e-05 0 0 0 0
928000000 -0.21223834409724643 -0.8958184338175676 -2.097220315514633e-06 2.4200927540963983e-05 0 0 0 0
937000000 -0.2305917975295607 -0.8856839757370649 -4.777951497345396e-05 -3.7931370255513114e-06 0 0 0 0
946000000 -0.23832147381157126 -0.878653980572054 5.8188911790309805e-05 -6.581267756053048e-05 0 0 0 0
955000000 -0.2591857513379209 -0.8688016541079543 -9.662918889701645e-06 6.404187742012745e-05 0 0 0 0
964000000 -0.2681473493392659 -0.8617935111725381 -5.9628479293996235e-05 -6.526288409265444e-05 0 0 0 0
973000000 -0.279704366161921 -0.8536028064822877 1.8962208843121872e-05 2.826906500906962e-05 0 0 0 0
982000000 -0.29636280491915606 -0.8442516963100418 -7.447862639650338e-05 -3.531087127050439e-06 0 0 0 0
991000000 -0.30694961537232646 -0.8342889812026585 1.5631809057086334e-05 -4.837167123820443e-05 0 0 0 0
1000000000 -0.32373936652660534 -0.8253264572791066 2.5353360428029303e-05 5.441425678297638e-06 0 0 0 0
