# HZ S RI R 50
100000000 1.0063311507689674 -0.21927490004452915 -6.720816793385381e-06 -1.3880022901956112e-06 0 0 0 0
109000000 1.0077454895730085 -0.23442597976796195 -1.6698445544839374e-06 -8.811041581506897e-06 0 0 0 0
118000000 1.0026207220950334 -0.24988676250279535 2.7290294879382787e-06 -2.316379460607943e-06 0 0 0 0
127000000 0.9970986874158999 -0.2646775950064963 -9.808211777416301e-05 3.390639015013282e-05 0 0 0 0
136000000 0.9911542082065684 -0.28035743180077044 -1.2492496738593845e-05 -4.787203700807104e-05 0 0 0 0
145000000 0.9824628952753107 -0.29551074097868113 -3.295341550627728e-05 -2.38840063599891e-05 0 0 0 0
154000000 0.9774791027358809 -0.3107692221881369 -2.4944297057603803e-05 2.2355760111307198e-05 0 0 0 0
163000000 0.9700621453677772 -0.32589637062942123 -2.454167263652986e-05 -1.515779298366407e-05 0 0 0 0
172000000 0.9647088224214982 -0.3396529615527735 2.0799330180977637e-05 6.381408889985479e-05 0 0 0 0
181000000 0.957986317715538 -0.3547449189424653 3.437478553868206e-05 2.1138637241583536e-06 0 0 0 0
190000000 0.9511650782958189 -0.3688977897160553 -3.250459015008729e-05 -2.9912337969577096e-05 0 0 0 0
199000000 0.9442850670828516 -0.3832423250907259 -3.722583487722372e-05 -2.6100358488173534e-05 0 0 0 0
208000000 0.9371036825153083 -0.39828582085111636 9.303207788497432e-05 -7.1395854666262985e-06 0 0 0 0
217000000 0.9298847003238585 -0.4120808862770083 4.683692615571621e-05 2.778085933273479e-05 0 0 0 0
226000000 0.9223626916445741 -0.4259343371470453 8.527653115686098e-05 -4.366458434468238e-06 0 0 0 0
235000000 0.9136919167469443 -0.4420207581872605 2.2136686269892323e-05 -2.146136740680065e-05 0 0 0 0
244000000 0.9077596565854888 -0.45313308450686246 2.6943693533257397e-06 -2.8940837566460728e-05 0 0 0 0
253000000 0.8986339321797985 -0.46913007427571574 -6.999684967814975e-05 3.122353329542506e-05 0 0 0 0
262000000 0.8912587862209916 -0.4813900829396283 1.0369421512587753e-05 3.5534669553575156e-05 0 0 0 0
271000000 0.882522691822119 -0.4958134196430218 -5.374320218121721e-06 1.6965295506048106e-05 0 0 0 0
280000000 0.8742835854935485 -0.5087213644657463 3.4190074501457666e-05 -3.963004854597135e-06 0 0 0 0
289000000 0.8662892768546379 -0.5221393736256047 6.773149522588293e-05 -1.9218858980193786e-05 0 0 0 0
298000000 0.8556198034855598 -0.5370613390540445 3.865453383297114e-05 -3.2534988302905895e-06 0 0 0 0
307000000 0.8493642670203739 -0.5489504155104521 -8.5845130533254e-06 2.8316091414018038e-06 0 0 0 0
316000000 0.8406595731584615 -0.560558436296513 6.396089380617472e-05 -3.2127135790267796e-05 0 0 0 0
325000000 0.8303929906530122 -0.5745669707922411 -2.651070443546332e-05 2.398512660009517e-05 0 0 0 0
334000000 0.8212636615963976 -0.5847476682901501 6.161269880235618e-05 1.825638732778024e-06 0 0 0 0
343000000 0.8113644158697468 -0.5995311795388623 4.6487144339973e-06 -4.182699806959526e-05 0 0 0 0
352000000 0.8013707931835503 -0.6121559498161496 -1.5932452868181143e-05 -2.5653031628866108e-05 0 0 0 0
361000000 0.7900742413733026 -0.6247355918147811 -9.02763585033501e-06 3.6295723334367533e-06 0 0 0 0
370000000 0.781238524151511 -0.6372400780331124 2.8698565052490776e-06 -6.589266961092113e-05 0 0 0 0
379000000 0.7692120276755191 -0.6519150332258908 3.3766589689275534e-05 2.1782437369494235e-05 0 0 0 0
388000000 0.7625546857205973 -0.6591263386492567 2.9087516589180336e-05 -1.3774435728516152e-05 0 0 0 0
397000000 0.7493914611994326 -0.6739953428609985 -1.0169409254606089e-05 8.673439280138728e-06 0 0 0 0
406000000 0.7396503695230234 -0.6852457066552372 1.0959758491660643e-05 -9.64877670115396e-06 0 0 0 0
415000000 0.7277811489293946 -0.6965914055121836 1.5534047481454807e-05 2.0543469056496694e-05 0 0 0 0
424000000 0.7139496324009684 -0.7108512167998097 4.781774758028612e-05 -3.0859102502360756e-05 0 0 0 0
433000000 0.7054957852969016 -0.7197743045500696 5.670932665338177e-05 2.9274138547248453e-05 0 0 0 0
442000000 0.6932010187428624 -0.73230164938885 5.23297807621757e-05 -1.3060421287233474e-05 0 0 0 0
451000000 0.681499333678772 -0.7430706441058309 -1.2256874391382024e-05 -2.1601352311017683e-05 0 0 0 0
460000000 0.6708088858627833 -0.7542747166082179 4.716930740294169e-05 -6.465837689511783e-05 0 0 0 0
469000000 0.6571578242723524 -0.7654561718440884 3.333575950441142e-05 5.578439319137791e-05 0 0 0 0
478000000 0.647419724589757 -0.7738285693405669 5.252247268411157e-05 -1.0558217870985187e-05 0 0 0 0
487000000 0.6322445642671766 -0.7881124420950789 -2.8321551343516305e-05 -1.5191836225536487e-05 0 0 0 0
496000000 0.6213209611742065 -0.7963958568677479 5.053662646815291e-05 5.389340022186114e-05 0 0 0 0
505000000 0.6051705879903182 -0.8093692014394971 -6.091013426277919e-06 -2.3516420860141977e-05 0 0 0 0
514000000 0.592775499680385 -0.818124342027613 1.2104085664553673e-06 2.664871441789579e-06 0 0 0 0
523000000 0.5817874222822594 -0.8271311904332443 -3.6667316523237375e-05 -8.29802058765565e-05 0 0 0 0
532000000 0.564152027559743 -0.8404778707207553 -3.225326098644391e-05 8.708188896512815e-07 0 0 0 0
541000000 0.5543227113888918 -0.8491102099911578 4.246917317156641e-06 -9.631340463896616e-06 0 0 0 0
550000000 0.5354522689308703 -0.8611008933484495 6.5642271440592965e-06 7.445687600706639e-05 0 0 0 0
559000000 0.5250659381672652 -0.8684948883623977 -5.311673441823991e-05 -1.547512111495648e-05 0 0 0 0
568000000 0.508522835465018 -0.8780378164056019 3.181891101224959e-05 3.1645509509907124e-05 0 0 0 0
577000000 0.4907178842385905 -0.8892195780174046 3.013507667051858e-05 -1.2390208681976986e-05 0 0 0 0
586000000 0.47952207865620855 -0.8952731552146803 9.165515576935706e-05 3.766463738954298e-06 0 0 0 0
595000000 0.45811504915965884 -0.906771092456158 2.8514086629155443e-05 -3.704934622913967e-05 0 0 0 0
604000000 0.44162682981654566 -0.9154819905703501 6.427688967222984e-05 -1.1793749511691856e-05 0 0 0 0
613000000 0.42279652933093276 -0.9249335675618371 5.7840244675634234e-05 -3.9151194531645504e-05 0 0 0 0
622000000 0.41049941122278033 -0.9300093650201499 -6.5450076113485725e-06 7.190614570751265e-05 0 0 0 0
631000000 0.3978050034836962 -0.9372611081502419 5.4319577770151376e-05 3.540301160030512e-05 0 0 0 0
640000000 0.37652043765636545 -0.946077585239891 1.3544419293467017e-05 -1.974564722730838e-05 0 0 0 0
649000000 0.35130935057242924 -0.955034448598122 -1.0986061646491285e-05 -1.2134076971137052e-05 0 0 0 0
658000000 0.3414613406599199 -0.9603098500339423 -4.6531708715416464e-05 3.041844742635018e-05 0 0 0 0
667000000 0.31901474231343907 -0.9652360689073132 4.189442501163062e-05 2.9975366844161886e-05 0 0 0 0
676000000 0.2988053237178481 -0.9723018072799722 -3.153799275566426e-05 4.060039399785727e-05 0 0 0 0
685000000 0.2845962541071939 -0.9741628146889689 -6.634042242642979e-06 7.070271118746443e-05 0 0 0 0
694000000 0.26067947583001383 -0.9816933926786673 2.7249852140110183e-05 2.7828429104376938e-05 0 0 0 0
703000000 0.23996126216692498 -0.9844144998712443 4.180924189203012e-05 5.108102509002875e-06 0 0 0 0
712000000 0.22570736883336692 -0.9881770617371584 4.3384228142705746e-05 3.2970397478178095e-05 0 0 0 0
721000000 0.20135099860711067 -0.9904176161666509 9.777396514249228e-05 1.023169779160772e-05 0 0 0 0
730000000 0.18388880622893472 -0.9926007051235197 7.548546347050415e-05 9.297466690777097e-05 0 0 0 0
739000000 0.15685319288996413 -0.9953835246625179 4.1204964871450906e-05 8.150585380904046e-05 0 0 0 0
748000000 0.1394454903709429 -0.9947795048051481 4.7255917003544497e-05 5.185415305225539e-05 0 0 0 0
757000000 0.12313751117158835 -0.9951947059320378 -1.1609167448549465e-05 0.00011603194118042398 0 0 0 0
766000000 0.09708756723060993 -0.9940475117579394 0.0001322554963754291 5.502866370564572e-05 0 0 0 0
775000000 0.08041223877091087 -0.9910805801042589 2.7444640281763214e-05 3.229274135733068e-05 0 0 0 0
784000000 0.050532794988226125 -0.9922690234728743 4.541377161943505e-05 -1.9468536090512094e-05 0 0 0 0
793000000 0.0402985734249647 -0.9888077426895395 0.0001049924756511816 -3.835316182723776e-06 0 0 0 0
802000000 0.01835021496333322 -0.9851638004721429 1.4483707770589117e-05 -7.122884336153716e-05 0 0 0 0
811000000 -0.0016640840257735924 -0.9814621806540764 5.711915665909928e-05 -5.6377707482247387e-05 0 0 0 0
820000000 -0.0235022237661947 -0.9774649757365067 7.935312150730003e-05 -4.6773281572710034e-05 0 0 0 0
829000000 -0.03597354174881491 -0.9720417414111218 3.251043315580452e-05 -2.2582249218660945e-05 0 0 0 0
838000000 -0.060373239961152014 -0.9678656434312167 1.7245817818061832e-05 -6.450617275592601e-06 0 0 0 0
847000000 -0.07839568301686749 -0.9622063860168295 -4.676690083041877e-05 -1.842046092117449e-05 0 0 0 0
856000000 -0.09293127551434768 -0.9567418300490438 8.38989236582928e-05 7.613345588382605e-05 0 0 0 0
865000000 -0.10743568768723896 -0.949831104749654 -1.1165449081190726e-05 -2.2421806589282044e-05 0 0 0 0
874000000 -0.12382606512820613 -0.9407063864176135 3.762017561118602e-05 -1.2330248330314495e-05 0 0 0 0
883000000 -0.13988278124381534 -0.9324359071425932 -8.738212568007417e-05 -9.359313251758763e-05 0 0 0 0
892000000 -0.16122108478747565 -0.9260452329132869 -2.2324758804725798e-05 4.160340473670418e-05 0 0 0 0
901000000 -0.17421745215822804 -0.9170585234007308 -3.795452024285419e-05 4.077315489398239e-06 0 0 0 0
910000000 -0.18949071169096243 -0.9106333984079126 2.147543178076855e-06 1.3684432400472747e-05 0 0 0 0
919000000 -0.195922750800368 -0.9051287306773047 -1.7046208539251384e-05 0.00011417465782630352 0 0 0 0
928000000 -0.22027182169458143 -0.894935385879899 2.9387309869571288e-05 3.0344663075799996e-05 0 0 0 0
937000000 -0.24088166603119704 -0.8828420020989621 1.8851987317746124e-05 -1.5621143993706446e-05 0 0 0 0
946000000 -0.24571116415508704 -0.879036134883761 8.498749893844716e-05 3.261117874223074e-05 0 0 0 0
955000000 -0.26413627620742003 -0.8691509905493768 0.00010062473332151002 1.071635319653361e-05 0 0 0 0
964000000 -0.26755321589981307 -0.8603117010818139 3.590184016514954e-05 4.8239785168739186e-05 0 0 0 0
973000000 -0.2793421656699447 -0.8517695278587434 1.3236766292473284e-05 2.4101318515437738e-05 0 0 0 0
982000000 -0.29065328284067543 -0.8458676575561135 -2.185701980867589e-05 7.853686102131007e-05 0 0 0 0
991000000 -0.30658041719562734 -0.8359765058161724 1.144006482707248e-05 -5.713536477943583e-05 0 0 0 0
1000000000 -0.3151317846637593 -0.8261179577036659 -3.4842803073566336e-05 6.407026724008632e-05 0 0 0 0
