# HZ S RI R 50
100000000 1.0127186883520074 -0.22022337005711584 1.1472189560838448e-05 -4.8363254358583645e-05 0 0 0 0
109000000 1.007822666528786 -0.23463290892255845 -1.9297506255829808e-05 1.1229274483001875e-05 0 0 0 0
118000000 1.0021351569775956 -0.24949142756262455 -4.568955760642809e-05 4.481378877040021e-05 0 0 0 0
127000000 0.9971079376435278 -0.26523131509422426 -3.155947415736475e-05 1.1659606800083289e-05 0 0 0 0
136000000 0.9914338117381081 -0.2796876551349322 -2.754971001054573e-05 -5.5309957814681696e-05 0 0 0 0
145000000 0.9827795380674846 -0.2961011059384926 8.457445873997444e-06 2.0409629587314344e-05 0 0 0 0
154000000 0.9773612773440638 -0.31093404888249504 2.698753091314013e-05 4.2335111676971436e-05 0 0 0 0
163000000 0.9701668242873421 -0.32627670403237213 -1.0932334058761267e-06 1.3198199054413477e-06 0 0 0 0
172000000 0.9644875193699116 -0.34006434896526094 1.3155688035478201e-05 -1.1151198263948138e-05 0 0 0 0
181000000 0.9583925294594352 -0.3539358546204478 -4.364549957927688e-06 1.4175254859062642e-05 0 0 0 0
190000000 0.9515131628803138 -0.3689422303890477 9.734092683700877e-06 1.1424017856841171e-05 0 0 0 0
199000000 0.944787717405762 -0.38405562061646537 -7.712311754212975e-06 5.26083086370959e-06 0 0 0 0
208000000 0.9373157917383304 -0.39748451415055547 -1.4035382689961302e-05 4.996680247493437e-07 0 0 0 0
217000000 0.9297317543890639 -0.41239169321606084 -2.0281301459316702e-05 -1.909597410150455e-05 0 0 0 0
226000000 0.9215673937798169 -0.4272770904313233 1.184266272175712e-05 2.883569737063499e-07 0 0 0 0
235000000 0.9158302029701924 -0.4387540078834461 -2.229296500502406e-05 1.5201338777466914e-05 0 0 0 0
244000000 0.9070848702645288 -0.4550043385504816 6.896573264457306e-06 -1.2716095023010573e-05 0 0 0 0
253000000 0.8993558505109771 -0.46873466028459077 -2.3020221368930114e-05 1.9082759209814077e-05 0 0 0 0
262000000 0.8909354251248266 -0.4820291566977345 -3.0775368665368784e-05 2.0021871070430772e-05 0 0 0 0
271000000 0.8821685044839477 -0.4965590212350196 3.2424644063198865e-05 3.874134293396218e-06 0 0 0 0
280000000 0.8735486613236777 -0.5102204011217004 -3.422012077337142e-05 -2.29267307391319e-05 0 0 0 0
289000000 0.8660215412512655 -0.5230219703551098 -3.8183729636653515e-05 -1.5653593948349512e-05 0 0 0 0
298000000 0.8570655401485805 -0.5374800287219555 -2.4563235029152463e-05 1.794648804290366e-05 0 0 0 0
307000000 0.8481277922520557 -0.5480162108765725 5.040593691280988e-05 1.486288809910748e-05 0 0 0 0
316000000 0.8380160094969026 -0.5628646932811365 -2.2264610834774775e-05 2.1047941480841137e-05 0 0 0 0
325000000 0.8298004112407353 -0.5750693598266674 1.0952040216726313e-05 -3.7484996771667696e-05 0 0 0 0
334000000 0.819677203988815 -0.5881647574884672 3.642019582792281e-05 3.2162403579425644e-05 0 0 0 0
343000000 0.8107223529780205 -0.6008698345349279 -5.843055298963114e-05 -4.229833696224952e-05 0 0 0 0
352000000 0.801421886479047 -0.6137162456173666 1.418515729266286e-05 -3.2556002986707274e-05 0 0 0 0
361000000 0.7916683709852431 -0.6241512573333884 -2.5124824049469986e-05 3.0814108048268486e-05 0 0 0 0
370000000 0.7786193846233226 -0.6398097002465247 1.5386079170909464e-05 -2.1558786630033222e-05 0 0 0 0
379000000 0.7696436204546745 -0.6504666991298385 -2.569593190035656e-05 -9.802934756345861e-06 0 0 0 0
388000000 0.7605106092837138 -0.661311734660615 -2.0596395767723017e-05 2.461037061623382e-06 0 0 0 0
397000000 0.7494946973834933 -0.6732156576990851 3.4072956136801074e-06 3.118541440073378e-05 0 0 0 0
406000000 0.7382160804130206 -0.6859525706075666 -8.028861472369216e-06 3.0255239160206522e-05 0 0 0 0
415000000 0.7286726749074632 -0.6950086045121615 1.4526249131398311e-05 -4.173576001510068e-05 0 0 0 0
424000000 0.7172440241114426 -0.7088299149866485 3.461095108156486e-05 8.476158330401539e-07 0 0 0 0
433000000 0.7059546657164207 -0.7198044286114563 3.064320784164734e-06 -1.3778853081371056e-05 0 0 0 0
442000000 0.6934147372963538 -0.731916152054973 -5.166316308357218e-05 1.386969285920658e-05 0 0 0 0
451000000 0.6830551515901536 -0.7420911565306962 -2.4976568754094747e-05 2.0641495160764318e-05 0 0 0 0
460000000 0.6697869714347203 -0.755036994752728 3.861014458217836e-06 -1.300057709456432e-05 0 0 0 0
469000000 0.6602736769774843 -0.763378950335784 9.814727360427591e-06 -2.0158170310639536e-05 0 0 0 0
478000000 0.6436911746942006 -0.7767227124805637 2.6834255804087843e-05 9.989520984421821e-06 0 0 0 0
487000000 0.6341990621502269 -0.7863515860184422 1.9075971702070704e-05 1.868760180272331e-05 0 0 0 0
496000000 0.6195697719406713 -0.7980350901388051 -5.033054500616495e-05 -4.1589994382364405e-05 0 0 0 0
505000000 0.6076696027414122 -0.8073891070024669 1.2293455709210213e-05 -5.158931468172307e-05 0 0 0 0
514000000 0.5941745301788518 -0.8189672714764057 5.650378418616334e-05 3.447577843112931e-05 0 0 0 0
523000000 0.5781039339117429 -0.831271854087157 -2.429515511924925e-05 -2.0521383947330088e-05 0 0 0 0
532000000 0.5639298751157835 -0.8399152240184038 3.764326135346391e-05 -3.3172543117758565e-05 0 0 0 0
541000000 0.5511927906136397 -0.8506357123697512 -1.3273285194417605e-05 1.6825811811428833e-05 0 0 0 0
550000000 0.5430133739670758 -0.8566869148967472 -1.0278131406617025e-05 -1.0639735103551052e-05 0 0 0 0
559000000 0.5213373556295848 -0.8698194863894375 2.299445599474115e-05 2.7082363074500866e-05 0 0 0 0
568000000 0.5062462070034897 -0.8783760893980913 8.985048753084167e-06 -1.2426745447520263e-05 0 0 0 0
577000000 0.49102075186344557 -0.8899815147751535 2.3569667750040955e-05 -2.6064701623892194e-05 0 0 0 0
586000000 0.47497300637854406 -0.89815187487258 -3.941205246570242e-05 -3.57529652212984e-05 0 0 0 0
595000000 0.45990342178074506 -0.9052123057364523 1.3700777738068357e-06 3.5540267876362535e-06 0 0 0 0
604000000 0.439439384164062 -0.9169118990192938 1.2295493753916801e-05 2.447992943641921e-05 0 0 0 0
613000000 0.42420423417447245 -0.9249537300795149 -1.672019603042209e-05 2.210754256253402e-06 0 0 0 0
622000000 0.4135300387403422 -0.9295347663197893 2.3951022343794788e-05 -5.282111812581635e-07 0 0 0 0
631000000 0.3883147838741733 -0.941025497379304 5.683244933854911e-06 -1.0350462425465174e-05 0 0 0 0
640000000 0.3736852518165123 -0.9467873124066699 -4.219928996464254e-05 1.677244556586602e-05 0 0 0 0
649000000 0.3569047917877762 -0.9515881687113007 -1.2524178559584826e-05 8.11782637647043e-06 0 0 0 0
658000000 0.33791895854993587 -0.9599209688368961 -5.248993790318521e-05 2.715312587511716e-05 0 0 0 0
667000000 0.3175420349130224 -0.9641299106471533 2.1377207669493122e-05 -3.919068029553422e-07 0 0 0 0
676000000 0.30059813248226114 -0.9710962329941184 -1.5496520269961206e-05 2.8976539530934454e-05 0 0 0 0
685000000 0.28215000529812595 -0.977792545165469 -2.562233582084495e-05 3.658629657860391e-05 0 0 0 0
694000000 0.2603732434327349 -0.9807867067481842 4.221573520436028e-05 -1.9441064238531533e-05 0 0 0 0
703000000 0.24016278617460554 -0.9854506302699715 -1.1513592417748473e-05 5.099797305591117e-05 0 0 0 0
712000000 0.22125405695326092 -0.9887791741523186 5.958737906046514e-05 4.271819780166044e-05 0 0 0 0
721000000 0.20031486685869354 -0.9900719734323472 2.242219542090229e-05 5.878086000990866e-05 0 0 0 0
730000000 0.18028397013087938 -0.9929542677300291 1.7440794158323368e-05 3.872254850362969e-05 0 0 0 0
739000000 0.1605267414486156 -0.9927768147062234 2.9951906137872278e-05 -2.2629724197628874e-05 0 0 0 0
748000000 0.13681306887038228 -0.9954945641861093 6.111239517342181e-05 3.698250326475853e-05 0 0 0 0
757000000 0.12236306192573664 -0.9956978400026618 2.3166017602008154e-06 6.276169924309582e-05 0 0 0 0
766000000 0.10070496683108797 -0.9955168177944996 -6.002661990031319e-06 8.437683321489905e-05 0 0 0 0
775000000 0.08192673325775898 -0.9938627332580507 0.00010053137509482258 5.984824674808746e-05 0 0 0 0
784000000 0.05554337331684225 -0.9913954381951395 3.102529345313179e-05 2.2210350265262896e-05 0 0 0 0
793000000 0.040181116207504176 -0.9887806772529287 1.4829481730370292e-05 -4.009433198033362e-06 0 0 0 0
802000000 0.017467073122371626 -0.9861386269779883 6.621466039800195e-05 -7.365583574688501e-05 0 0 0 0
811000000 -0.0024238509142608215 -0.9821379625991127 4.488739925100609e-05 -4.5297733767510196e-05 0 0 0 0
820000000 -0.023717917806909614 -0.9754853149084441 1.5076203111035285e-05 2.867123581123101e-06 0 0 0 0
829000000 -0.03687794903117169 -0.9715765320259682 4.3137488198524986e-05 -4.051422370898408e-05 0 0 0 0
838000000 -0.05646520346240763 -0.9674072506012046 4.872314529393894e-05 -4.5417468642864426e-05 0 0 0 0
847000000 -0.07390299774090323 -0.9607443188687594 -2.4923630408473826e-06 3.659601649086523e-05 0 0 0 0
856000000 -0.0926196992678695 -0.9538887978815209 3.836121357888894e-05 3.119723627815664e-05 0 0 0 0
865000000 -0.10837192584475898 -0.9485888447645668 -1.0984247876341774e-05 -1.4504853626237176e-05 0 0 0 0
874000000 -0.1280596982838318 -0.9401872220207734 4.434467204719735e-05 2.166256029972436e-05 0 0 0 0
883000000 -0.14508359600426568 -0.9324562983876038 3.542554277036426e-05 -1.6952505902569317e-05 0 0 0 0
892000000 -0.15980657863021103 -0.9279422699898452 1.4048756950219842e-05 1.3994427997122046e-05 0 0 0 0
901000000 -0.171818300206889 -0.9185051504102357 1.8372823946674526e-05 2.4122085905739594e-05 0 0 0 0
910000000 -0.18685868709408393 -0.9126852146836103 2.3448454196673063e-05 3.661982031725035e-07 0 0 0 0
919000000 -0.20827512484470062 -0.9023308645704831 3.3778507143711006e-05 3.568425120558572e-07 0 0 0 0
928000000 -0.22072208442661959 -0.8951937387326487 5.9720804044029925e-06 2.2737039300009806e-05 0 0 0 0
937000000 -0.23119788869475727 -0.8857009739207425 2.8960291370759697e-05 3.0023028833491436e-06 0 0 0 0
946000000 -0.23589197827464348 -0.8788898214400459 6.11454875538494e-06 3.6915274192061635e-05 0 0 0 0
955000000 -0.2646423054449434 -0.8663802243322427 -2.2805121042146118e-06 1.4643072420718621e-05 0 0 0 0
964000000 -0.2693861148322703 -0.8617095710513094 1.4898212299888029e-05 7.160351744566914e-06 0 0 0 0
973000000 -0.2823904631215585 -0.8532977098532007 -1.9643189163650423e-05 7.277521902412167e-05 0 0 0 0
982000000 -0.29713950751259055 -0.8437172679023057 -7.794821628671616e-07 1.7974491923787886e-05 0 0 0 0
991000000 -0.3045122087465291 -0.8370654127322318 -7.0462815128448e-05 5.134414814382872e-06 0 0 0 0
1000000000 -0.31701366398957215 -0.8259281124974625 -6.85177923773973e-05 -2.1811121193649122e-05 0 0 0 0
