# HZ S RI R 50
100000000 1.01317334860393 -0.2198617902636245 1.9815096071366478e-05 -8.349744594832859e-05 0 0 0 0
109000000 1.0079716493519628 -0.2345065610393453 1.675554016912127e-05 -2.6162469907180422e-05 0 0 0 0
118000000 1.0021558312780927 -0.2500237191524802 2.3232033472216007e-05 -2.5248885138087882e-05 0 0 0 0
127000000 0.9969703927578157 -0.2652285157249665 5.1851289452784395e-05 -3.851764361674486e-05 0 0 0 0
136000000 0.9915755717848513 -0.2803755220267115 -1.3736880697281096e-05 7.080477771149017e-05 0 0 0 0
145000000 0.9833836120551555 -0.29518661365244975 -3.978860928146428e-05 6.190072496010886e-06 0 0 0 0
154000000 0.9765966326185529 -0.31102142552285056 3.924297121888389e-05 9.74519769071612e-05 0 0 0 0
163000000 0.9702005482923831 -0.32669975365810866 -2.4712053070720544e-05 1.5555481814571904e-06 0 0 0 0
172000000 0.964478289912738 -0.3396325451394999 -1.4838965295909343e-05 -3.685165850039685e-05 0 0 0 0
181000000 0.9573213960747631 -0.3557931032117017 8.312261180934399e-08 2.895798299615888e-05 0 0 0 0
190000000 0.951589428489476 -0.3694196285556959 4.5517640360775146e-05 3.508268637428571e-05 0 0 0 0
199000000 0.9442246538659348 -0.3838963768448681 5.87924627554786e-05 -6.187169982539253e-06 0 0 0 0
208000000 0.9366812559464043 -0.39892820011970115 -1.1291419833748562e-05 -2.2474470506166467e-05 0 0 0 0
217000000 0.9291211176170128 -0.413184486203726 1.6560222012983773e-05 3.362146571361167e-05 0 0 0 0
226000000 0.9215433484798199 -0.4277842982883426 2.48302739318148e-06 2.196292586812081e-05 0 0 0 0
235000000 0.9154261948188597 -0.4404996417324983 1.6745773248301594e-05 1.941527934130668e-05 0 0 0 0
244000000 0.906234158116022 -0.45575606139821356 1.2061258632374977e-05 2.52132843992008e-05 0 0 0 0
253000000 0.8993950776388414 -0.46854656994650296 3.6779468956064383e-06 -7.151703089428944e-06 0 0 0 0
262000000 0.8917385658075824 -0.48005591191540653 1.9995730563300574e-05 6.151500844405909e-05 0 0 0 0
271000000 0.8833405506444518 -0.49474365478809856 1.2137958587164586e-05 1.2933122341846877e-05 0 0 0 0
280000000 0.8735459035487882 -0.5099059980037881 2.1357702519259406e-05 -2.884674255666779e-05 0 0 0 0
289000000 0.8649586466264678 -0.5217970219138254 2.1619438951236698e-05 7.03660806636037e-05 0 0 0 0
298000000 0.8565263628113249 -0.5359654455224436 -4.617905180967701e-05 -4.4641265220255875e-05 0 0 0 0
307000000 0.8488712766045127 -0.5473503645609373 4.4672390573389625e-05 -4.4103216082671925e-05 0 0 0 0
316000000 0.8385121108905091 -0.5637708807200126 -3.367638400769652e-05 -8.163991178082699e-07 0 0 0 0
325000000 0.8303046675087374 -0.5739104452869609 -1.3840996947687755e-05 3.486823962126426e-05 0 0 0 0
334000000 0.8221349178111583 -0.5858249608713478 2.7418605704453253e-06 9.883619709365485e-06 0 0 0 0
343000000 0.8105189856027105 -0.5995344676570028 -1.425647738998444e-06 -2.02141353409123e-05 0 0 0 0
352000000 0.8027313132834344 -0.6106566303682369 -9.314364979409712e-05 1.5227538324029984e-05 0 0 0 0
361000000 0.789411931039512 -0.6249667447609754 1.9365324482668377e-05 2.397334275877175e-05 0 0 0 0
370000000 0.7806293561426336 -0.6371736117438535 -2.922901289853372e-05 3.7909723425050406e-05 0 0 0 0
379000000 0.7720697873460903 -0.6486435085057728 3.061217250682773e-05 -3.2224728195968065e-05 0 0 0 0
388000000 0.7612856872762235 -0.6603231168356225 5.8763899960581616e-05 2.8313095961472294e-05 0 0 0 0
397000000 0.7504759611857018 -0.6729837689908009 4.497691644020727e-05 -9.597287723078539e-05 0 0 0 0
406000000 0.7392336786140996 -0.6837647237152795 -2.5152675135463894e-05 2.4577353015608125e-05 0 0 0 0
415000000 0.7262995838661482 -0.6980952857580653 -1.906726220858918e-05 4.57652445309669e-05 0 0 0 0
424000000 0.717954162094068 -0.7092475440996467 -5.0346223472033456e-05 2.037041689048464e-06 0 0 0 0
433000000 0.7057098073507787 -0.7189793638422569 -7.68519148558995e-06 -3.8425735548961426e-05 0 0 0 0
442000000 0.6924206146198988 -0.7319961973626475 4.1395427214912724e-05 -4.75373104032202e-05 0 0 0 0
451000000 0.6803286693380834 -0.7433429840874133 4.981468800300586e-05 -3.231718286836575e-06 0 0 0 0
460000000 0.6724229097668596 -0.7528307318032966 1.1537396733879878e-06 -1.5385580898283166e-05 0 0 0 0
469000000 0.6557622554465546 -0.7664784044191425 1.5904615050362605e-05 4.324138416959055e-05 0 0 0 0
478000000 0.649435924377586 -0.7733123567412974 -3.28413457730096e-06 4.465001079867487e-05 0 0 0 0
487000000 0.6319236240276982 -0.786914830988354 4.336913580876043e-05 -7.89264339692068e-05 0 0 0 0
496000000 0.6189215281346947 -0.7978535820096093 3.082213314585757e-05 -9.691360792090093e-05 0 0 0 0
505000000 0.6059451124108443 -0.8088224072562599 3.2600290843320096e-05 9.392312464022061e-06 0 0 0 0
514000000 0.5921241255402302 -0.818893030282373 8.089194760580429e-06 1.3786103876806633e-05 0 0 0 0
523000000 0.5760162410330564 -0.8316504187399233 8.381390621222715e-06 4.1204997469569846e-05 0 0 0 0
532000000 0.5652824987799062 -0.839948591615505 4.261100218623781e-05 4.6350996382410425e-05 0 0 0 0
541000000 0.5508458022347815 -0.8510267857402952 -2.155898525864589e-05 -2.9565297233556594e-05 0 0 0 0
550000000 0.5344779347867246 -0.8601347447242127 -4.115091778584706e-05 1.1800541589451028e-05 0 0 0 0
559000000 0.5221025336006558 -0.8702881903507368 -9.712323027619415e-06 5.289544196136081e-05 0 0 0 0
568000000 0.5044312155361765 -0.8820087010336194 1.5386326407945836e-05 -3.366166039193082e-06 0 0 0 0
577000000 0.49079990364163156 -0.8881373775619293 -8.810574864553174e-06 -4.465887624372733e-05 0 0 0 0
586000000 0.4717692016833408 -0.898710545942375 6.011559200284385e-05 -2.5812053050966438e-05 0 0 0 0
595000000 0.4606346892055096 -0.905714019737829 3.45886374368152e-05 2.466369023983952e-05 0 0 0 0
604000000 0.44385247601816924 -0.9158985482242086 5.4216224500626176e-06 2.864490520053609e-05 0 0 0 0
613000000 0.4270902566311821 -0.9238636684239437 -2.2494191567845942e-05 3.536337442102113e-05 0 0 0 0
622000000 0.4041865197229094 -0.9317418724559074 7.964802457488686e-05 -5.97339354696931e-06 0 0 0 0
631000000 0.3924146631646007 -0.938513557214295 -5.7527604947213796e-05 -1.0210092380742882e-05 0 0 0 0
640000000 0.37179587268869985 -0.9475504061065626 -2.483484634241275e-05 1.9172477421336804e-05 0 0 0 0
649000000 0.357274026679246 -0.9525116523750188 -2.493035616199482e-05 2.0239368060667773e-05 0 0 0 0
658000000 0.33782964652932923 -0.9590603873353926 3.929494600660952e-06 3.8197149868220434e-05 0 0 0 0
667000000 0.31430142972472863 -0.9658938020205996 1.1040379941247937e-05 1.4609036529284604e-05 0 0 0 0
676000000 0.2999795113763407 -0.9715830292371255 3.551365930718592e-05 -6.080551414001921e-06 0 0 0 0
685000000 0.27919884335340384 -0.9773173747207747 -1.971544848886507e-06 1.7551007573240814e-05 0 0 0 0
694000000 0.2626902293725904 -0.9798076615918155 -8.522690600651595e-06 -9.403137486067625e-06 0 0 0 0
703000000 0.24096292231560645 -0.9835876118924642 1.756143505173678e-05 4.069786662725075e-05 0 0 0 0
712000000 0.224325516221987 -0.9873550220369495 6.091189118345327e-05 6.679529545250881e-05 0 0 0 0
721000000 0.19864500544550845 -0.9912209350580646 1.4930651924029155e-06 -1.6858410710244436e-05 0 0 0 0
730000000 0.180687735816483 -0.9936539528805867 -1.3206029443644819e-05 -2.7414367751534593e-05 0 0 0 0
739000000 0.16421374139109907 -0.9954672295834122 1.736984409143708e-05 9.390879717332441e-06 0 0 0 0
748000000 0.13708389725645603 -0.9955582685422689 6.54475373171987e-05 2.3732473303339567e-05 0 0 0 0
757000000 0.12132134406286127 -0.9961377208101883 6.23716230007231e-05 8.572248524179243e-05 0 0 0 0
766000000 0.10525134382565568 -0.9941308684742249 2.061713943508535e-05 1.0871027727938945e-05 0 0 0 0
775000000 0.07744588500348071 -0.9929127773136673 5.500622550846534e-05 8.621598869866007e-05 0 0 0 0
784000000 0.05313396627426261 -0.991739412691912 -1.5620624703920363e-06 4.1024759936500445e-05 0 0 0 0
793000000 0.04101744049704444 -0.9889837314274471 5.6681185945776316e-05 -3.888362641366697e-05 0 0 0 0
802000000 0.016784400032549922 -0.9858493044770035 1.2068131958826496e-05 4.280529092613624e-05 0 0 0 0
811000000 0.0007539383357454228 -0.9833666806083913 4.808828565088019e-05 2.698700217689698e-06 0 0 0 0
820000000 -0.022322347205408186 -0.9784647278757908 2.162499363230182e-06 -3.7056508908064234e-05 0 0 0 0
829000000 -0.03541874597626065 -0.9726446084158547 8.288268277637434e-05 -7.652117867288911e-05 0 0 0 0
838000000 -0.060106973246354764 -0.9673077455102227 -7.9024068404502e-05 -4.4383813448415735e-05 0 0 0 0
847000000 -0.07625948275641531 -0.9594249305643334 1.2873704452211578e-05 4.361830038597379e-05 0 0 0 0
856000000 -0.0963491736265954 -0.9558439397871636 2.4735454309891745e-05 0.00012661305906658458 0 0 0 0
865000000 -0.10676773792506296 -0.9497889694722736 5.071814001437245e-05 4.093359664041233e-05 0 0 0 0
874000000 -0.12816227041904407 -0.9428947752145885 -5.346393041593896e-05 6.47972554170124e-06 0 0 0 0
883000000 -0.1382044140631323 -0.9359689917096576 2.1106432531495786e-05 6.486933656402178e-06 0 0 0 0
892000000 -0.1543039994788009 -0.9273151848046397 -4.641063066954126e-06 8.155113994266831e-06 0 0 0 0
901000000 -0.1710152600072217 -0.918610579375397 0.00010861789735521036 5.905029234760179e-06 0 0 0 0
910000000 -0.18921712832349497 -0.9109997033054368 -2.176350847831539e-05 3.0350388134752155e-05 0 0 0 0
919000000 -0.207269499579949 -0.9033732802270206 -1.542197237753408e-05 3.468832063985853e-05 0 0 0 0
928000000 -0.22553100222307115 -0.8926261806419044 -5.350658998338603e-05 1.170999803576853e-05 0 0 0 0
937000000 -0.22585183457362748 -0.887769123047011 3.2632434404883845e-05 3.174404278015697e-05 0 0 0 0
946000000 -0.24655670752203132 -0.8767893486943052 4.668085066151033e-05 7.407279198734225e-05 0 0 0 0
955000000 -0.2591271939410587 -0.8693245682652739 -2.5450819873402298e-05 3.59180341947795e-05 0 0 0 0
964000000 -0.27492173985606183 -0.8602854282673493 4.445945426346397e-05 -4.885447946776434e-05 0 0 0 0
973000000 -0.2751396480368198 -0.8556459758320415 2.1546586895521094e-05 1.3436740006577791e-05 0 0 0 0
982000000 -0.287249985958034 -0.8457598468965094 3.25437019415154e-05 9.807078873862207e-06 0 0 0 0
991000000 -0.3094621521493567 -0.8345242860709057 7.228566242548395e-05 -5.716186167410989e-06 0 0 0 0
1000000000 -0.3161707909595256 -0.8291060443017672 -1.0654944066918683e-05 -3.692962808566691e-05 0 0 0 0
