# HZ S RI R 50
100000000 1.006945366736743 -0.21889523727221089 7.659423037115362e-06 -7.248182812226253e-07 0 0 0 0
109000000 1.00755809732739 -0.23428073673486083 -2.3844116854938453e-05 -4.075527912345448e-05 0 0 0 0
118000000 1.0025258639670607 -0.24842239401815813 -3.5039961806552053e-05 5.8508785893359046e-05 0 0 0 0
127000000 0.9971093424961953 -0.26466935389777185 -2.507949636306124e-05 -1.1067258203993747e-05 0 0 0 0
136000000 0.9910079583852949 -0.28047603581187 -4.1510601705580686e-05 -6.431131849760516e-05 0 0 0 0
145000000 0.9829226543960309 -0.2960527471625727 2.2566211257005603e-05 2.861526910772793e-05 0 0 0 0
154000000 0.9763676714862771 -0.311711299794984 -1.6878509154676675e-05 -2.4466453165995088e-05 0 0 0 0
163000000 0.9711620038333595 -0.3262258838282993 -2.5788091695926088e-05 -3.7128645234307165e-06 0 0 0 0
172000000 0.9635821180982608 -0.3415240286401542 1.2200225229896172e-05 -2.0352981981681924e-05 0 0 0 0
181000000 0.9574441809716426 -0.3556217064782377 9.66722792209738e-06 -3.2873626516254697e-06 0 0 0 0
190000000 0.9507727405148891 -0.3710301439186546 -2.2767755488556996e-05 -1.4235858962357766e-05 0 0 0 0
199000000 0.9437582163875885 -0.3840770233615696 -4.089737969747838e-07 2.674357558300518e-05 0 0 0 0
208000000 0.9373341168217082 -0.39880828106569055 1.1150003441241343e-05 2.6574129972298718e-05 0 0 0 0
217000000 0.9294832756376992 -0.4133365935981697 3.0998707541904166e-05 1.609733613887889e-05 0 0 0 0
226000000 0.9217527813249776 -0.4263353035610065 9.014281533174063e-06 9.994456445863956e-06 0 0 0 0
235000000 0.9150232502948591 -0.4397924758175102 2.7234725419494704e-05 5.084092586415357e-06 0 0 0 0
244000000 0.9075106690134961 -0.45255753643121704 2.4615422984088065e-06 -5.491835057034965e-06 0 0 0 0
253000000 0.8984088581322599 -0.4688186283174147 3.343861896646909e-07 2.891617635753121e-05 0 0 0 0
262000000 0.8913554298079225 -0.4814570466924204 -5.996703910450447e-05 -1.2162411168711901e-05 0 0 0 0
271000000 0.8820077114522743 -0.4965881617605717 -4.89395652176315e-05 -5.913428077999756e-06 0 0 0 0
280000000 0.8738018149619377 -0.5084641115582065 2.9410084492179334e-05 -3.392282641980727e-06 0 0 0 0
289000000 0.866361264771213 -0.5226322868704867 -7.712585992642514e-06 2.5379294600505058e-05 0 0 0 0
298000000 0.8567045572355276 -0.5378046383883072 -2.4557987284688724e-05 -3.0182946808731884e-05 0 0 0 0
307000000 0.8468334069091668 -0.5501028002116014 3.127428026137048e-05 1.4805319868370528e-05 0 0 0 0
316000000 0.8387247250313115 -0.5609167655781543 -1.0394325658345841e-05 -3.887247489213099e-05 0 0 0 0
325000000 0.8298210865087738 -0.5743976598466547 1.916013423408011e-05 4.287390217177638e-06 0 0 0 0
334000000 0.8201981374406148 -0.5897053457670233 4.044079564884156e-05 -4.604291534914567e-06 0 0 0 0
343000000 0.8096360756193212 -0.6018383344942937 -1.0052681096442264e-05 3.0643711109044585e-05 0 0 0 0
352000000 0.799982809642851 -0.6123181839007128 -1.455486323451313e-06 2.865211794935655e-05 0 0 0 0
361000000 0.7889607577331904 -0.6278653494681536 -3.777796269902321e-05 2.9707055759654244e-05 0 0 0 0
370000000 0.7803939896267932 -0.6388184028922609 8.970703951841738e-06 -6.6721772666137446e-06 0 0 0 0
379000000 0.770498528905887 -0.6500997064269263 1.9315905985509274e-06 -3.551045319712889e-05 0 0 0 0
388000000 0.7603580768820956 -0.6611672898487139 -1.1391207408301352e-05 5.423335434005483e-06 0 0 0 0
397000000 0.7508072636991349 -0.6728010596785805 -9.489991576830441e-06 5.3317661454569216e-05 0 0 0 0
406000000 0.7383460181759616 -0.6866730798698057 1.1516718680779074e-05 4.126173175426699e-05 0 0 0 0
415000000 0.7255460350312742 -0.6990340693555235 6.676650910764092e-05 -6.296989500726595e-06 0 0 0 0
424000000 0.7170039972448721 -0.7078652023762254 -2.389432788956909e-05 3.651420975170969e-06 0 0 0 0
433000000 0.7048968989590767 -0.7207160041903841 2.111120980816542e-05 -8.92419738273051e-06 0 0 0 0
442000000 0.6928990669831465 -0.7324271865415151 2.286057877998852e-05 3.048448186144918e-06 0 0 0 0
451000000 0.6811333189098414 -0.7426094965625057 -3.979698340860201e-06 -2.1384530896966292e-05 0 0 0 0
460000000 0.6703047017017616 -0.7548135756338029 -4.316070516556841e-05 2.2435836013886138e-06 0 0 0 0
469000000 0.6549465805111852 -0.7670560512719871 3.528788933490188e-05 1.529802988929905e-05 0 0 0 0
478000000 0.6446326208421004 -0.7754998812863697 1.2570798648590563e-05 -2.3212093363947372e-05 0 0 0 0
487000000 0.6319270230983551 -0.7876140958177253 2.9271861006724923e-05 7.4187776569243716e-06 0 0 0 0
496000000 0.6200897586267629 -0.7985434685503453 -8.038142078741604e-07 9.144076839607245e-06 0 0 0 0
505000000 0.606789584005656 -0.8081536311934491 -2.9368922598112966e-05 -4.086348027475707e-06 0 0 0 0
514000000 0.5943826447121454 -0.8185745529568892 -2.269806760109839e-05 7.794135290067384e-06 0 0 0 0
523000000 0.5761476366274638 -0.8318582603106632 5.368960069838924e-05 -7.240903517402984e-05 0 0 0 0
532000000 0.5664948967263005 -0.8390068740608773 2.6979647882787187e-05 -2.613599124946712e-05 0 0 0 0
541000000 0.5478780313542674 -0.85187987405954 -2.096648348267685e-05 -6.657634703598027e-05 0 0 0 0
550000000 0.5391397323453644 -0.8589125889757603 3.357336066221864e-05 -1.3135665721864269e-05 0 0 0 0
559000000 0.5219105243585246 -0.8695107843997857 -7.466414724181099e-06 1.764318885896687e-05 0 0 0 0
568000000 0.5028855124297574 -0.8804386609167445 -9.27757525434924e-06 -2.8275013684683516e-05 0 0 0 0
577000000 0.4936630955200973 -0.8878661767570228 -2.968905700951849e-05 -6.007409495893846e-06 0 0 0 0
586000000 0.47572381367434685 -0.8975667999928935 -7.331776042702963e-06 2.2289273582306298e-05 0 0 0 0
595000000 0.4586308820718205 -0.9088627119638288 -5.755967106208075e-06 -2.2115254130662166e-05 0 0 0 0
604000000 0.4435304444531155 -0.9143888994842141 -4.5475098894423345e-05 -1.458885116533484e-05 0 0 0 0
613000000 0.4288185566350088 -0.9220546478801376 -5.863115848026816e-05 5.169191314609011e-05 0 0 0 0
622000000 0.40487814427347846 -0.9330572526555685 1.4165841235760733e-05 3.8970199592627813e-05 0 0 0 0
631000000 0.39411952990218774 -0.9396736332342739 -6.727913009879474e-05 3.2973710456522534e-06 0 0 0 0
640000000 0.3730511238381344 -0.948606354313869 1.81716065616131e-05 5.086434953012592e-05 0 0 0 0
649000000 0.35491911880172466 -0.9558906695284844 3.707665965343842e-06 -1.3756852306934453e-05 0 0 0 0
658000000 0.33942543424959964 -0.9587171510309359 -1.152187632965696e-05 4.405356273300253e-05 0 0 0 0
667000000 0.32045982105746784 -0.9651111102872932 -1.9589426457933418e-05 4.46173704314745e-05 0 0 0 0
676000000 0.3028331561123039 -0.9712898922469898 -2.895789554660185e-05 3.933763603804704e-05 0 0 0 0
685000000 0.2810299705587068 -0.9776152864963316 2.9044514998280768e-05 2.1817466652901283e-05 0 0 0 0
694000000 0.2621502970042223 -0.9804770345198683 1.1396400969022073e-05 4.015210075658516e-05 0 0 0 0
703000000 0.2407315236966583 -0.9837214997073214 6.242786618828414e-06 4.613455261116712e-05 0 0 0 0
712000000 0.22184214407143524 -0.9871658343088476 -3.840822711093339e-06 6.69155725331142e-05 0 0 0 0
721000000 0.2052498022660366 -0.9899245816501246 -2.115037931947777e-05 3.3746327424026326e-05 0 0 0 0
730000000 0.17662335441880175 -0.9932057684642672 1.0866423678523677e-06 5.064484540937873e-05 0 0 0 0
739000000 0.16044378527671074 -0.9923078123467077 5.65074984079937e-05 2.6807702687331285e-05 0 0 0 0
748000000 0.13983214355139006 -0.9951783025222795 9.264678062717795e-05 6.165045849726645e-05 0 0 0 0
757000000 0.12208929273002414 -0.9940191971206255 5.172775158015198e-05 -1.5318789986317948e-06 0 0 0 0
766000000 0.09928698666983098 -0.9935613183987061 7.20263901321028e-05 -1.2450263202100974e-05 0 0 0 0
775000000 0.07774342281322996 -0.992767073353456 3.7053245949826104e-05 -4.154598200060232e-05 0 0 0 0
784000000 0.05902946423227251 -0.9924779400241167 9.356214690726814e-05 1.2479781918693634e-05 0 0 0 0
793000000 0.03944097938537477 -0.9877867702905684 8.628177263807583e-05 3.101934878125484e-05 0 0 0 0
802000000 0.020828475366530323 -0.9851146440012567 -1.2908886926084865e-05 -2.8577900363125718e-05 0 0 0 0
811000000 0.005131512770983663 -0.9825078471527982 7.875237873978913e-05 -2.304272201637753e-05 0 0 0 0
820000000 -0.021168790382913735 -0.977338432101947 -2.2125533878922498e-05 2.090128870194261e-05 0 0 0 0
829000000 -0.04192755225332515 -0.9709191290720725 4.599464042800821e-05 -9.6333534792832e-06 0 0 0 0
838000000 -0.05614156471114507 -0.9682574904353426 -1.8990731645810703e-06 1.2187137722828884e-05 0 0 0 0
847000000 -0.07294206631121422 -0.96165944809809 1.9591529210102663e-05 -5.831944546629173e-06 0 0 0 0
856000000 -0.09245388958714194 -0.9553306063194131 -1.869554028091438e-05 -1.5814892504291926e-05 0 0 0 0
865000000 -0.10725022650541814 -0.9495902152012892 8.631503672703067e-05 -1.7224123111565284e-05 0 0 0 0
874000000 -0.1260994086098021 -0.9402860960816198 -1.0460524413497378e-06 2.6309859203253665e-05 0 0 0 0
883000000 -0.14886819278826463 -0.9341312289973003 6.432245929783498e-05 1.2042257445435686e-05 0 0 0 0
892000000 -0.15454662476683206 -0.9275247907926479 1.3832654616158872e-05 -2.287163489802767e-05 0 0 0 0
901000000 -0.17243938998195005 -0.9178610937951813 3.360511935446153e-05 -1.8509916622258325e-06 0 0 0 0
910000000 -0.1895565971549098 -0.9115146709685347 -7.816793136612632e-06 -2.0735296434277807e-05 0 0 0 0
919000000 -0.20328663062266308 -0.9018443350207863 2.3977907366293058e-05 5.580666335791537e-06 0 0 0 0
928000000 -0.22380018439361107 -0.893045499965631 -4.201950994156571e-06 -2.3752685956621778e-05 0 0 0 0
937000000 -0.233348746164896 -0.8844210379488058 4.745612812488642e-05 -4.31674152251417e-05 0 0 0 0
946000000 -0.24540483434563287 -0.8782382186677248 -6.08594221174577e-06 8.676694610034472e-06 0 0 0 0
955000000 -0.25752870291852814 -0.8710103097225799 -2.864063281340896e-05 2.598022526065553e-05 0 0 0 0
964000000 -0.26692223443044966 -0.8611923502530461 6.735264987503801e-05 2.7502934152818225e-05 0 0 0 0
973000000 -0.27895943080658225 -0.8542146179050738 3.927695592806946e-05 3.512230958425268e-06 0 0 0 0
982000000 -0.29556524003579265 -0.8444102328006423 -2.81834130051912e-06 -1.654607338321125e-05 0 0 0 0
991000000 -0.3111180579656219 -0.8323852586811354 1.5497876609026525e-05 -5.173467475602811e-06 0 0 0 0
1000000000 -0.3128041106536398 -0.8289250851175121 -1.2113378158814378e-05 5.7508501716990286e-05 0 0 0 0
