# HZ S RI R 50
100000000 1.0155532500468352 -0.2191823670422477 -9.44517753277841e-06 -7.688452875066209e-05 0 0 0 0
109000000 1.0080502460702845 -0.234087745612151 5.3291581917680196e-05 4.499434737593974e-05 0 0 0 0
118000000 1.0026148596533122 -0.2499066216832577 -6.172460677334708e-05 -1.6009429302508396e-06 0 0 0 0
127000000 0.9968923389365032 -0.26487100165033434 4.251830447969858e-06 1.0418514904602579e-05 0 0 0 0
136000000 0.9916551576703388 -0.28016523348550587 -4.9185778356681555e-05 -4.4464329373620324e-05 0 0 0 0
145000000 0.9823267996408733 -0.29602891201899323 -6.076169432467912e-07 5.097464343001148e-05 0 0 0 0
154000000 0.9779850763456577 -0.3094290635894561 -1.791851151980584e-05 -1.3772958730367539e-05 0 0 0 0
163000000 0.970425955846688 -0.3260561293852181 -5.9026730765337504e-05 2.4765786096582564e-06 0 0 0 0
172000000 0.964733703810463 -0.3404032898355155 -6.187541037963263e-05 -1.397345183003554e-05 0 0 0 0
181000000 0.9578581376466365 -0.3551013316834065 2.8414357338890854e-05 7.657513739027937e-06 0 0 0 0
190000000 0.9510962591718235 -0.36893473123965576 -2.9787908753018726e-05 7.002325858700222e-06 0 0 0 0
199000000 0.944072735206529 -0.3832318738842455 8.86153019946618e-07 4.299875145982599e-05 0 0 0 0
208000000 0.9358699524774942 -0.3995135331309307 1.1298899871672163e-05 1.0174984383509654e-05 0 0 0 0
217000000 0.9294525605266389 -0.4123518823641938 3.631641512714866e-05 2.0210184800385323e-05 0 0 0 0
226000000 0.9225500861139573 -0.42602758554292985 3.188811530794032e-05 1.5226084896097794e-05 0 0 0 0
235000000 0.9144655275706625 -0.44054572828921906 6.434482598437529e-05 -3.047685164760085e-05 0 0 0 0
244000000 0.9068321700886021 -0.4542987107099967 1.0702439843823605e-05 3.063833677912757e-05 0 0 0 0
253000000 0.8995512426230237 -0.46849081224121786 -1.6319910305839985e-05 2.1700648236704064e-07 0 0 0 0
262000000 0.8900175579734876 -0.48357066962025824 3.05282391817721e-05 -3.6959535405633914e-05 0 0 0 0
271000000 0.8834004005704919 -0.4952550286957468 1.7336525751773867e-06 1.4501338722844927e-06 0 0 0 0
280000000 0.8738940970121907 -0.5107454604392613 2.4639913800701258e-05 -7.918639897565306e-06 0 0 0 0
289000000 0.8655080283579952 -0.5228951858663281 1.7535660173975742e-05 -7.025738936016073e-05 0 0 0 0
298000000 0.8572676937977209 -0.5349121733611057 4.765495787888978e-05 3.275463745128231e-08 0 0 0 0
307000000 0.8487345941875761 -0.5482870558936002 1.2940504102275481e-05 -5.21736198574444e-05 0 0 0 0
316000000 0.8398653347551472 -0.5606192811993927 2.3122869122802464e-05 -8.111344455291632e-06 0 0 0 0
325000000 0.8309888762999389 -0.5736110735123483 -2.3769885007125238e-05 3.81581966520581e-05 0 0 0 0
334000000 0.8184991297617188 -0.5897237654866014 -4.7004876982735624e-05 -3.2295949557156734e-06 0 0 0 0
343000000 0.8116091988795613 -0.599035212456231 5.5871826412476694e-05 2.347311865263469e-05 0 0 0 0
352000000 0.8005494314529873 -0.613319032706927 5.640891673130965e-05 -5.501561623619329e-05 0 0 0 0
361000000 0.7923779782119684 -0.6255909107217668 -5.951447639964478e-05 -1.9993949947770192e-05 0 0 0 0
370000000 0.7802066921132381 -0.6377949888431119 3.505586071027354e-05 -2.1300814022785003e-05 0 0 0 0
379000000 0.7704956948467111 -0.6499391773636545 3.6703091534695673e-05 4.4738387491326126e-05 0 0 0 0
388000000 0.7583737602752579 -0.6621618613922289 3.2805606909219924e-05 -2.0157328553494897e-05 0 0 0 0
397000000 0.7490658829405602 -0.6738411790184439 3.0275797517895217e-05 9.338253216302787e-06 0 0 0 0
406000000 0.7383970220485689 -0.6864541491323313 -5.1083568318819263e-05 -3.5107307930353995e-06 0 0 0 0
415000000 0.7289309639198623 -0.6960606641021804 5.9316377226563475e-06 -6.282411858138585e-06 0 0 0 0
424000000 0.7143359738024365 -0.712833823173095 -1.0581267094151242e-05 1.910775202316513e-05 0 0 0 0
433000000 0.7055894349073564 -0.720611118675474 7.381968141770334e-06 4.521362942036038e-06 0 0 0 0
442000000 0.6960884897551068 -0.7284511820585858 7.258336021218083e-06 8.237901457565693e-05 0 0 0 0
451000000 0.6814183498273079 -0.7435684688966716 -5.483968509421901e-05 -3.5894748410905276e-05 0 0 0 0
460000000 0.667550915105916 -0.7562768201145825 4.058230542412745e-05 1.4247328316848793e-05 0 0 0 0
469000000 0.6545347467504871 -0.7674164740219527 2.9263948971859455e-05 1.8773353029658297e-05 0 0 0 0
478000000 0.6438269822038359 -0.7777213765748195 -6.7554660415698405e-06 6.37189979941496e-05 0 0 0 0
487000000 0.6322209337070437 -0.7865678469883852 -2.4304340189690694e-05 -8.442055145444278e-07 0 0 0 0
496000000 0.6196356787302577 -0.7968083269007167 3.9548544907162904e-05 3.6582441418376836e-05 0 0 0 0
505000000 0.6059369748113657 -0.8083504777815513 -5.119855361327229e-05 -8.386852849849458e-08 0 0 0 0
514000000 0.5913423303531447 -0.8200051257222111 -2.4392971088644267e-05 -2.8907415034627003e-05 0 0 0 0
523000000 0.5800692170860057 -0.8292157014812324 9.622858199854018e-06 3.574733853633242e-05 0 0 0 0
532000000 0.5646583846400751 -0.8414734943869416 -1.022615690101861e-05 -3.627249105051355e-06 0 0 0 0
541000000 0.5493225747067977 -0.8512029522898772 5.75504295363021e-05 -4.289179470128388e-05 0 0 0 0
550000000 0.5374720640269272 -0.8580664811572101 8.007757792787575e-06 -3.490413328336403e-05 0 0 0 0
559000000 0.5221316334016779 -0.8700732564868158 -3.7461150054791e-05 -3.636427878316812e-05 0 0 0 0
568000000 0.5061077366219114 -0.8798527137706779 1.3669301069675071e-05 -6.007887348007832e-05 0 0 0 0
577000000 0.4875751678683043 -0.8902946263580962 4.043110719946922e-06 4.6150472355083836e-05 0 0 0 0
586000000 0.4751392249364696 -0.8981890149506453 -3.63952516312111e-05 4.2744959480442495e-05 0 0 0 0
595000000 0.45961017729670756 -0.9067986826818917 5.417639130265299e-05 2.417534694973439e-05 0 0 0 0
604000000 0.44037417656663197 -0.9166234301538084 -1.6483856947806825e-05 -1.0483868643314295e-05 0 0 0 0
613000000 0.42247690347454003 -0.9250543985493686 -2.49099581793057e-05 -5.143913335669519e-06 0 0 0 0
622000000 0.40940950842101104 -0.9308765996679482 1.2689663411667977e-05 2.692580050965382e-05 0 0 0 0
631000000 0.3930141320528626 -0.9395250993459809 -1.441629774172669e-05 -1.2443718123484351e-05 0 0 0 0
640000000 0.374949810724228 -0.9465694936984312 3.048275423338647e-05 -5.226795851934775e-05 0 0 0 0
649000000 0.3553490854329674 -0.9523101553108423 2.927397953007559e-05 -4.112899350869693e-05 0 0 0 0
658000000 0.3397302595768845 -0.9602312815154185 -5.5330487563705826e-05 1.544245255898776e-05 0 0 0 0
667000000 0.31893148715671665 -0.9659069217082815 -3.149406619666122e-05 -1.2265172749896067e-05 0 0 0 0
676000000 0.297788428995321 -0.9728748289327978 3.1526947755076204e-05 9.774299444211378e-05 0 0 0 0
685000000 0.2786971970512083 -0.9770545661904969 2.415007387709034e-05 3.0323513331135876e-05 0 0 0 0
694000000 0.25609133591620115 -0.9828778473036369 3.693608548216073e-05 -5.5026644742677004e-05 0 0 0 0
703000000 0.23832316094389558 -0.9845246936365981 -6.8998157868041e-05 1.9397581326061257e-05 0 0 0 0
712000000 0.21839152942887372 -0.9886981230850922 5.2660232069625073e-05 5.8209804422789635e-05 0 0 0 0
721000000 0.2040851764282728 -0.9896474920419389 8.569880556340527e-05 -2.6458567913320378e-06 0 0 0 0
730000000 0.17992991519135887 -0.9933903812096742 1.7219536534725572e-05 2.597481730720756e-05 0 0 0 0
739000000 0.1614477167414561 -0.9953674108084621 0.00010104044079697452 7.335577718360899e-05 0 0 0 0
748000000 0.14137772064614879 -0.995364958228045 6.197882435742973e-05 1.6161896831695828e-05 0 0 0 0
757000000 0.12101266255944133 -0.9946678900430048 2.4277517697642636e-06 7.593750811541654e-07 0 0 0 0
766000000 0.09809880670978656 -0.995391128530289 4.288388827657023e-05 6.333324720087141e-05 0 0 0 0
775000000 0.07403101396570232 -0.9939113715955855 9.44827394182067e-05 2.1190266348623284e-05 0 0 0 0
784000000 0.05726598367541183 -0.9907234608546864 3.8723649974095455e-05 0.00011619810912243106 0 0 0 0
793000000 0.03876691266277849 -0.9881959824013452 1.9363112226698123e-05 5.924525557226395e-05 0 0 0 0
802000000 0.015997101426303763 -0.9854764239640534 3.2608588008960435e-05 4.348762165224057e-05 0 0 0 0
811000000 -0.0011040945930195483 -0.9814075713010366 0.00011227958457452235 3.777046978074392e-05 0 0 0 0
820000000 -0.018434421951313 -0.9765830172141482 3.2562338856966624e-06 2.988050043593881e-05 0 0 0 0
829000000 -0.04115307332850587 -0.9733421876729028 -7.50663730498439e-06 -2.563706970427735e-05 0 0 0 0
838000000 -0.06488652305193006 -0.9653775751855072 -2.5435966471748527e-05 1.1631043504230999e-05 0 0 0 0
847000000 -0.0727135844361168 -0.9610880460984751 -3.2428774561046e-05 -4.765480617896394e-05 0 0 0 0
856000000 -0.0982337388858375 -0.9552081455962312 5.403665419650311e-05 -7.84395428343722e-05 0 0 0 0
865000000 -0.10974732005500215 -0.9463794022980474 -2.310832371377241e-05 7.533837342311394e-05 0 0 0 0
874000000 -0.12992024623127713 -0.9415401422270434 -5.145066174512847e-05 1.4362109489985914e-05 0 0 0 0
883000000 -0.13844376659312946 -0.9340238157096504 1.800528655670705e-05 3.46791175834552e-05 0 0 0 0
892000000 -0.16078813834413055 -0.9252797295440509 -6.333407742713074e-07 0.00010415074842539033 0 0 0 0
901000000 -0.1718782853811399 -0.9183212938459694 -4.657374419756855e-05 -7.882605772027653e-06 0 0 0 0
910000000 -0.19296430844609128 -0.9094316664720231 2.3051734045522035e-05 -3.332241294333177e-05 0 0 0 0
919000000 -0.20643809708689054 -0.902815186772494 4.024297636849124e-05 3.935674622731932e-06 0 0 0 0
928000000 -0.21705631652818017 -0.8933371131301503 3.507585772708554e-05 2.4940652018510813e-05 0 0 0 0
937000000 -0.23136959282888497 -0.8862981361711798 2.88219144198545e-05 3.870438121760312e-05 0 0 0 0
946000000 -0.24615326264768128 -0.8781960631868962 4.2388725012804995e-05 -2.520734550861668e-05 0 0 0 0
955000000 -0.2622066127969777 -0.8681529625199869 -1.655739005990865e-05 -1.907436695725042e-05 0 0 0 0
964000000 -0.26780835665014013 -0.861594964201782 -3.4383388233727806e-05 6.262441259761817e-05 0 0 0 0
973000000 -0.2840127554721986 -0.8507675571235334 -4.320692517255852e-05 -4.367523079524175e-05 0 0 0 0
982000000 -0.2976720289297951 -0.8424930756811256 2.9179425029211367e-05 -3.095230115075942e-05 0 0 0 0
991000000 -0.30475851623040257 -0.8362205195281216 3.780721364474156e-05 6.433272170611735e-06 0 0 0 0
1000000000 -0.31877809164942034 -0.8261777140125366 1.724379094200587e-05 1.8929635666211947e-05 0 0 0 0
