# HZ S RI R 50
100000000 1.012819073669876 -0.219263813473975 -8.890123759446646e-05 -4.184694764913358e-05 0 0 0 0
109000000 1.0079002084515833 -0.23486932264535923 5.075669369398471e-05 -3.2000679253779104e-05 0 0 0 0
118000000 1.0022562779233595 -0.24989403675359836 5.521034991536698e-06 -6.378859270061302e-05 0 0 0 0
127000000 0.9968520221288305 -0.2648809665955954 -1.0546154961707842e-05 2.4487775493993597e-05 0 0 0 0
136000000 0.9908687987592969 -0.2811409105518103 -4.490855496661225e-05 1.4334686797059527e-06 0 0 0 0
145000000 0.9832880033764121 -0.29548711335495026 2.635247866967378e-05 1.416675712704019e-05 0 0 0 0
154000000 0.9773083876362664 -0.31049218053201477 5.998681586218815e-05 5.3706193866013504e-05 0 0 0 0
163000000 0.9706599675572274 -0.32617909319563937 -7.198533307925242e-06 2.9491024629998273e-05 0 0 0 0
172000000 0.9640851466174921 -0.339992926361322 -4.653384737321348e-06 3.077554917017423e-05 0 0 0 0
181000000 0.958251721256745 -0.35518835983712743 -4.8996545508098714e-06 -3.3188775126162435e-05 0 0 0 0
190000000 0.9514312192684407 -0.3688931400918251 -2.5493453974077515e-05 -4.82924614354882e-05 0 0 0 0
199000000 0.9439933669826427 -0.3849289838016423 1.991712573421142e-05 -5.638237664863731e-05 0 0 0 0
208000000 0.9374790250037904 -0.39818147691866257 3.128513206750183e-05 5.968495921963612e-06 0 0 0 0
217000000 0.9297671224793559 -0.41204259365836216 -4.247751626710724e-05 -0.00010138375640181899 0 0 0 0
226000000 0.9227352723319325 -0.42686089121851817 -3.481928468585115e-05 6.4994160622512766e-06 0 0 0 0
235000000 0.9153653291479326 -0.4409299786073496 -3.0276764118760304e-05 1.1295388341918002e-06 0 0 0 0
244000000 0.9067844178835268 -0.45555981685308294 2.33091719852171e-06 7.803502774793068e-06 0 0 0 0
253000000 0.8990493649775991 -0.4685300034936462 1.3527420357517279e-05 -1.3685830586359658e-05 0 0 0 0
262000000 0.8908804773006925 -0.48269968344696246 -2.4532203799852115e-05 -5.06608507167004e-05 0 0 0 0
271000000 0.8823459349009702 -0.49600080526245294 -8.946265095562876e-06 -5.021774539079457e-05 0 0 0 0
280000000 0.8727796202946955 -0.5095636543101633 2.3003521179523888e-05 -4.046738168230848e-05 0 0 0 0
289000000 0.865125300999077 -0.5239197384897697 5.478680881483932e-05 -1.3964223647660774e-05 0 0 0 0
298000000 0.8565802714364259 -0.5358469360570441 -2.857439031223758e-05 -5.392876276922524e-06 0 0 0 0
307000000 0.846955186889475 -0.5503097807186482 3.561254456374566e-05 4.394628550785241e-06 0 0 0 0
316000000 0.837973901034163 -0.5629247335309635 -4.986615727954934e-05 5.484163388515696e-05 0 0 0 0
325000000 0.8284308976012538 -0.5745193183258991 7.73988638296932e-05 -4.021188192291496e-06 0 0 0 0
334000000 0.818920340432769 -0.5889849981283607 -1.9632703248242356e-05 2.5587314596789443e-05 0 0 0 0
343000000 0.812547264159073 -0.597012780990483 -2.5857308739063544e-05 1.275070135972086e-05 0 0 0 0
352000000 0.8007492324681104 -0.6121662906079339 -2.4058690599574996e-05 -1.382380264966876e-05 0 0 0 0
361000000 0.7912179226027154 -0.6237999905987612 -2.3224479246712632e-07 -5.570925317067889e-05 0 0 0 0
370000000 0.7804914764589076 -0.6375607442266358 -3.6596654501829944e-05 1.363040992274473e-05 0 0 0 0
379000000 0.7725094308170369 -0.6481120613136779 1.383818960944159e-06 -1.0046867591644945e-05 0 0 0 0
388000000 0.7613325229584518 -0.6614414757165611 -4.837449804970852e-05 -3.756111679917389e-05 0 0 0 0
397000000 0.7480776242159498 -0.6750384173769984 4.721249660684334e-05 -1.9726849705513193e-05 0 0 0 0
406000000 0.7393879487718032 -0.684001712987873 2.810552117557755e-05 -5.71334601160052e-06 0 0 0 0
415000000 0.7289279380742926 -0.696021232216046 4.009898997246786e-05 -7.186713967717725e-05 0 0 0 0
424000000 0.7161056023766865 -0.7090672584130397 2.796126531745495e-05 -2.779983489649855e-06 0 0 0 0
433000000 0.7032889856847161 -0.7201313454425107 6.367095804222742e-05 2.162961430195133e-05 0 0 0 0
442000000 0.6948906608930147 -0.7310586720340013 8.974284266625573e-05 -3.589834784738075e-05 0 0 0 0
451000000 0.6835410498130261 -0.7421324769543083 -4.936380455589225e-05 -1.894775797675075e-05 0 0 0 0
460000000 0.6664486246232986 -0.7567623248188449 3.344442379881857e-05 -2.2652777330892995e-05 0 0 0 0
469000000 0.656988159863915 -0.7659668567574657 -2.113164251083567e-05 -3.224856246939068e-05 0 0 0 0
478000000 0.6427604172841646 -0.7777569252445373 3.4448188450369716e-05 -8.215663174502996e-05 0 0 0 0
487000000 0.6350101263304525 -0.7848398219973189 -1.5382211581233e-05 -6.574439635087645e-05 0 0 0 0
496000000 0.6175985996838668 -0.7994724116941907 6.834486958930658e-05 4.454102164989698e-05 0 0 0 0
505000000 0.6061973146958646 -0.8087777927308526 1.4118604562370353e-05 -5.465775445790797e-05 0 0 0 0
514000000 0.5930722829859036 -0.8188025503087986 1.1999073983570966e-05 -6.252499424507201e-05 0 0 0 0
523000000 0.5821856777906208 -0.8272894871215162 8.065866177263082e-05 1.8635030893397056e-05 0 0 0 0
532000000 0.566795204575661 -0.8381374609058291 -4.3745644891101995e-05 4.004884116555344e-06 0 0 0 0
541000000 0.5535941922860986 -0.8476991324453254 -4.027148019926735e-06 2.640981295074735e-05 0 0 0 0
550000000 0.536623068211046 -0.8591897271124443 6.823901937741285e-05 4.875051537388185e-05 0 0 0 0
559000000 0.5222078124223603 -0.8702527106453471 -3.159864365030538e-06 -4.065632025414581e-05 0 0 0 0
568000000 0.5051610407829558 -0.8788163760893385 -6.490243383197052e-05 -2.5694631379013923e-05 0 0 0 0
577000000 0.4893773431134629 -0.8878670748487651 8.302658031071436e-05 1.4350698717552654e-05 0 0 0 0
586000000 0.4747125470520575 -0.897675265389269 7.354389897870914e-05 -1.0837957473971424e-05 0 0 0 0
595000000 0.45613921950434994 -0.9083901038979585 -4.842762723978123e-05 3.1343581131032315e-05 0 0 0 0
604000000 0.44074602322616346 -0.9163954379554637 1.951042953448093e-05 -1.2254739781129045e-05 0 0 0 0
613000000 0.42376670742340145 -0.9237881240726274 -0.0001121449251605736 8.299694099252499e-05 0 0 0 0
622000000 0.40763847264078534 -0.9338094794246367 1.3831169981876625e-06 4.313944572620224e-05 0 0 0 0
631000000 0.3904896853769232 -0.9403760113716663 1.9696204337363364e-05 -1.2923409943521603e-05 0 0 0 0
640000000 0.37462066235128966 -0.9451569736032469 -4.129708626195643e-05 -7.456697259430335e-06 0 0 0 0
649000000 0.356245209944296 -0.9531355835346504 9.75260257495525e-06 -1.5841357017280112e-05 0 0 0 0
658000000 0.3381788202485673 -0.9611450840109431 -4.0946245518038385e-05 -1.9607631925393476e-05 0 0 0 0
667000000 0.31546224394822037 -0.9652694429999087 -3.010781151562257e-05 8.229889648198736e-05 0 0 0 0
676000000 0.29990455853660236 -0.9729211584920273 -4.530851703416547e-05 5.1144574939465635e-05 0 0 0 0
685000000 0.2785079259300688 -0.9772025591056547 -1.6736495137073873e-05 -3.7610595633381594e-05 0 0 0 0
694000000 0.26291342332624235 -0.981203576479098 9.372205426907059e-06 3.856183550378175e-05 0 0 0 0
703000000 0.23455127854076838 -0.9861347036882135 4.574839402972343e-05 2.551341317212705e-06 0 0 0 0
712000000 0.21866408985809377 -0.9892445301990527 3.946524051351437e-05 7.252088245224264e-05 0 0 0 0
721000000 0.20523317200981417 -0.989936475685524 -2.6169464537081138e-05 7.810424885735624e-05 0 0 0 0
730000000 0.18082884972869348 -0.9922798295624332 1.2551476562909654e-05 5.615813197171855e-05 0 0 0 0
739000000 0.16754815363840722 -0.9912682925229529 1.7191454646043705e-05 1.317184344575331e-05 0 0 0 0
748000000 0.1425181797505145 -0.9945229463298415 2.7810228655185826e-05 -4.003081606492617e-05 0 0 0 0
757000000 0.11332871875860497 -0.9958657510172828 7.491404536213737e-05 -7.036039088781692e-05 0 0 0 0
766000000 0.09539948648273064 -0.994120606139942 0.00013943402848735898 8.778681929007493e-05 0 0 0 0
775000000 0.07438917918412744 -0.9933369053605037 0.00011928717656332148 0.00012324960398099407 0 0 0 0
784000000 0.05535694459600174 -0.9919592585166002 1.597917856489026e-05 4.638908872102492e-05 0 0 0 0
793000000 0.04195129218523923 -0.9867543812398428 8.711044105859066e-05 -4.535015961555977e-05 0 0 0 0
802000000 0.014940536974301104 -0.985972655547177 6.472385162858736e-05 1.8175392608891176e-05 0 0 0 0
811000000 -0.011862103188111492 -0.980184210017558 5.85565971027878e-05 1.777901863536772e-05 0 0 0 0
820000000 -0.023982894199752233 -0.9759742738961159 -3.26599545510073e-06 2.135391221168074e-05 0 0 0 0
829000000 -0.04366887823146332 -0.970319400503069 5.963395072843409e-05 -5.6307926040045564e-05 0 0 0 0
838000000 -0.058438050259850216 -0.966343483814645 3.159250113136753e-05 -2.856451891731263e-05 0 0 0 0
847000000 -0.07338487243181259 -0.961663516123068 -2.0477939805435097e-05 -8.4624272044383e-05 0 0 0 0
856000000 -0.10038425634815315 -0.9525219276842992 5.8937827749805366e-05 -5.343096587920993e-06 0 0 0 0
865000000 -0.10575909505101903 -0.9463958867305077 5.343410119064005e-05 4.080631320582581e-05 0 0 0 0
874000000 -0.12759157375831123 -0.9413928341135668 2.3271323491292186e-05 1.291101351449676e-05 0 0 0 0
883000000 -0.1390446526680578 -0.9354302841011886 4.106900791459756e-05 9.368513242647064e-05 0 0 0 0
892000000 -0.1623854371218478 -0.9254288564840081 6.667269338481251e-06 2.6898009857225488e-05 0 0 0 0
901000000 -0.16878699285553528 -0.9204202667364868 5.4941346348183363e-05 1.666934338299525e-06 0 0 0 0
910000000 -0.18506211528558508 -0.910546348186361 -1.9328778002921424e-05 -1.0647294006812902e-05 0 0 0 0
919000000 -0.18465217394469985 -0.9060827163389684 3.821115576573888e-05 4.6864274709916867e-05 0 0 0 0
928000000 -0.21931984802371024 -0.8942502411542892 2.329918862406222e-05 2.1607639173626697e-05 0 0 0 0
937000000 -0.2294593479862583 -0.8872555817455451 -2.3812395617988522e-05 -1.0161847339356302e-05 0 0 0 0
946000000 -0.2431280721447278 -0.8776631866600576 2.2354891353919958e-05 3.7365056515023624e-05 0 0 0 0
955000000 -0.25592834786601937 -0.8694285404798039 4.5857974311116065e-05 4.875847262448935e-06 0 0 0 0
964000000 -0.26761233421608194 -0.8603153668383411 1.2512691591937149e-05 4.199504882190605e-05 0 0 0 0
973000000 -0.2891324088849671 -0.8508112574489931 -4.5631602297020645e-05 -7.754257441056876e-05 0 0 0 0
982000000 -0.2977669743954616 -0.8427974078516376 -7.151665860374077e-05 -5.6084648614257485e-05 0 0 0 0
991000000 -0.30904643508270957 -0.8344759561552483 -3.152558760020336e-05 -1.1961597573303779e-05 0 0 0 0
1000000000 -0.31416522396912533 -0.827799725416033 7.980855565365592e-05 1.5215790115930586e-05 0 0 0 0
