# HZ S RI R 50
100000000 1.0124996400480606 -0.21982779256080953 1.2982762828674004e-05 2.0294215593733766e-05 0 0 0 0
109000000 1.0076377593872783 -0.23414236192346208 1.921701118630594e-05 1.3072868868902298e-05 0 0 0 0
118000000 1.0026860585354802 -0.24977030779102663 3.902270497225041e-05 -1.4986161573624467e-05 0 0 0 0
127000000 0.9969995833161213 -0.2654617145115334 -3.598457345875407e-05 3.5235112189737817e-05 0 0 0 0
136000000 0.9912790137615966 -0.2806565071586817 -6.650563915043795e-05 5.1489231730080926e-05 0 0 0 0
145000000 0.9832044816569588 -0.2957844836385879 6.285238263969518e-05 5.042721628587877e-06 0 0 0 0
154000000 0.9763473819014412 -0.3103519391706386 -4.7127197060133505e-08 5.661388388294036e-05 0 0 0 0
163000000 0.9704286425061195 -0.32564088887852977 -7.334219689568801e-06 -7.058730303261366e-06 0 0 0 0
172000000 0.964709993236166 -0.3397826026202685 3.2907467898065303e-07 -1.7527141631445375e-05 0 0 0 0
181000000 0.9582649220883547 -0.3552209690828138 -9.638820118932555e-06 -2.822493890459772e-05 0 0 0 0
190000000 0.9517476566281853 -0.369450206330442 3.3533432989921104e-05 7.435350754993758e-06 0 0 0 0
199000000 0.9443248315940307 -0.38353926793095233 -4.3673282031858005e-05 4.440144756639144e-06 0 0 0 0
208000000 0.9361382672027574 -0.39976327776129267 -3.052693970753827e-05 1.5653422178424297e-05 0 0 0 0
217000000 0.9298002655646609 -0.4121369125096524 -7.27439745715277e-07 6.12590056177326e-05 0 0 0 0
226000000 0.9226489442247527 -0.4271668156445812 3.220157949568558e-05 2.9996966771834166e-05 0 0 0 0
235000000 0.913988654172841 -0.4412575040660011 -4.58223760622778e-06 -2.9456999668812228e-05 0 0 0 0
244000000 0.9074637976897919 -0.45479528899359406 1.0607813399766174e-05 -8.309851598842709e-07 0 0 0 0
253000000 0.8980942404791217 -0.4689363244425824 -2.023948237531718e-05 3.6233641525631585e-05 0 0 0 0
262000000 0.8901441879243939 -0.4832794589381459 5.3841940621530794e-05 2.607829999391071e-05 0 0 0 0
271000000 0.882657275788823 -0.4961965865849483 3.3692003184713878e-06 -9.77833176021417e-06 0 0 0 0
280000000 0.873095805702566 -0.5091029277892705 3.5561620137657955e-05 3.999754252182732e-05 0 0 0 0
289000000 0.865018630671389 -0.5240197397399038 5.142774331036615e-05 2.413355718395112e-05 0 0 0 0
298000000 0.8572451730312096 -0.535079094181162 2.43639715298876e-05 -4.331112075979337e-05 0 0 0 0
307000000 0.8450522246942579 -0.5520947251976938 1.6952582191671072e-05 7.094791060043079e-05 0 0 0 0
316000000 0.8381623882230231 -0.5627981874673637 2.9604697811603493e-05 -3.544979167208551e-05 0 0 0 0
325000000 0.8280406493579278 -0.5779098497924138 1.7461601164453376e-05 -1.964712322588573e-05 0 0 0 0
334000000 0.8194557578803456 -0.5880093028437529 6.213112742869904e-05 1.0546309004155166e-05 0 0 0 0
343000000 0.8115291529963299 -0.5990976469080869 -2.3449093782610104e-05 6.32942778363193e-05 0 0 0 0
352000000 0.8004090929285997 -0.6133998564889124 -7.076645336459499e-05 -1.2610059528274941e-05 0 0 0 0
361000000 0.7907260892295966 -0.6247512276908266 6.201942636424199e-06 -1.2198177717013598e-05 0 0 0 0
370000000 0.7780493866299102 -0.6395802901971887 -4.915378371847877e-05 -3.1517760686186495e-05 0 0 0 0
379000000 0.7670448216055576 -0.6524828514418517 -3.923284349184332e-06 9.146671593392511e-06 0 0 0 0
388000000 0.7580686995398881 -0.6619604792076994 -2.7425325317768308e-05 4.8295753065205597e-05 0 0 0 0
397000000 0.7483623598816534 -0.6749994947388781 4.541105087145894e-06 -6.415973074016192e-05 0 0 0 0
406000000 0.7385345333805536 -0.6855362516499962 3.706387552643938e-05 1.1075428687719784e-05 0 0 0 0
415000000 0.724375075950179 -0.7002002898652946 -8.233065736024989e-06 2.4742926488649432e-05 0 0 0 0
424000000 0.7158912622132291 -0.708565746326892 -3.2528762647228495e-05 -3.6705031303433414e-06 0 0 0 0
433000000 0.7056800625414743 -0.7206822407355761 2.816466245520134e-05 1.745078376117191e-05 0 0 0 0
442000000 0.6949558421019989 -0.7307558880263737 -1.3194026317165154e-05 1.979613773095339e-05 0 0 0 0
451000000 0.6816382291814923 -0.7422760579895199 2.183127508707283e-05 -1.0945318383528381e-05 0 0 0 0
460000000 0.6673513131367791 -0.7548179811023076 -4.618349430828128e-05 3.878018338662795e-05 0 0 0 0
469000000 0.6526928488484445 -0.768784516880525 -1.636642586015628e-05 3.456771797409795e-05 0 0 0 0
478000000 0.6426680571095327 -0.7783782518577298 6.978645508765767e-06 4.604679702647083e-05 0 0 0 0
487000000 0.6331907224238699 -0.7867672284279216 5.2367364567219595e-05 -3.3618834595889715e-05 0 0 0 0
496000000 0.6186721194481754 -0.7996508392729432 9.658615357383513e-06 2.2074536285894364e-05 0 0 0 0
505000000 0.6026997668144682 -0.8103812356263346 -3.81144528927774e-05 -7.505102388307957e-05 0 0 0 0
514000000 0.5928516998229828 -0.8186294490369747 9.67145301954911e-06 -3.304812698833077e-05 0 0 0 0
523000000 0.5794172688406583 -0.830249609992135 -1.331734896157375e-05 4.196484775082413e-05 0 0 0 0
532000000 0.5667606393826327 -0.838783892427736 0.00010386714384017714 -2.4052096578770625e-05 0 0 0 0
541000000 0.5504065552112657 -0.8505380040777781 3.0440215099753466e-05 2.7891994075160408e-05 0 0 0 0
550000000 0.5380720484587637 -0.858866434442941 -3.523655374134173e-05 -0.00012477809863473488 0 0 0 0
559000000 0.5183964103594206 -0.8713836294914029 -5.3529995406264605e-05 1.0380430657568387e-06 0 0 0 0
568000000 0.5048337645614811 -0.878817904738803 2.6352673187586802e-05 -1.3990708826649392e-05 0 0 0 0
577000000 0.49063760663702444 -0.8889660276066184 2.3970468947148314e-05 -2.024806846113942e-05 0 0 0 0
586000000 0.47260381814205504 -0.8986444969397034 -5.2939248944239195e-05 4.0345262944997916e-05 0 0 0 0
595000000 0.46523708510764944 -0.902272512072817 1.8881292385680645e-06 -1.7188500752461363e-05 0 0 0 0
604000000 0.44133862372525995 -0.9162085393204926 -2.301303970273567e-06 4.9883734690527325e-05 0 0 0 0
613000000 0.42630984958497786 -0.9250622840693677 -1.328631940566186e-05 2.8499500998070057e-06 0 0 0 0
622000000 0.40880262178748206 -0.9336997741762934 -8.371026892938749e-05 3.2292121532602695e-05 0 0 0 0
631000000 0.3912083774025658 -0.9404803490484249 -3.6601560651361075e-05 -1.868162238043649e-05 0 0 0 0
640000000 0.3756497750823433 -0.9453480788469064 -2.0488685575713788e-05 -2.3907678829962666e-05 0 0 0 0
649000000 0.3540834003223557 -0.9534886748878628 5.739792666452425e-05 6.255246792296855e-05 0 0 0 0
658000000 0.33409067039361623 -0.96029784384301 -6.704185347660918e-05 4.942582880520618e-05 0 0 0 0
667000000 0.3215900158148645 -0.9645716985267588 -1.8466833736861084e-05 2.8626297863083004e-05 0 0 0 0
676000000 0.3003156119686309 -0.9702374230881893 -1.0629917548638637e-06 4.542440450072935e-05 0 0 0 0
685000000 0.27600711182021426 -0.9781860083698166 -4.0484477565802077e-05 6.934548281254931e-05 0 0 0 0
694000000 0.26274731736945106 -0.9816786514036968 -6.601599576059283e-07 -3.556115821183842e-05 0 0 0 0
703000000 0.24321064392416014 -0.9854178286476647 1.703276277633409e-05 5.781955399389233e-06 0 0 0 0
712000000 0.2193165664279891 -0.9867916539032017 -1.1537315993189822e-05 -7.881598159161701e-06 0 0 0 0
721000000 0.2075459324398702 -0.9913122816613866 8.20856347554382e-05 5.7043065481230656e-05 0 0 0 0
730000000 0.1765328143254174 -0.994127096497213 1.869515286096027e-05 7.381999199301022e-05 0 0 0 0
739000000 0.16146237942444913 -0.9962428615507161 2.545029139464369e-05 5.74638870350077e-05 0 0 0 0
748000000 0.13537784610060305 -0.9944576485829293 5.903825120215618e-05 -2.336049594906953e-06 0 0 0 0
757000000 0.11620311990101366 -0.9955447949730061 0.00011611353894279526 5.016761119058667e-05 0 0 0 0
766000000 0.09835006559770788 -0.9936804904165724 9.459098634185926e-05 6.059794976246453e-05 0 0 0 0
775000000 0.08312026117876561 -0.9928772433839566 0.00011838348778606102 -6.512534797403927e-05 0 0 0 0
784000000 0.052652108242516205 -0.9916295666928739 7.876356088468657e-05 -2.0442930035539225e-05 0 0 0 0
793000000 0.04269649326349614 -0.9886822087455113 6.462770421259662e-05 1.3553292052414583e-05 0 0 0 0
802000000 0.012592639781150317 -0.9855557669318898 4.608221527788543e-05 -6.817667304587727e-05 0 0 0 0
811000000 -0.008783451637869108 -0.9819438629739584 5.3106139922974773e-05 1.7282303527086364e-05 0 0 0 0
820000000 -0.015230653111891831 -0.9778167054954793 5.645446959748191e-05 2.1539797911908205e-06 0 0 0 0
829000000 -0.035416479552994914 -0.9712417147096059 -7.499355576528548e-05 5.3078025727014556e-05 0 0 0 0
838000000 -0.05692062055049152 -0.9657212435388789 -4.574427301323415e-06 -2.4029347855076585e-05 0 0 0 0
847000000 -0.07606002039223152 -0.9594846205408739 -3.566924060685392e-05 -9.218626200410579e-05 0 0 0 0
856000000 -0.08946092707786185 -0.9551892235698 1.529616745405115e-05 1.0083058289161676e-05 0 0 0 0
865000000 -0.11429912861583374 -0.9461534022454332 -7.299706669221575e-06 -2.920875213777191e-05 0 0 0 0
874000000 -0.12914373855244907 -0.9404604567079162 -3.755073288343159e-05 -4.315351965675778e-05 0 0 0 0
883000000 -0.13989767839612968 -0.9365020356578313 4.410728914428104e-05 -1.6036318041081593e-05 0 0 0 0
892000000 -0.16046598531932998 -0.924888774145651 -4.682255666745319e-05 7.144655673365829e-05 0 0 0 0
901000000 -0.17751693593871662 -0.9190807977462905 -8.219236252729081e-06 -2.6034256698055033e-05 0 0 0 0
910000000 -0.18965307345996943 -0.9109577114610367 -2.908350586157485e-06 -9.0048211373679e-06 0 0 0 0
919000000 -0.21215112058554259 -0.8990132904979402 -4.498864634533562e-05 1.406633088068709e-05 0 0 0 0
928000000 -0.21952038090253312 -0.8935438010109873 4.6592008911329096e-05 1.4819766156286942e-05 0 0 0 0
937000000 -0.2318082513903519 -0.8849016128038418 1.743630756801687e-05 -2.6045353451491005e-05 0 0 0 0
946000000 -0.24499990232166335 -0.878070878152993 6.931694241263183e-06 9.019350945552633e-05 0 0 0 0
955000000 -0.2560613759902228 -0.8702686755211914 -4.569210809759499e-05 -1.0452573551995324e-05 0 0 0 0
964000000 -0.2707498055203208 -0.8621823963102904 -1.1586838999199405e-05 7.866841991863732e-06 0 0 0 0
973000000 -0.2819051362251202 -0.8513364335301375 -0.00010354535151998783 4.766071089880587e-05 0 0 0 0
982000000 -0.2935936184902051 -0.8458191436253742 -1.9694253378910977e-05 3.25647304845287e-05 0 0 0 0
991000000 -0.31046736403535125 -0.8332723221870132 -6.456047911489907e-06 6.533451688152259e-05 0 0 0 0
1000000000 -0.31459621771925983 -0.8292221948757641 -7.947348189218455e-06 -1.3207030868782994e-05 0 0 0 0
