# HZ S RI R 50
100000000 1.0128028110350422 -0.21942483022792317 5.321715280807257e-05 -4.079780503731588e-05 0 0 0 0
109000000 1.0078411483540375 -0.23495474114541692 4.004435686801379e-05 3.7477395389348914e-05 0 0 0 0
118000000 1.0027011325640707 -0.24929912889474704 3.38855651427307e-05 1.6180595378806106e-05 0 0 0 0
127000000 0.9971444107730169 -0.2650709087219698 -1.922004700560139e-05 -5.1414976063560765e-05 0 0 0 0
136000000 0.991666659544342 -0.2799182495343316 2.769426044083259e-05 8.020309678238698e-06 0 0 0 0
145000000 0.9826893792954938 -0.29644585155993436 -4.1677885307653095e-05 1.7087378528308278e-05 0 0 0 0
154000000 0.9767861908267957 -0.3114133586577802 6.523505700036018e-05 -4.8984203772602826e-05 0 0 0 0
163000000 0.9708141857478925 -0.32582748291034674 -3.164614027867762e-05 -1.7432069620655685e-05 0 0 0 0
172000000 0.9648312033326775 -0.34051315890352823 -1.646829691125696e-05 -2.437981217702741e-05 0 0 0 0
181000000 0.9579923138474392 -0.3537643768657306 -7.870632424906695e-06 3.173342409712944e-05 0 0 0 0
190000000 0.9517297075631682 -0.36947412707185856 4.842890938380865e-06 -9.618992051164966e-06 0 0 0 0
199000000 0.9438567903395163 -0.3848375282319036 2.2744765327257343e-05 -1.3979027889894768e-05 0 0 0 0
208000000 0.9359940524254252 -0.3983920288183562 -5.9490988074610535e-06 -3.9428352874134355e-06 0 0 0 0
217000000 0.9285288834466549 -0.41433503612046785 2.0465017256922794e-05 6.806314708558063e-05 0 0 0 0
226000000 0.922202715404936 -0.4266557467672437 1.3322087664718372e-05 -4.3508906318240994e-05 0 0 0 0
235000000 0.914779406736036 -0.4408528538556433 3.092369198085319e-05 -2.689827897157251e-05 0 0 0 0
244000000 0.9063383242097761 -0.4558765693205743 5.000235777324796e-05 -1.3062312673907644e-05 0 0 0 0
253000000 0.8982404708589199 -0.46944535671522264 -6.4164206744384e-06 2.1728984699189805e-05 0 0 0 0
262000000 0.8911476558263068 -0.4815194439619884 -2.6381377197783194e-06 -8.215398876385187e-06 0 0 0 0
271000000 0.8820845375710241 -0.496030463296381 1.602932192917865e-05 2.3919411877166294e-05 0 0 0 0
280000000 0.8737784104799888 -0.5097752839163363 3.884807137967079e-06 -2.6718378688061697e-07 0 0 0 0
289000000 0.8648051410545973 -0.5229589425699274 5.405145125278894e-06 -3.677911465468587e-05 0 0 0 0
298000000 0.8551520927211258 -0.5368188868966887 -1.4193592516777246e-05 2.6555111669293874e-05 0 0 0 0
307000000 0.8475395386327148 -0.5497487164729311 2.3948929114045637e-05 -4.159148615908078e-05 0 0 0 0
316000000 0.839548342738571 -0.5608530094871541 -2.499805007670073e-05 -8.042932557047641e-06 0 0 0 0
325000000 0.8306521032512673 -0.5731446377423711 -5.0712214180556576e-05 4.830246455042522e-05 0 0 0 0
334000000 0.8201433477179784 -0.5875028090308327 1.827747702542545e-06 1.4965335161773896e-05 0 0 0 0
343000000 0.8109664818677434 -0.6005625333220692 -3.599990652018932e-05 3.050888545483285e-06 0 0 0 0
352000000 0.8012550851740439 -0.6125345124957107 6.259131524239806e-05 -8.298136560651912e-06 0 0 0 0
361000000 0.7898892800948927 -0.6260901760026459 -4.35223778373535e-05 -3.1057563058317694e-05 0 0 0 0
370000000 0.7804134380433517 -0.638269852588656 -5.585366787190366e-05 -3.5257468388910365e-05 0 0 0 0
379000000 0.7702804637337155 -0.65049537707988 -3.6080098822332824e-05 6.126788975036182e-05 0 0 0 0
388000000 0.7591735383764784 -0.6616143864469435 -1.2920743795888685e-05 9.241328942010957e-08 0 0 0 0
397000000 0.7483340633614222 -0.6744695719330004 -5.339452460721065e-05 -1.5690360686663954e-05 0 0 0 0
406000000 0.736554525560033 -0.6872633433065153 3.748990230034484e-05 2.600206875273872e-05 0 0 0 0
415000000 0.7284546125328188 -0.6963060816665287 -1.9195249843319196e-06 1.133353739937937e-05 0 0 0 0
424000000 0.7148606375218169 -0.7106023531835197 -7.977517949804285e-05 -2.4796149591541033e-05 0 0 0 0
433000000 0.7049553308354318 -0.7191957258060285 4.3641862169888865e-05 -1.5589251145050783e-05 0 0 0 0
442000000 0.6943071607765209 -0.7308553192024027 -5.189158194736443e-05 -6.779200712372811e-05 0 0 0 0
451000000 0.6793689413747426 -0.7449257716275093 4.324831509784269e-06 3.112126463486552e-05 0 0 0 0
460000000 0.673021783024338 -0.7509018313930609 -3.1042764286910448e-06 -1.3844239730985925e-05 0 0 0 0
469000000 0.6566330340831839 -0.7668008561107408 2.02837193358092e-05 5.244644266144856e-05 0 0 0 0
478000000 0.6454380951789669 -0.7756242341934538 4.5866581465575536e-05 -6.924442147046846e-05 0 0 0 0
487000000 0.6326742440629176 -0.7863597841689695 4.41775465728491e-06 -5.7529865746180524e-06 0 0 0 0
496000000 0.6214526364805953 -0.7969206703128262 3.5208704077881954e-05 -2.0127254948986614e-05 0 0 0 0
505000000 0.6048134326830668 -0.8085695253579454 -6.166101911925957e-06 -4.947317082267799e-07 0 0 0 0
514000000 0.5900629253464801 -0.8214416004143954 3.954447376388687e-05 3.959759905598398e-05 0 0 0 0
523000000 0.5773572268677482 -0.8314102419382898 5.840481302296413e-05 -2.180980719057043e-06 0 0 0 0
532000000 0.5626505005965295 -0.8418572660669659 1.167085970052478e-05 -3.9802574914139295e-05 0 0 0 0
541000000 0.5527808476219587 -0.8491507868292516 1.3819448643559679e-06 -5.4039678371122224e-05 0 0 0 0
550000000 0.5375086395565387 -0.8590081297628231 1.3907322557445385e-05 -2.0971729208324515e-05 0 0 0 0
559000000 0.520620623275816 -0.8704635659669727 -4.31846076048947e-05 7.017875733831214e-06 0 0 0 0
568000000 0.5130408298357124 -0.8773451620111385 4.204377802526266e-05 0.00011198961416310655 0 0 0 0
577000000 0.4899458170835961 -0.888845269089225 1.338581643106356e-05 1.1477690696862135e-05 0 0 0 0
586000000 0.47890004518135015 -0.8959815346376622 1.1424095744535553e-05 -8.502047355892488e-05 0 0 0 0
595000000 0.45836978236236525 -0.9075641941040666 -8.413746203672645e-06 1.253947143979627e-05 0 0 0 0
604000000 0.44195661647145096 -0.9160253983021923 -1.9710932297896577e-05 4.0022703009971245e-05 0 0 0 0
613000000 0.42753785899887914 -0.9219811181256151 -2.7807751345510053e-05 -8.552081721566734e-06 0 0 0 0
622000000 0.4099720547886174 -0.9317824220644442 1.4493182435212463e-05 3.195791087092884e-05 0 0 0 0
631000000 0.3936108627379226 -0.9370307484607373 -1.2373734357729204e-06 2.0462777377248313e-06 0 0 0 0
640000000 0.372484564171234 -0.9483495846867063 -8.31012208913678e-06 -4.028238675424191e-05 0 0 0 0
649000000 0.3575965610084296 -0.9532096121579776 -2.983339042328006e-05 -9.762270563956767e-06 0 0 0 0
658000000 0.3357876335898817 -0.9595711730199766 -4.9343874575474804e-05 -6.701750600515503e-05 0 0 0 0
667000000 0.31854679515958817 -0.9675384984767499 -3.037195070580413e-05 -1.1714121275685179e-07 0 0 0 0
676000000 0.2971521501225001 -0.9739420714312608 -2.1557677072979192e-05 -3.528051508206633e-05 0 0 0 0
685000000 0.27975492116572925 -0.9772567648827866 5.481936060363734e-05 -2.250803405056471e-05 0 0 0 0
694000000 0.2630818194768121 -0.9809210889943706 3.740654842559458e-05 7.405794790518002e-05 0 0 0 0
703000000 0.24168119279246533 -0.984635342717487 -3.2711423750417845e-05 5.526426756458588e-05 0 0 0 0
712000000 0.22561697500919034 -0.9861776211475364 6.337308799091102e-05 1.5584866348886373e-05 0 0 0 0
721000000 0.19900726581584033 -0.9925162973849656 -5.5039252645964316e-05 -7.920854516371928e-06 0 0 0 0
730000000 0.1730183811724549 -0.9946254346412094 9.94518341241354e-05 -6.387216912912336e-05 0 0 0 0
739000000 0.16423665307468888 -0.9934323323626627 4.317141424186638e-05 4.2880988328412855e-06 0 0 0 0
748000000 0.14003430160299402 -0.9953574127093905 0.0001031246445458691 3.315873245507451e-05 0 0 0 0
757000000 0.11531113599304842 -0.9947250175711551 1.5519913315161162e-05 -1.2549379718927836e-05 0 0 0 0
766000000 0.10266511644468625 -0.9933494046982397 8.597347526089178e-05 -0.00010757465126069423 0 0 0 0
775000000 0.08323419640763623 -0.9949976073404881 5.471068048286502e-05 6.37955409465625e-05 0 0 0 0
784000000 0.05270805660498622 -0.9918087865335994 1.3494363724844243e-05 8.395000116861805e-05 0 0 0 0
793000000 0.03560651480092403 -0.9878786071503868 3.1465095535278816e-05 -1.650251457593081e-05 0 0 0 0
802000000 0.01627327172030669 -0.9838619943351452 9.573887751535191e-05 4.466388978591998e-06 0 0 0 0
811000000 -0.002730364749697646 -0.9802818610762074 4.9003229966566316e-05 -2.68324557193963e-06 0 0 0 0
820000000 -0.01750099441175925 -0.9756796877315669 0.00010908455567141927 -2.372366274724721e-05 0 0 0 0
829000000 -0.035421297307951065 -0.972913126646714 5.920384947853588e-05 1.019771171005924e-05 0 0 0 0
838000000 -0.05593268377796869 -0.9653780356226611 3.0622263754818576e-05 -9.340864205166648e-05 0 0 0 0
847000000 -0.07877625790841115 -0.9602917144944678 5.0723549476657935e-05 -4.451331440636285e-05 0 0 0 0
856000000 -0.09475687356942224 -0.9553977366158627 3.962181021385003e-05 -8.887897026598213e-05 0 0 0 0
865000000 -0.11016727570759158 -0.9481515536933273 3.1570907635803576e-05 5.4193296415495455e-05 0 0 0 0
874000000 -0.12708564933503308 -0.9414786265717411 5.3535524091180144e-05 4.3712577471288606e-05 0 0 0 0
883000000 -0.14552519375948414 -0.9319704222559717 1.5849842512733417e-05 4.0869476213700795e-05 0 0 0 0
892000000 -0.16540848523661553 -0.9248486312730969 1.7246493501981936e-05 -3.644556272458488e-05 0 0 0 0
901000000 -0.17175618778068547 -0.9167094421572171 -3.646440904427171e-05 -5.3005139823458264e-05 0 0 0 0
910000000 -0.2037458239755945 -0.9054825490430544 3.561332070219473e-05 -9.222091414527622e-06 0 0 0 0
919000000 -0.20201919566018817 -0.9033269679576382 -3.0491943528950155e-06 8.463582340016014e-06 0 0 0 0
928000000 -0.21806384418030875 -0.8935944897171705 -3.251894233905187e-06 5.4986271747067596e-05 0 0 0 0
937000000 -0.22969748759207947 -0.8871667836415572 6.818699978767984e-05 2.5321012760111276e-05 0 0 0 0
946000000 -0.24447362818199603 -0.878226120863777 1.235135990417361e-06 -3.4386861663897717e-05 0 0 0 0
955000000 -0.2586223341880383 -0.8677875878691594 4.9623600704658415e-05 1.2702395846756384e-05 0 0 0 0
964000000 -0.27252916108907027 -0.8606219968735832 1.600448332282003e-05 -1.9394119593490582e-05 0 0 0 0
973000000 -0.2853135049663054 -0.8516631647043512 6.150862833904015e-05 3.180627589965371e-05 0 0 0 0
982000000 -0.2995580384876079 -0.8420623445114053 4.128510690723237e-05 1.7189868237503326e-06 0 0 0 0
991000000 -0.2997332373343305 -0.8364874348445172 6.710682844637494e-05 5.104507990908495e-05 0 0 0 0
1000000000 -0.32357842897022476 -0.824154209275915 7.124100495495571e-05 2.4967849855973382e-05 0 0 0 0
