# HZ S RI R 50
100000000 1.0126469420425694 -0.21925282318235542 1.6019390459656815e-05 -2.116346243008924e-05 0 0 0 0
109000000 1.0077090858228062 -0.2356845524087531 -1.5701165435689007e-05 -1.803227499892271e-05 0 0 0 0
118000000 1.0025369166106954 -0.24981887549983567 -3.7970669271668824e-05 2.857132877887448e-05 0 0 0 0
127000000 0.9972825110971348 -0.26498966015013925 -3.089330428549145e-05 5.425089731659678e-05 0 0 0 0
136000000 0.9911750069876086 -0.2801448065045555 3.466047930882304e-05 -1.4901755663883755e-05 0 0 0 0
145000000 0.9826628102055817 -0.2955910483581846 3.246422534479662e-05 -4.887298096600883e-05 0 0 0 0
154000000 0.9773837499276277 -0.3107849036212036 -2.562580014769862e-05 8.163090904156388e-06 0 0 0 0
163000000 0.97035252661239 -0.3269514656211215 2.3755819430152966e-05 -3.150806144906694e-05 0 0 0 0
172000000 0.9642600914838476 -0.3394623208525376 -6.1084656288609e-05 -4.343400052842728e-06 0 0 0 0
181000000 0.9582197352232573 -0.3544569945561345 3.367181066667352e-05 3.4092159228965745e-05 0 0 0 0
190000000 0.9502642068925349 -0.3706983689100812 6.645886707939957e-06 9.492943210068716e-07 0 0 0 0
199000000 0.9439051774257458 -0.3849294854091308 5.616450488682893e-05 2.494213788368763e-07 0 0 0 0
208000000 0.9370589253151966 -0.39735627331605433 3.0108105207558954e-07 -1.134608979454371e-05 0 0 0 0
217000000 0.9292040474161885 -0.4140648248172977 6.867611273002774e-05 6.792202541693103e-05 0 0 0 0
226000000 0.9214169387506685 -0.42810136895052125 6.485171646819e-06 4.6413704277337943e-05 0 0 0 0
235000000 0.9149294074272665 -0.4403110004804068 -1.705550185420421e-05 1.6133926130309045e-05 0 0 0 0
244000000 0.9069631164835406 -0.45437787463559676 2.9560366339677708e-05 -4.0965526141996966e-05 0 0 0 0
253000000 0.8990164477144326 -0.4689854293969437 -2.0835748542637677e-05 2.448318095715896e-06 0 0 0 0
262000000 0.8905411149789959 -0.48286649930483866 -8.147569112463615e-06 -2.6014497926523972e-05 0 0 0 0
271000000 0.882919314008707 -0.49605414925647345 -8.078989059349922e-05 -3.0128972577554042e-05 0 0 0 0
280000000 0.8733053300785267 -0.5096125098677173 6.878726938094862e-06 5.42478459617873e-06 0 0 0 0
289000000 0.8668117514803908 -0.5214396972522252 -2.3026791980281686e-05 4.205672742324021e-06 0 0 0 0
298000000 0.8574189504357113 -0.5355919920298423 -2.5604487011258745e-05 -2.0148823131176532e-05 0 0 0 0
307000000 0.8486048643586412 -0.5492897133989598 8.615005599983191e-05 1.1885253494701794e-05 0 0 0 0
316000000 0.8393326115494745 -0.5606461760405207 3.489267709646768e-05 4.359087780383895e-05 0 0 0 0
325000000 0.8295685781442625 -0.5759577502872307 6.299099799578175e-05 -5.127109543493079e-06 0 0 0 0
334000000 0.820563491170603 -0.5861858297436013 1.764533232361029e-05 -4.92000300972174e-05 0 0 0 0
343000000 0.8101802718080621 -0.5987896745352033 6.740586878000648e-05 1.751030466691195e-05 0 0 0 0
352000000 0.7999555564280535 -0.6119740829458684 -1.2764090945319765e-05 2.3681412845587566e-05 0 0 0 0
361000000 0.791891954496811 -0.6260933580629032 2.0101661681589948e-05 -1.7748053556524127e-06 0 0 0 0
370000000 0.7801405167351827 -0.6363460176739382 3.390554868820305e-05 -1.7914774504413438e-05 0 0 0 0
379000000 0.7714815727744692 -0.6506305139212056 -2.091435136069624e-05 -7.365060555864762e-05 0 0 0 0
388000000 0.7605191026009315 -0.6607813876166532 5.166144152830086e-05 -2.513028798278518e-05 0 0 0 0
397000000 0.7509620138719075 -0.6729697240294075 4.459066815903543e-05 1.3817323784731352e-05 0 0 0 0
406000000 0.7379379199980831 -0.6862527543950271 -3.392153176432193e-05 1.4920554444549198e-05 0 0 0 0
415000000 0.7290738861695802 -0.6959493217837238 -3.487703494500077e-05 2.0898014604763398e-05 0 0 0 0
424000000 0.716746449627943 -0.7087323694678531 -8.897404824925293e-05 -3.4938090223647635e-06 0 0 0 0
433000000 0.7033129813023883 -0.7229845515613795 5.7652781311693685e-06 -2.2115458318085846e-05 0 0 0 0
442000000 0.6955706726288763 -0.7296026267536039 -1.253253051128288e-05 3.741109170127054e-05 0 0 0 0
451000000 0.6795424300371673 -0.7437719781563952 2.0032279473420315e-05 -1.1633609608208328e-05 0 0 0 0
460000000 0.6703336952730202 -0.7529057436374963 -2.537222558962123e-05 4.9725612769684185e-05 0 0 0 0
469000000 0.6585011755758681 -0.7640145737089664 -4.436334361811822e-05 2.7136406397674416e-05 0 0 0 0
478000000 0.647685711082431 -0.7740681183378957 2.4385495072747843e-05 4.595324108118437e-05 0 0 0 0
487000000 0.6331752662099954 -0.786641203073462 -4.9680803870735865e-05 -2.3724538414295324e-05 0 0 0 0
496000000 0.6197655340138786 -0.7978642560483411 5.62749843739427e-05 3.092288021472924e-05 0 0 0 0
505000000 0.6087176737346276 -0.8063951095543248 2.671306858815036e-05 2.5615026339782275e-05 0 0 0 0
514000000 0.593503265512426 -0.8178353311716459 -9.924819706510661e-06 -2.4294088687617808e-05 0 0 0 0
523000000 0.5772919825221406 -0.8302840844730834 -7.884694994324764e-05 -2.8979264950916392e-05 0 0 0 0
532000000 0.5646099327416297 -0.8399044727749969 5.630443063708525e-05 4.1214336995830156e-05 0 0 0 0
541000000 0.5533786912344756 -0.8484408622374136 2.7982159117844193e-05 -4.711442837076688e-05 0 0 0 0
550000000 0.532842044482507 -0.8626442926752504 5.408706389986312e-05 -5.341147432661302e-05 0 0 0 0
559000000 0.5214667061559884 -0.870045756633901 4.4288249503963016e-05 6.449048463716504e-06 0 0 0 0
568000000 0.5098063159450998 -0.8786193724262407 -1.854356782322829e-05 -3.776382667051032e-05 0 0 0 0
577000000 0.4873108229161115 -0.8889316163939536 -4.9439210203204126e-05 1.4846979697323365e-06 0 0 0 0
586000000 0.47436028558003346 -0.8982825237446518 -2.909924638112529e-05 -9.51481095925404e-06 0 0 0 0
595000000 0.46006753839022724 -0.9069647037401171 -5.492034293406079e-05 3.934099921827706e-05 0 0 0 0
604000000 0.4429146617968741 -0.9168206069907009 -4.7507719407029185e-05 -2.117777097133271e-05 0 0 0 0
613000000 0.4304808376827026 -0.9203585437832382 2.2339633642069767e-05 -2.0004780768019096e-05 0 0 0 0
622000000 0.4077569222053716 -0.9324875046882664 3.219383398104291e-05 -1.969378824348595e-05 0 0 0 0
631000000 0.39253191069997095 -0.9391786092526173 -8.798120087418268e-06 5.932298851609075e-05 0 0 0 0
640000000 0.3754162542310933 -0.9447442177611461 5.509687430022773e-05 5.2539936787117916e-05 0 0 0 0
649000000 0.35601701563299193 -0.952668929133637 -3.814214083375555e-05 9.83543552733828e-06 0 0 0 0
658000000 0.33604908765100605 -0.9593547281963682 -1.9959852847095777e-05 1.9355017696191572e-05 0 0 0 0
667000000 0.32664738211209216 -0.9631538337594165 -2.3626035091174894e-06 -6.0463778123909545e-05 0 0 0 0
676000000 0.2977132623133483 -0.972362683243879 -1.8708324797030703e-05 -3.391295129311693e-05 0 0 0 0
685000000 0.2765749168036983 -0.9763099779638438 3.708519021195136e-05 7.187293898028192e-05 0 0 0 0
694000000 0.25411528875233386 -0.9818058979000218 7.496027295386048e-05 -5.6556329911831685e-05 0 0 0 0
703000000 0.23717338213710978 -0.9863321848873887 -1.3185583760242145e-05 6.898419089177453e-05 0 0 0 0
712000000 0.22178365949811482 -0.985754761519829 4.1630970052351264e-05 6.671901370549866e-05 0 0 0 0
721000000 0.20398969376720308 -0.9914695666561624 -4.8998411042832286e-05 0.00013035534956345733 0 0 0 0
730000000 0.17818195542879486 -0.9939229307532147 5.638022127194108e-05 8.410020681171178e-05 0 0 0 0
739000000 0.16363321940280215 -0.9953660270730135 -4.002279794053521e-05 2.264677277035576e-05 0 0 0 0
748000000 0.14124294361429582 -0.9950924575105243 1.8161814686762433e-05 2.355109562472785e-05 0 0 0 0
757000000 0.11851018870588463 -0.9936365527737554 -1.6418241112102833e-06 4.755768375485395e-05 0 0 0 0
766000000 0.09585638884947704 -0.9939486946331952 -3.0478037844544747e-05 1.4384365995252419e-05 0 0 0 0
775000000 0.08138396382432649 -0.9916043903995237 4.0122934054537336e-05 6.639601125255133e-05 0 0 0 0
784000000 0.0679568504485392 -0.9900483952753022 0.00011241377585716622 2.7551555222045183e-05 0 0 0 0
793000000 0.04061213660797315 -0.9888015117507981 3.8886479498656e-05 6.33096075462891e-05 0 0 0 0
802000000 0.0184073753055331 -0.9851786896815002 0.00012477824320557913 -2.8777660810402324e-05 0 0 0 0
811000000 0.0029781090457741567 -0.9836390488202307 9.217571051177035e-05 -4.066746046095069e-05 0 0 0 0
820000000 -0.025180646767543734 -0.9766759350623977 5.084284319692445e-05 1.0124291033430301e-05 0 0 0 0
829000000 -0.03737549122498543 -0.9729637663275725 -6.237235656020029e-06 -3.796209216555897e-05 0 0 0 0
838000000 -0.05135561355291508 -0.9660085085526011 1.60590286666126e-05 2.1012927214161124e-05 0 0 0 0
847000000 -0.07665200229156424 -0.9623016672330386 4.679213453540204e-05 -1.4458090895164823e-05 0 0 0 0
856000000 -0.09301190588977346 -0.9538615096603891 2.5003703536387203e-05 -1.204584633135621e-05 0 0 0 0
865000000 -0.11211960601769325 -0.9485636011838947 -2.276830260507636e-05 -3.9577883780379944e-05 0 0 0 0
874000000 -0.12541655888248204 -0.9422547296969748 6.080251928152024e-05 -4.347708937402171e-05 0 0 0 0
883000000 -0.14047962528524435 -0.9331989691630457 3.818981380242711e-05 3.6945689184899335e-05 0 0 0 0
892000000 -0.15680174840368066 -0.9268538466588527 2.7320245018283582e-05 -6.393179469232331e-05 0 0 0 0
901000000 -0.17405725612590892 -0.9187210011650165 -5.06956105251316e-05 4.653684404247362e-05 0 0 0 0
910000000 -0.1880922780041416 -0.9086657300895018 8.460400739410358e-06 7.732348621396223e-05 0 0 0 0
919000000 -0.20186002876716588 -0.9035515141404735 2.5631151730888784e-05 -4.305246325209887e-05 0 0 0 0
928000000 -0.2180648096530037 -0.893557712757967 -3.327110507458144e-05 2.055629880139181e-05 0 0 0 0
937000000 -0.22850917723929987 -0.8859066140206454 -2.1909090105218727e-05 -9.75124115867062e-05 0 0 0 0
946000000 -0.24179321749942287 -0.8774136236134958 -1.3248498747379968e-05 4.816836809738508e-05 0 0 0 0
955000000 -0.2541899524840599 -0.8697828547960347 -7.241771009588869e-05 -1.2231714455991944e-05 0 0 0 0
964000000 -0.2745382836563581 -0.8592911954204885 -3.511530013796598e-05 5.83882802776611e-05 0 0 0 0
973000000 -0.2825095647481322 -0.8541179596649775 3.0315138304469494e-05 4.5152219781109386e-05 0 0 0 0
982000000 -0.29304320301182957 -0.8446837183814543 2.7965750101285732e-05 7.695952883890307e-05 0 0 0 0
991000000 -0.3056270727693745 -0.8346854654438961 8.377461569645812e-05 -5.113241463555739e-06 0 0 0 0
1000000000 -0.3180295557326145 -0.8274231702541646 1.2446668262945168e-06 5.067550951041989e-06 0 0 0 0
