# HZ S RI R 50
100000000 1.0127050626706617 -0.21938510976487455 -2.1053814304150917e-05 1.9605951568088586e-06 0 0 0 0
109000000 1.007919061460462 -0.23393260200792684 -2.654219172380697e-05 6.45942137008585e-05 0 0 0 0
118000000 1.0020574426232793 -0.24977556766180226 -5.091866799791671e-05 2.6123963050986912e-05 0 0 0 0
127000000 0.9968228849672621 -0.2661156335797214 1.0380965483188068e-05 -4.1152201652792936e-05 0 0 0 0
136000000 0.991099145058371 -0.2799760476515786 -4.1148341621100264e-05 -4.0770265238734565e-05 0 0 0 0
145000000 0.9829292008175707 -0.29639883150633545 9.17821544460754e-06 -2.162228576358101e-05 0 0 0 0
154000000 0.976226115159392 -0.31158238730784704 -1.224194031698832e-05 -2.1760185716610383e-05 0 0 0 0
163000000 0.9705320519572811 -0.32667082008061255 -2.851693851202777e-05 2.4745524257327042e-05 0 0 0 0
172000000 0.9647242586067442 -0.34085750836592593 1.6395608248090822e-05 -6.111268856803624e-06 0 0 0 0
181000000 0.9577237101930217 -0.3548289124928949 -3.816379046711714e-05 -1.639987030861966e-05 0 0 0 0
190000000 0.9504482864476511 -0.3703073054986112 1.8081357854226115e-05 -1.7250008683207784e-05 0 0 0 0
199000000 0.9435870974275771 -0.3852447281189791 -1.355131695345267e-06 3.8043529257588977e-06 0 0 0 0
208000000 0.936718076444225 -0.39869407121520395 9.68694563553871e-06 5.259462377790439e-06 0 0 0 0
217000000 0.9297687471592023 -0.4126187254365109 -1.3122349550798277e-05 2.232410724389177e-05 0 0 0 0
226000000 0.9214094308436803 -0.42854824329005825 -6.84774441327964e-06 -1.856527264916167e-06 0 0 0 0
235000000 0.9149495403052232 -0.4404416983221426 4.643083633635423e-06 -1.0287161859571406e-06 0 0 0 0
244000000 0.90669868519264 -0.45642418834133675 -5.202467568916549e-07 1.5098881632336141e-05 0 0 0 0
253000000 0.8982577122032239 -0.4690502818528552 2.537642596165043e-05 -3.353981128140344e-06 0 0 0 0
262000000 0.8906927222007461 -0.48283887766984424 -7.566885190185106e-06 2.4290293750456322e-05 0 0 0 0
271000000 0.8824063899296064 -0.4959123970998027 -1.637359887065573e-05 3.186950146855325e-05 0 0 0 0
280000000 0.8735241165229608 -0.5104336519018403 -2.4124128455053985e-05 1.2602963865155986e-05 0 0 0 0
289000000 0.8650016850671816 -0.5236569680448403 1.570377101207817e-05 -2.775927737143961e-06 0 0 0 0
298000000 0.8566245305445491 -0.5362070531422743 -1.3226646116533913e-05 2.9472120324956167e-05 0 0 0 0
307000000 0.8460126142986802 -0.5516523530659093 -4.589524246428629e-05 9.438956476137118e-06 0 0 0 0
316000000 0.8388623542259092 -0.5629583203768895 1.0529431864014781e-05 4.418449699570292e-06 0 0 0 0
325000000 0.8302686480961005 -0.5754591131957465 -3.4567815481944995e-05 -2.5348788120245757e-05 0 0 0 0
334000000 0.8191562589591022 -0.589070596334926 5.489564331602723e-06 2.528946781291524e-05 0 0 0 0
343000000 0.8114424125409756 -0.5991191032150995 -3.3880733218038044e-05 -3.538315484996644e-05 0 0 0 0
352000000 0.7992406416799994 -0.6142964877466178 -3.9299904237916475e-05 -3.220179229606903e-05 0 0 0 0
361000000 0.7895605564697269 -0.6263158548379623 4.997793717040017e-05 8.661248640856884e-07 0 0 0 0
370000000 0.7783824046368943 -0.6398654667726407 1.2508116291558566e-05 -1.1700577183457209e-05 0 0 0 0
379000000 0.7699234545492704 -0.6498219624690265 -2.6804419114407503e-05 -1.0715243775535177e-05 0 0 0 0
388000000 0.7625333886042927 -0.6596179763793252 -4.1446564462377995e-06 4.324734855378319e-06 0 0 0 0
397000000 0.7500247581138261 -0.6738772846233179 -2.8714364898052982e-06 -7.579251734360046e-06 0 0 0 0
406000000 0.7389478075273244 -0.6850617599567816 -2.5000869267789227e-05 -5.893221648825965e-07 0 0 0 0
415000000 0.7280471996389788 -0.6960477656151542 -2.4963633869623112e-05 -2.7882092495419647e-05 0 0 0 0
424000000 0.7133960003612818 -0.7124428072649579 -1.6707930879672927e-05 -2.467384516650652e-05 0 0 0 0
433000000 0.700774119464494 -0.7245366413480229 -5.098279622436046e-05 -8.748954479519695e-06 0 0 0 0
442000000 0.6946141178203218 -0.7306793208585167 3.364910207304651e-06 -2.811005174355842e-05 0 0 0 0
451000000 0.681077558529731 -0.7427486132569159 1.5733968693321114e-05 -4.970166626344639e-07 0 0 0 0
460000000 0.6671209931758012 -0.7572767396372372 2.925385533480096e-06 3.125407653910556e-05 0 0 0 0
469000000 0.6569743494440669 -0.7651842290068344 2.4047912128049833e-05 -2.3110856700553634e-06 0 0 0 0
478000000 0.6456166558592471 -0.7757316290141199 -3.5170870035748158e-06 -2.7725583321678307e-05 0 0 0 0
487000000 0.6326149555881488 -0.7872027160172794 -1.8992722612647657e-05 2.022482846887586e-05 0 0 0 0
496000000 0.6202343453111702 -0.7977195967681131 3.744310585776489e-05 -1.9359763995956304e-05 0 0 0 0
505000000 0.609725300072406 -0.8067526510834085 -2.8206470003122658e-05 -7.328183718140508e-06 0 0 0 0
514000000 0.593729189386233 -0.8187051610603349 -1.2620351510926132e-06 2.452537923921843e-05 0 0 0 0
523000000 0.5775127022805397 -0.8309908909980894 2.3382299983946623e-05 -5.142441822658229e-06 0 0 0 0
532000000 0.5659267589285522 -0.8381905191807757 -9.686990455800463e-06 -4.0473193367651735e-05 0 0 0 0
541000000 0.5498872134941566 -0.8509351199056904 -6.322859005997337e-06 -4.621778121612947e-05 0 0 0 0
550000000 0.5390674401504216 -0.8582073875609231 -2.142358509155765e-05 6.0769390905631195e-05 0 0 0 0
559000000 0.5233267412954974 -0.8680629625338396 5.880876947313199e-05 -3.39862888232392e-05 0 0 0 0
568000000 0.5090730910944806 -0.8787871551001718 -3.1068553329915166e-05 -4.866519660854932e-05 0 0 0 0
577000000 0.49072094280845147 -0.889869118739066 6.58912641403098e-06 1.873610801012483e-06 0 0 0 0
586000000 0.47704505939959124 -0.8966450311126462 -5.652292128634732e-05 1.4080621568819891e-05 0 0 0 0
595000000 0.459697729358098 -0.9075816368002392 2.213834155751295e-05 3.8119939397747707e-06 0 0 0 0
604000000 0.44398082434842046 -0.9146667220629867 -2.390456507505611e-05 -1.611827989871568e-05 0 0 0 0
613000000 0.43135621299699145 -0.9203179711996567 3.154912180708912e-06 -2.043198098221332e-06 0 0 0 0
622000000 0.4089609172542226 -0.932958511527772 -2.0123195136699277e-05 9.097499002439647e-06 0 0 0 0
631000000 0.3905002653972016 -0.9408516335416138 3.7553298253526203e-07 -2.0219797067404972e-05 0 0 0 0
640000000 0.3760090653564115 -0.9458074018069368 -2.5613480677808876e-05 1.2535171812442057e-05 0 0 0 0
649000000 0.3550691407213542 -0.9527982886744623 2.6587413078143056e-05 -2.612966641244511e-06 0 0 0 0
658000000 0.33836864057986255 -0.9592913831001751 7.5743049981267316e-06 3.0108988371137118e-05 0 0 0 0
667000000 0.32046514287117256 -0.9645767246032644 -1.2979566714258993e-05 6.121945453826363e-05 0 0 0 0
676000000 0.29800139900643324 -0.972721941235673 -2.6054606950353975e-05 4.980702012458912e-05 0 0 0 0
685000000 0.2830582521814331 -0.9749043556765951 9.865440299772722e-06 0.000105895216716288 0 0 0 0
694000000 0.263210470076059 -0.9808151332616233 1.9620031191138212e-05 1.874908872433415e-05 0 0 0 0
703000000 0.2434941648965507 -0.9838243602601359 2.9962335756377347e-05 -4.640344079761321e-06 0 0 0 0
712000000 0.22054360492965103 -0.9890124704442996 9.067647958003663e-06 5.599597019756406e-07 0 0 0 0
721000000 0.20180826821996925 -0.9890882575771629 8.037608977065253e-06 9.505269068877067e-05 0 0 0 0
730000000 0.1789469257032208 -0.9924584684392121 6.218211107157725e-05 2.007478952035922e-05 0 0 0 0
739000000 0.1560416399319225 -0.993429830722132 1.1487086913925249e-05 2.7771686388318096e-05 0 0 0 0
748000000 0.1385507882211997 -0.9952967572406817 4.4712098698219026e-05 5.395764443282896e-05 0 0 0 0
757000000 0.11986857191171686 -0.9945369509881657 5.944226485861395e-05 -2.854697285073234e-05 0 0 0 0
766000000 0.0952324735638063 -0.9942717398524498 9.508528207378039e-05 6.955557708863321e-05 0 0 0 0
775000000 0.07962780466517437 -0.9944114839516047 1.8845010621771166e-05 2.9187596046757964e-05 0 0 0 0
784000000 0.056781356650123356 -0.9916185569903349 5.090484674292392e-06 -1.9631240976760443e-05 0 0 0 0
793000000 0.033638658902460705 -0.9907562514737377 5.418506406917952e-05 3.6205420288952346e-05 0 0 0 0
802000000 0.015111718050290185 -0.9854619917768246 6.0681060466453226e-05 1.4226423976807813e-05 0 0 0 0
811000000 0.00010412500398084869 -0.9818728405466646 5.5340461340143505e-05 -1.8406546854316102e-05 0 0 0 0
820000000 -0.01617188176526853 -0.9783375299052035 7.655834167220742e-05 -4.902567125746515e-05 0 0 0 0
829000000 -0.038980462001875923 -0.9712539949176521 1.9415988284096045e-05 -5.876261911154811e-05 0 0 0 0
838000000 -0.054683298955533546 -0.9655634743221241 3.3887862774605946e-05 -1.6272493395966793e-05 0 0 0 0
847000000 -0.07143720202556542 -0.9598720918487468 5.336360364715935e-05 1.947900433455262e-05 0 0 0 0
856000000 -0.09601118041881816 -0.9541304558452607 1.8233273167883014e-05 8.613897050254479e-06 0 0 0 0
865000000 -0.1146486700474196 -0.9457985032775106 5.045027448201086e-05 8.118222732941441e-06 0 0 0 0
874000000 -0.1236237125656235 -0.941330222060203 1.6905010974647123e-05 4.3250378311659964e-08 0 0 0 0
883000000 -0.14463857305102143 -0.9338592235022145 2.076450898597171e-05 3.313237146502583e-05 0 0 0 0
892000000 -0.1595796309361807 -0.9256439087253472 4.171369687746695e-05 2.5341575029173766e-05 0 0 0 0
901000000 -0.175582982337567 -0.9170860116073294 2.544452415863671e-05 -1.3766358358667012e-05 0 0 0 0
910000000 -0.1837629006464614 -0.9122363147032233 2.9125600690851725e-05 1.0746159143917091e-05 0 0 0 0
919000000 -0.20266325101234683 -0.9025383463920126 -3.354308509134638e-05 1.0425439956368162e-05 0 0 0 0
928000000 -0.21696753604453953 -0.8936848938080656 -9.771635002502546e-06 9.676674855328919e-06 0 0 0 0
937000000 -0.22904595454103843 -0.8853752513049526 -4.303075507071093e-05 -2.569590975398553e-05 0 0 0 0
946000000 -0.24135332123030942 -0.8794406514108886 2.5660156918709612e-05 2.88873631214666e-06 0 0 0 0
955000000 -0.259843020956716 -0.8680360636851133 -1.4753088081027587e-05 8.036294539440754e-06 0 0 0 0
964000000 -0.2677120647048582 -0.8611352395537978 -1.4062731129172013e-05 2.5981620928495247e-05 0 0 0 0
973000000 -0.2784262170927228 -0.8553088724069828 1.3401926042593855e-05 -4.8813208232059086e-05 0 0 0 0
982000000 -0.29556531493102445 -0.843336379772049 8.353642439108438e-05 1.766912428307632e-05 0 0 0 0
991000000 -0.30436859968723484 -0.8347121791500979 -4.049301797416025e-06 2.5268742784610633e-05 0 0 0 0
1000000000 -0.31650067684382466 -0.8258602396030293 1.1514315741471566e-05 -3.862791964781738e-05 0 0 0 0
