# HZ S RI R 50
100000000 1.0125939027244983 -0.21938922116473625 3.220654209595934e-05 -5.868918540772829e-05 0 0 0 0
109000000 1.0078173707947558 -0.23459052084585386 5.5563930873149745e-05 6.468142500347715e-05 0 0 0 0
118000000 1.0025874815587283 -0.24991678378212906 -3.8597756370600385e-05 -5.7086904422963105e-05 0 0 0 0
127000000 0.9969437203235537 -0.26563556772892744 -3.8644303469435777e-05 3.823612739330202e-05 0 0 0 0
136000000 0.9916105889866557 -0.28004544771846673 2.027022479988993e-05 -5.6582942384554555e-05 0 0 0 0
145000000 0.9831825305233028 -0.29525193805962435 1.0559022238411552e-05 1.412884584150986e-06 0 0 0 0
154000000 0.977259218997263 -0.3109322991122964 -1.2234279401038227e-05 -3.498183584934539e-05 0 0 0 0
163000000 0.9707451774712346 -0.3261092643495303 -5.772660788831164e-06 -1.9560592235057808e-05 0 0 0 0
172000000 0.9647936600976471 -0.3398432884799568 -1.8355948679973177e-05 1.6484589513534922e-05 0 0 0 0
181000000 0.9578940275496045 -0.35538506648480095 -1.8520737751857342e-05 -1.664408587458065e-05 0 0 0 0
190000000 0.9510314892655802 -0.36957035976631586 1.3276756128984968e-06 2.555243351791994e-05 0 0 0 0
199000000 0.944553709393791 -0.3825839185766817 -3.924701538769871e-05 -2.1042007791927706e-05 0 0 0 0
208000000 0.9366557721388369 -0.39951837678868707 -2.3667232382164664e-05 2.6135980980723576e-05 0 0 0 0
217000000 0.9293137786831079 -0.4131638877647858 6.20085806075823e-05 1.8589393349224418e-07 0 0 0 0
226000000 0.9218378900808077 -0.4276572085052159 -4.675411278033826e-05 -4.209403448780824e-05 0 0 0 0
235000000 0.9152334274681058 -0.4397738335664542 -6.800115214887251e-05 1.926466882519193e-05 0 0 0 0
244000000 0.9081007104262231 -0.45320270863570156 3.298615649646394e-05 -4.302724516045743e-06 0 0 0 0
253000000 0.8986590205679973 -0.47019245733737985 -3.109851136933875e-05 1.6204775695063472e-05 0 0 0 0
262000000 0.8898187574869189 -0.4848621879576715 1.7478713968356347e-05 8.741295345088014e-06 0 0 0 0
271000000 0.8843101123100362 -0.4938624881335394 -3.56351962605677e-05 5.756823506642099e-07 0 0 0 0
280000000 0.8744082503993812 -0.5073149225724221 -1.6286003697135002e-06 2.256233347283974e-05 0 0 0 0
289000000 0.8642878581387481 -0.5249266168654209 2.644353891636525e-05 -2.7100116290848182e-05 0 0 0 0
298000000 0.8566165466774504 -0.5365798109330912 -7.863003136365094e-06 -2.3668762479303966e-05 0 0 0 0
307000000 0.8459607384507377 -0.549870293838787 1.2391289809965485e-05 -1.958744721926035e-05 0 0 0 0
316000000 0.8403955471360702 -0.5608370270635561 -3.692802530029162e-05 -7.718371217029273e-05 0 0 0 0
325000000 0.8293857550131329 -0.5761729160939435 -1.8243550465371494e-06 4.567287119791112e-05 0 0 0 0
334000000 0.8212024692309946 -0.5874035240632945 -4.6462604851142076e-05 -5.285094261447521e-06 0 0 0 0
343000000 0.8104793865822183 -0.600506944262452 1.8260027121445966e-05 2.886137673154752e-05 0 0 0 0
352000000 0.7994454878743673 -0.6130767267778205 -1.9311412968929834e-05 -3.676717057545001e-05 0 0 0 0
361000000 0.791297263954737 -0.6215999241908435 -6.279569087754974e-06 -8.658457853151871e-05 0 0 0 0
370000000 0.7807002484421093 -0.6385523224480649 -5.6391122153486026e-05 -8.554323022968632e-06 0 0 0 0
379000000 0.7698003234832684 -0.6504857369759108 -1.9365317224844122e-05 -3.8325786691755816e-05 0 0 0 0
388000000 0.7618755903378479 -0.6599421438948607 1.5044609488153949e-05 1.0170684513029913e-05 0 0 0 0
397000000 0.7491995176703348 -0.6745428729282074 1.9602410440848568e-05 -7.869538305125035e-05 0 0 0 0
406000000 0.7393541637560352 -0.6859020496009535 -3.4351461520119664e-05 -1.8862031610312143e-05 0 0 0 0
415000000 0.7255240150813946 -0.6979469972729931 -4.125781949961279e-05 5.269502722507452e-06 0 0 0 0
424000000 0.7172216316911771 -0.7086352094991181 -7.138945891754306e-06 1.68147730147236e-05 0 0 0 0
433000000 0.704839432339049 -0.7206890159521852 -2.933446523018269e-05 3.893933327761036e-05 0 0 0 0
442000000 0.6936236251392779 -0.7316131070739725 3.2454217966523165e-05 6.560530821311767e-06 0 0 0 0
451000000 0.6801478316954948 -0.7446978135762676 -2.4364058950819286e-05 -1.0930685590428227e-05 0 0 0 0
460000000 0.6715984405112717 -0.7518419788863107 1.850902700546676e-05 -5.61462642109348e-06 0 0 0 0
469000000 0.6566424086043613 -0.766037070488204 -8.525616233471971e-06 -3.9745124276189254e-05 0 0 0 0
478000000 0.6428314141368568 -0.7781709507673453 2.991611363618417e-05 -3.030844212979344e-06 0 0 0 0
487000000 0.634104311379713 -0.7855575313506467 6.555045148871693e-05 -2.255552469206185e-05 0 0 0 0
496000000 0.6206716815753022 -0.798480823303621 2.1157862753927156e-05 -5.799344893332792e-05 0 0 0 0
505000000 0.610187321645317 -0.805796961186525 -6.3245562989471675e-06 -7.682442448155957e-06 0 0 0 0
514000000 0.5925453595627688 -0.8190635316537588 -2.471840212733841e-05 3.2767162065840836e-05 0 0 0 0
523000000 0.5778826001500654 -0.829809415365712 1.4955010501868397e-05 -2.4123627984533108e-05 0 0 0 0
532000000 0.566769757678911 -0.839115294445624 -1.6667595326130703e-05 1.7544350485096283e-06 0 0 0 0
541000000 0.5460113249554671 -0.8521382366442591 4.424089839804602e-06 5.566233282000499e-05 0 0 0 0
550000000 0.5399038868498263 -0.8574284647811539 1.8232774056772585e-05 3.0735719163826116e-05 0 0 0 0
559000000 0.5221473440479162 -0.8695101014299406 2.5912017158630835e-05 -6.749384092159978e-05 0 0 0 0
568000000 0.5065004905505391 -0.8812016844505425 5.197579219095489e-05 -6.915753569394944e-06 0 0 0 0
577000000 0.4886017112536474 -0.8885850675327699 -2.649871593589012e-06 -2.460175227980363e-05 0 0 0 0
586000000 0.471628201452694 -0.8998434497813248 -3.912851477262994e-05 -1.875518702400972e-05 0 0 0 0
595000000 0.46158581987687125 -0.9055161140648968 3.7496824116782313e-06 3.614427296494745e-05 0 0 0 0
604000000 0.43965778213525764 -0.9165552037242536 3.0131933915300166e-05 -8.61226449913671e-06 0 0 0 0
613000000 0.42151293146533514 -0.9254177766565587 3.506495203902005e-05 2.0899636293978306e-05 0 0 0 0
622000000 0.4022880085785584 -0.9323741336302575 -1.3459581593167898e-05 3.5118364288121036e-05 0 0 0 0
631000000 0.39562187399710347 -0.9377610926405722 -6.816254585170835e-07 1.3065416404041229e-05 0 0 0 0
640000000 0.3757274554134284 -0.9445432655832532 -5.688458681567393e-05 -3.465446282193535e-05 0 0 0 0
649000000 0.35276886918241823 -0.9541120567529275 1.008390477893344e-05 3.5150521956155794e-05 0 0 0 0
658000000 0.337951135917865 -0.9611739408467683 5.8011061530918175e-05 5.513395472004636e-05 0 0 0 0
667000000 0.3227188820406661 -0.9649544715912655 -1.0062624680100985e-05 4.499323034713301e-05 0 0 0 0
676000000 0.299532996587217 -0.9721173381353706 9.186376970476333e-05 6.01765749905909e-05 0 0 0 0
685000000 0.284825611624659 -0.9768317897389566 -1.4257458956453585e-05 2.017701645640941e-05 0 0 0 0
694000000 0.2558081632225839 -0.9825950927936028 -1.175395892676367e-06 7.460654146319416e-05 0 0 0 0
703000000 0.24420717839325976 -0.9822601562923834 -5.052465991980578e-05 5.446145281346251e-05 0 0 0 0
712000000 0.22043350016986424 -0.9879408567604586 -2.7936521474450977e-05 5.664602699169627e-06 0 0 0 0
721000000 0.19574648802586436 -0.9922424585868521 6.784414471063434e-05 4.724673763372433e-05 0 0 0 0
730000000 0.18040454812372161 -0.9947898775621358 4.521181023501705e-05 -4.538245466160942e-05 0 0 0 0
739000000 0.1629408167931644 -0.9929414927782674 1.7937468684092494e-05 2.333768579360796e-05 0 0 0 0
748000000 0.14144706408827656 -0.9945735415173339 2.6221837339152336e-05 2.766481467986668e-05 0 0 0 0
757000000 0.12147109860019846 -0.9952211571260109 0.0001301019222914433 -8.540274527857422e-06 0 0 0 0
766000000 0.09630428481482614 -0.9941792366921222 5.1247122024009447e-05 -6.170269144877447e-05 0 0 0 0
775000000 0.0771189777848394 -0.9926681508553024 -2.7045380526273715e-05 7.425866157454286e-05 0 0 0 0
784000000 0.0596284512450584 -0.9900792650422635 8.81292337485346e-05 -3.1583155423183694e-05 0 0 0 0
793000000 0.035974632160919486 -0.988933621120744 9.660550489630955e-05 3.450412117831236e-05 0 0 0 0
802000000 0.01854413642731993 -0.9839987466698129 9.673755366689763e-05 -9.925715968873063e-07 0 0 0 0
811000000 -0.0011767853493308202 -0.9805231311663587 1.741401956437108e-05 2.6386783606943294e-05 0 0 0 0
820000000 -0.0193622128733743 -0.9758421607963921 3.445884237658225e-05 4.893421226093631e-05 0 0 0 0
829000000 -0.03816494711061603 -0.9738267327896907 0.00010856909989234 1.4023553807374543e-05 0 0 0 0
838000000 -0.055604789657465785 -0.9666904453235827 -1.6165590971863214e-07 -2.6785818515244175e-05 0 0 0 0
847000000 -0.07404748418169317 -0.9606823934831511 3.45903056563437e-05 -3.660504183862649e-05 0 0 0 0
856000000 -0.09284609820274142 -0.9543744395041849 3.163280650151782e-05 -7.493380747631308e-05 0 0 0 0
865000000 -0.10438449688066714 -0.9485577820508297 7.754768266706148e-06 6.330223506867993e-05 0 0 0 0
874000000 -0.12220854285699402 -0.9420575113394332 2.487345657622241e-05 7.375963678516915e-05 0 0 0 0
883000000 -0.13788336670598805 -0.9343957351074155 6.358455248309917e-05 -5.2766718497633364e-06 0 0 0 0
892000000 -0.15918119896078142 -0.9270973905436549 2.1293997775393874e-05 -2.6027424187597115e-06 0 0 0 0
901000000 -0.1671125812017326 -0.9176795947310031 -8.978057009720104e-05 3.163505741942602e-05 0 0 0 0
910000000 -0.1817219621227051 -0.9106474398940886 9.926929130171973e-06 1.5222979634868466e-05 0 0 0 0
919000000 -0.19950964475307711 -0.9046493174839177 5.19477899035258e-05 2.6454247584079717e-05 0 0 0 0
928000000 -0.21862452376965985 -0.8930480079301905 -4.234437482491131e-05 4.661714298776406e-05 0 0 0 0
937000000 -0.23040587892116465 -0.8859609398211055 -1.4402956860083842e-05 1.5246409096103924e-05 0 0 0 0
946000000 -0.24280396894900674 -0.8773326136155939 6.774188328603142e-06 4.311732288570469e-05 0 0 0 0
955000000 -0.25473818962884054 -0.8711507168110131 7.539641205605483e-05 -5.8359723702417446e-05 0 0 0 0
964000000 -0.26321718245381154 -0.8616827514329111 5.092717805970647e-05 6.909841623922586e-05 0 0 0 0
973000000 -0.2856172522054539 -0.8517232466139324 3.498900794134633e-05 3.56474332882901e-05 0 0 0 0
982000000 -0.29388071208986355 -0.8440188202352144 4.6360319447663603e-05 -4.2412126903709404e-05 0 0 0 0
991000000 -0.3036531796805879 -0.8341101649548438 -1.34713431341008e-05 7.772568002575346e-05 0 0 0 0
1000000000 -0.32349107490008205 -0.8262603103897372 -1.842487967799238e-05 8.94552755591062e-05 0 0 0 0
