# HZ S RI R 50
100000000 1.015445968122669 -0.21990983923112106 -2.409256321261409e-05 -8.965643750183615e-06 0 0 0 0
109000000 1.008208168355171 -0.23453456102836703 -3.6344859330773975e-05 -7.168345819800387e-06 0 0 0 0
118000000 1.0024503322086804 -0.24911171720077233 -1.258552220465555e-05 2.797843891004569e-06 0 0 0 0
127000000 0.9967419005295904 -0.26548060378958005 2.5973370859873546e-05 7.465796409861661e-05 0 0 0 0
136000000 0.9915591649683185 -0.27985124860360144 -6.666814336734606e-06 3.587873843268027e-05 0 0 0 0
145000000 0.9828023100407309 -0.2964956298629976 3.087292229389157e-05 2.4199603092623533e-05 0 0 0 0
154000000 0.977045252072541 -0.3104171944777127 1.7720426271544604e-06 1.4096113730177115e-05 0 0 0 0
163000000 0.971216504747429 -0.3256504440380172 -1.7468330240117458e-05 4.834224199037883e-05 0 0 0 0
172000000 0.9641286677354635 -0.34007364576785054 1.4926740541061203e-05 -5.413546422652187e-05 0 0 0 0
181000000 0.9584567668434669 -0.3542295255823145 -4.29870230802126e-05 5.933099768273239e-06 0 0 0 0
190000000 0.9506373451814654 -0.37031190835355254 -3.7845540070615685e-05 -2.1162069390723383e-05 0 0 0 0
199000000 0.9428980508988253 -0.3849321900329038 1.5454411456942998e-05 2.5515109737564093e-05 0 0 0 0
208000000 0.9371657250079711 -0.3975011604182153 3.347701242886903e-05 2.843591512112093e-05 0 0 0 0
217000000 0.9285306258286578 -0.4144835860888642 -4.179162783203946e-05 1.5545770320335356e-05 0 0 0 0
226000000 0.9231151369309127 -0.425686257443274 2.9969461176418367e-05 1.8932059130193913e-05 0 0 0 0
235000000 0.9142649982525551 -0.44121825668530174 5.911324791560512e-05 3.193626609595707e-05 0 0 0 0
244000000 0.9066787399872881 -0.4550105974418223 -1.4704197532525085e-05 1.4104711979989926e-05 0 0 0 0
253000000 0.8982644775281569 -0.4699279191878508 -1.1741477663397627e-06 -6.113880233565136e-05 0 0 0 0
262000000 0.8905556934315514 -0.48313348245749294 -1.0536735533751208e-05 4.396527744646362e-05 0 0 0 0
271000000 0.881896467515163 -0.49564558701867734 4.844667498704606e-06 -3.160613783612347e-05 0 0 0 0
280000000 0.8735425495644421 -0.5084176226038178 -3.382359040342952e-05 -5.215014575166194e-06 0 0 0 0
289000000 0.865670434779651 -0.5213904614086747 -4.204201623909447e-05 1.187215169695974e-06 0 0 0 0
298000000 0.8573333873022072 -0.5365694511083834 -3.295094136468543e-05 -1.028414675191972e-06 0 0 0 0
307000000 0.8492289355692746 -0.5490219800174346 -3.302371350035417e-05 -3.1201559591977867e-05 0 0 0 0
316000000 0.8387377434954312 -0.5612045910689817 -3.5741689379082805e-06 -5.450086208233042e-05 0 0 0 0
325000000 0.8303058560670217 -0.5745083401121411 1.8137146321353907e-05 6.721952822287759e-06 0 0 0 0
334000000 0.8205621818662046 -0.587432983191037 -4.011019003725347e-05 4.6165699316227474e-05 0 0 0 0
343000000 0.8099899928363434 -0.599219145563151 -6.15097741822058e-06 4.344524758319243e-06 0 0 0 0
352000000 0.8018018118323752 -0.6114199457579866 -1.4975311408203306e-05 -1.001654788897225e-05 0 0 0 0
361000000 0.7910691785761593 -0.6237686799919333 -2.6078949238251512e-05 -1.1018598686572362e-05 0 0 0 0
370000000 0.7808704430222817 -0.6361226028518863 1.6859015330759542e-05 -8.681269100755061e-05 0 0 0 0
379000000 0.770694033441143 -0.6491718708886175 5.532077769112817e-05 1.2878344980471113e-06 0 0 0 0
388000000 0.7603183033931984 -0.6612609236622711 5.828510809836529e-07 -2.538420082676022e-05 0 0 0 0
397000000 0.7499356301750039 -0.6728047224663884 -4.048098440937277e-05 -2.6918375993713668e-05 0 0 0 0
406000000 0.7382023383231596 -0.6860718755753215 -2.474941482405584e-05 1.0009522611119102e-06 0 0 0 0
415000000 0.7261265082599049 -0.6988765435593141 -6.540637860676386e-05 -1.5506979434618526e-05 0 0 0 0
424000000 0.7157800911864571 -0.7107918254169191 -7.777408455360057e-06 -1.285370875668095e-05 0 0 0 0
433000000 0.7063290243037412 -0.7199920087698005 5.45353084813839e-05 -1.2674231325948696e-05 0 0 0 0
442000000 0.6928682614881079 -0.7321897904049718 1.2648992162124996e-05 -6.153715524102521e-05 0 0 0 0
451000000 0.6798650940470717 -0.7456243604329054 4.3266386945338607e-05 1.6345774904854375e-05 0 0 0 0
460000000 0.6696428374780946 -0.7516659597983105 3.537070151684459e-05 2.6148602538023616e-05 0 0 0 0
469000000 0.6572458386706436 -0.7646000553065393 -6.334559054619225e-05 2.0186343304681283e-05 0 0 0 0
478000000 0.6448813882700009 -0.7767076836788755 -9.747755617442914e-06 -3.299957788161913e-05 0 0 0 0
487000000 0.6288870003469594 -0.7893704314035423 8.474643304125245e-06 -6.515773315036607e-05 0 0 0 0
496000000 0.6197979802123111 -0.7981738487446703 -1.5908634789234358e-05 -3.834861929558702e-05 0 0 0 0
505000000 0.6049610286099817 -0.8091091812096685 -4.19952456629278e-05 -1.1296799722279852e-06 0 0 0 0
514000000 0.594273128244925 -0.817763650740129 3.315789479705284e-05 -8.160611452495754e-06 0 0 0 0
523000000 0.5780495398405427 -0.8300922655915686 -7.758556819588503e-05 6.610584057017151e-05 0 0 0 0
532000000 0.5680711682261471 -0.8385870275908881 4.716829436482242e-05 -2.494624670076737e-06 0 0 0 0
541000000 0.5510670519573685 -0.8510330683948409 -6.436992907629733e-05 4.225959614043189e-05 0 0 0 0
550000000 0.5350787425447573 -0.8606006714129424 2.2786847372169277e-05 5.127436511117976e-05 0 0 0 0
559000000 0.5197468971474192 -0.8699508920357738 -6.565072521319347e-07 -7.705711281155197e-05 0 0 0 0
568000000 0.5055704906272389 -0.8805164510954345 -3.115955644473967e-05 -4.023077376470777e-05 0 0 0 0
577000000 0.4919105823273401 -0.8870767490188679 -4.769366536066133e-05 -3.1640198033002156e-05 0 0 0 0
586000000 0.47354710151105206 -0.8986920464916108 7.415705646951595e-05 -4.096226165891577e-05 0 0 0 0
595000000 0.4561887642979835 -0.9084664818959663 3.7303968385906496e-05 4.323549269853334e-05 0 0 0 0
604000000 0.44412816993728427 -0.9134172069720571 -3.3178287051838205e-05 -2.848603424591996e-05 0 0 0 0
613000000 0.4238140880280157 -0.9253729623510661 -1.4866573533330552e-05 2.2745114002296864e-06 0 0 0 0
622000000 0.41034202982111007 -0.931414736216419 4.3030619458718444e-05 -5.597996879186503e-05 0 0 0 0
631000000 0.3895576299694947 -0.9408113100442943 -4.920692296016908e-06 1.0839554548825255e-05 0 0 0 0
640000000 0.37271783930276386 -0.9460279571311463 3.292899705316157e-05 2.3643484806763196e-05 0 0 0 0
649000000 0.3617043361954598 -0.9515019657303638 -4.155836241241896e-06 -7.54145989059525e-06 0 0 0 0
658000000 0.33597636239705814 -0.9595501386947825 -2.53202319345028e-05 0.00011287397618221212 0 0 0 0
667000000 0.3197155772953311 -0.9643686956952232 -2.3740894193602586e-05 4.078523598041204e-05 0 0 0 0
676000000 0.3019496385667833 -0.97170231744652 2.632821700791227e-05 4.510560375487691e-05 0 0 0 0
685000000 0.28021020834227617 -0.9762614842023601 3.974316264224611e-05 5.8234099733175e-05 0 0 0 0
694000000 0.2581701453287878 -0.9818617371097803 -1.2137408717071043e-05 6.604267832265159e-05 0 0 0 0
703000000 0.23822428025396505 -0.9856991345598096 5.380743674168622e-05 -2.986204594458503e-05 0 0 0 0
712000000 0.22226869838042024 -0.9873762762284004 3.7807813152510637e-05 5.385290723545266e-05 0 0 0 0
721000000 0.20135100306686352 -0.9910723858202803 -2.395578357831084e-06 3.231842089789972e-05 0 0 0 0
730000000 0.18117118320204723 -0.9945926987790742 9.960833392598724e-06 6.784756895306317e-05 0 0 0 0
739000000 0.1612291157682831 -0.9939115917190731 1.1901426189525942e-05 1.7723219590834136e-05 0 0 0 0
748000000 0.13895795096705807 -0.9948623437160807 6.135408625773462e-05 6.234695809810559e-05 0 0 0 0
757000000 0.1201026727612302 -0.9944888425858093 9.014052749581066e-05 -3.461484494859099e-06 0 0 0 0
766000000 0.09467369028729201 -0.9941612301909316 3.176767219100795e-05 5.4641287348306256e-05 0 0 0 0
775000000 0.07594842062839353 -0.9916794914159041 0.00014283538985355906 -4.64545498158248e-05 0 0 0 0
784000000 0.05785536966033475 -0.9904221757856452 -7.286738390026499e-06 2.5869990881689592e-05 0 0 0 0
793000000 0.033668687437632766 -0.9890790988626215 7.981184259965503e-05 6.372854543824565e-05 0 0 0 0
802000000 0.017906696244990937 -0.9851184594545891 0.00011728926658328756 -1.2059266178067568e-05 0 0 0 0
811000000 -0.005771039482180668 -0.9801889212022586 3.0400986137583627e-05 -1.7644497519052368e-06 0 0 0 0
820000000 -0.021929549783739552 -0.9778213122068266 7.339015564444193e-05 3.0100165916584857e-05 0 0 0 0
829000000 -0.04371769243040622 -0.9705028759415436 5.8726262000982345e-05 -1.0411141905203377e-05 0 0 0 0
838000000 -0.05771213263029048 -0.9664199567141508 -1.0567291624457791e-05 -6.107360539635829e-05 0 0 0 0
847000000 -0.07580399308813006 -0.963621446105596 -7.042764225926847e-05 -0.00010496607603038354 0 0 0 0
856000000 -0.092594610907447 -0.9545388031062365 -1.4785461099920126e-05 9.566392358496344e-06 0 0 0 0
865000000 -0.10618763074811521 -0.9492569326713957 1.777397566283497e-05 7.234737562511841e-06 0 0 0 0
874000000 -0.12099500960293899 -0.941649789945316 7.206138137469663e-07 -6.38622793766474e-05 0 0 0 0
883000000 -0.1460414929772379 -0.9341882468172199 3.243096752583525e-05 5.346036547007966e-06 0 0 0 0
892000000 -0.1618736052579542 -0.9254042568160142 -2.109146570617312e-05 4.1390444396730456e-05 0 0 0 0
901000000 -0.17568778785759534 -0.9198833032626945 -2.417316380873392e-05 4.401044808884724e-05 0 0 0 0
910000000 -0.1861093967549434 -0.9103267180741544 4.7192265446985856e-05 -8.141716402100139e-06 0 0 0 0
919000000 -0.2010490008215154 -0.9038783231593458 3.6325235218886336e-05 3.4790712740967046e-05 0 0 0 0
928000000 -0.22082277278583784 -0.8936180848003268 0.00011359586964061341 -4.848452963530761e-05 0 0 0 0
937000000 -0.22747585585732719 -0.8880157274771615 7.945579546513974e-06 1.2578888527013716e-05 0 0 0 0
946000000 -0.2412607582435566 -0.8776631504582665 6.595991053244768e-05 -5.2234439903220514e-05 0 0 0 0
955000000 -0.2597531264429659 -0.8677782070176294 -2.157310195436675e-06 3.9585510088318285e-06 0 0 0 0
964000000 -0.2793763559440034 -0.8594671766991999 2.1599142913364137e-05 2.717689930987266e-05 0 0 0 0
973000000 -0.28584633907558343 -0.8528453199190779 3.16628947161432e-05 7.499186668494643e-06 0 0 0 0
982000000 -0.2969900006384584 -0.8428692463515016 6.703576019782798e-05 -1.8838549802678267e-05 0 0 0 0
991000000 -0.30544777775072435 -0.8361334134184346 -3.241911241383173e-05 -7.875346283446235e-06 0 0 0 0
1000000000 -0.31239913110457185 -0.8266309610576903 -5.2169637692119793e-05 2.7821698236884313e-05 0 0 0 0
