# HZ S RI R 50
100000000 1.0082919366291114 -0.21925081230267257 -4.759212400386655e-06 5.3182536757115554e-05 0 0 0 0
109000000 1.0078276136398066 -0.23543329857562384 -5.882842440575263e-05 -5.085799873161377e-07 0 0 0 0
118000000 1.0025261587246088 -0.25015195542046925 3.150027322183261e-06 -9.393098448944331e-05 0 0 0 0
127000000 0.9966857582141123 -0.2656478843322308 -1.9942101689224244e-05 -0.00010506829656703497 0 0 0 0
136000000 0.9912861118050648 -0.28010823654509287 -1.292479036314874e-05 8.533573486717785e-06 0 0 0 0
145000000 0.983337513500182 -0.29489588456234495 4.296399786812981e-05 -4.990906520076995e-06 0 0 0 0
154000000 0.9773010035442035 -0.3108296737433609 -2.3158342312938236e-06 -7.946345505944265e-05 0 0 0 0
163000000 0.9703697167210468 -0.3260308125325108 -1.4666250372560923e-05 -6.070746782556358e-06 0 0 0 0
172000000 0.9641460914421116 -0.34113562514973705 -7.974552680038855e-06 -5.304286577044274e-06 0 0 0 0
181000000 0.9580299373021872 -0.35423811950492456 1.6869870705129694e-05 -1.257254531818969e-06 0 0 0 0
190000000 0.9512404895560707 -0.36967403964926426 3.659105669449827e-05 5.611041365195026e-06 0 0 0 0
199000000 0.9434945541922944 -0.3851206941070266 -2.5831744988693657e-05 -5.655804817660464e-05 0 0 0 0
208000000 0.9369677858469229 -0.39777089295587525 -1.1943991018386926e-06 -2.4015219531711694e-05 0 0 0 0
217000000 0.9300202248113841 -0.41155241942982823 -7.955948158642446e-07 1.721007856207391e-05 0 0 0 0
226000000 0.9220238151719657 -0.4262775205870752 1.5140385168910313e-05 6.6747910229112294e-06 0 0 0 0
235000000 0.9140932382822585 -0.441544172159706 -1.1416267253465537e-05 -2.545292356022653e-05 0 0 0 0
244000000 0.907176007286789 -0.4536349675781798 5.729879586754704e-06 2.4307202571294153e-05 0 0 0 0
253000000 0.8988140641070159 -0.4692499644373191 -1.0794149027355996e-05 -4.060076462680489e-05 0 0 0 0
262000000 0.8901574584292367 -0.48335057355564975 0.00010649582694146873 -1.4477854380460032e-05 0 0 0 0
271000000 0.8827169278743753 -0.4956571897471342 4.350793635811603e-05 -3.13037608721024e-05 0 0 0 0
280000000 0.8734626574437802 -0.5088737634001952 -2.6839468459907315e-05 5.4236995358611594e-05 0 0 0 0
289000000 0.8648940613569526 -0.5238644281393849 -5.605562208714165e-06 2.2407417288690453e-05 0 0 0 0
298000000 0.8565526300631325 -0.5370455004623632 -1.4568674335696534e-05 1.7180752835071723e-05 0 0 0 0
307000000 0.8485013667439099 -0.5484952165281181 -2.59507776965289e-05 -6.315143409591989e-06 0 0 0 0
316000000 0.8384876537372227 -0.5625168020309114 -1.8950293770760776e-05 4.684571771721178e-05 0 0 0 0
325000000 0.8300144513975548 -0.57527836451575 3.0600410145081023e-06 5.8592502299236355e-05 0 0 0 0
334000000 0.8182703443964628 -0.5892573988799911 -2.0514037128579596e-05 -2.454517942730408e-05 0 0 0 0
343000000 0.8101525937082122 -0.6019772099597587 -9.429974215440042e-06 -1.3520469870892033e-05 0 0 0 0
352000000 0.800572737098096 -0.6124163432151594 -4.453211448322792e-05 -6.104502948644692e-05 0 0 0 0
361000000 0.7917185824266535 -0.6253558033809327 -3.762287764773149e-05 1.4312729660859902e-05 0 0 0 0
370000000 0.7832172468602308 -0.6348493378636448 3.527059209889668e-05 6.625520041225998e-06 0 0 0 0
379000000 0.7685735186832287 -0.6510860435428141 3.1227258781820304e-05 3.560919370771255e-05 0 0 0 0
388000000 0.7604198121083781 -0.660154353160106 -6.335424561054716e-05 -2.0785180614310365e-05 0 0 0 0
397000000 0.7485391206230734 -0.673880183328068 1.9473332511135706e-05 9.999426528307811e-06 0 0 0 0
406000000 0.7384582084122927 -0.6859506478408488 -3.3627611907101766e-05 -2.0453941177523418e-05 0 0 0 0
415000000 0.7288001763409573 -0.6960327183599314 -2.1716456046336765e-05 4.891042026594171e-05 0 0 0 0
424000000 0.7177445859796876 -0.7076442168683519 -1.7747078369554866e-05 6.457372143896001e-06 0 0 0 0
433000000 0.7059075576908767 -0.7192048793113328 2.9711141902645176e-05 6.043368188300027e-05 0 0 0 0
442000000 0.6937938546436699 -0.7315332910868244 -1.3127119288256552e-05 -3.552441015266787e-05 0 0 0 0
451000000 0.6811787859168021 -0.7438773042745197 3.356065162029372e-05 -7.961783430316328e-05 0 0 0 0
460000000 0.6695078497167898 -0.7545747790237173 4.644947061788939e-05 -6.006529546575277e-05 0 0 0 0
469000000 0.6574768323733982 -0.7649799982718931 4.7074201403072405e-05 2.0148911696191514e-05 0 0 0 0
478000000 0.6425242974629035 -0.7784088566322633 -3.6023083792175113e-05 -3.1997587605082666e-05 0 0 0 0
487000000 0.6344335674341234 -0.7851538652535092 -0.00015235939850129207 -2.9614441537865547e-05 0 0 0 0
496000000 0.6219235321826987 -0.7965082331782412 1.9475904294886086e-05 -5.5833089058184295e-05 0 0 0 0
505000000 0.6067090474448871 -0.8075830868681007 2.8330689710695977e-05 4.504954074091907e-06 0 0 0 0
514000000 0.5912635569162622 -0.8195829273817519 3.166259091499026e-05 -6.710433480424917e-05 0 0 0 0
523000000 0.5783727400683699 -0.8298960736848501 3.4926382393543104e-05 -4.354454406136588e-05 0 0 0 0
532000000 0.563963983031124 -0.8410175384414565 2.6768871329163964e-05 -3.73563193021557e-05 0 0 0 0
541000000 0.5502374400423448 -0.8502511026289049 1.152848383977104e-05 -3.453983987004714e-05 0 0 0 0
550000000 0.5381738857553346 -0.8590371330368104 8.498355299094813e-07 2.113705453507913e-05 0 0 0 0
559000000 0.5232080048770685 -0.8688040063639444 4.2080889553878716e-05 1.0034108286988176e-07 0 0 0 0
568000000 0.5095806290189772 -0.8780933978772534 4.991112793513519e-05 3.2480267467179685e-05 0 0 0 0
577000000 0.48967274173244524 -0.8897350789087755 2.0362105907856794e-05 -3.9955390805197366e-05 0 0 0 0
586000000 0.4770386466100449 -0.89586012006089 -2.741283726611362e-05 3.8304977392643766e-05 0 0 0 0
595000000 0.459731773983732 -0.9058752673617498 8.050989664457196e-06 5.50015658110602e-05 0 0 0 0
604000000 0.4471068509177311 -0.9152512354961139 2.162738918979708e-05 2.109623005358183e-05 0 0 0 0
613000000 0.4284586310183936 -0.9226518830043212 -6.39665795131519e-05 7.430638871642957e-05 0 0 0 0
622000000 0.4065466071167521 -0.9332544803644527 4.429541914547221e-05 -7.59756324485609e-05 0 0 0 0
631000000 0.39047264454572594 -0.9395799006332649 5.413544646197743e-05 3.215176003689983e-05 0 0 0 0
640000000 0.37133715601559925 -0.9481485768329423 -8.415107038260021e-05 1.5334840053208584e-05 0 0 0 0
649000000 0.35828702437466026 -0.9522659475126757 -5.876329777218376e-06 6.167191484445095e-06 0 0 0 0
658000000 0.33870602910599346 -0.9586563685607543 -7.266167909655783e-06 1.8449751577070032e-05 0 0 0 0
667000000 0.3177869867262546 -0.967454716696864 -1.6491410420777627e-05 7.87628987144489e-05 0 0 0 0
676000000 0.30068607994151286 -0.9715438994407287 -7.206266696968983e-05 2.6357304739940315e-05 0 0 0 0
685000000 0.2824572813568143 -0.9764309006985362 -4.4143579113307195e-05 8.273838422291941e-05 0 0 0 0
694000000 0.26236375384151966 -0.9792876779657107 2.3368502287689686e-05 6.935529785938091e-05 0 0 0 0
703000000 0.24287600507715065 -0.9844355004089255 -2.7754142678001005e-05 1.2673365012562248e-05 0 0 0 0
712000000 0.22232318592262432 -0.988700311039766 3.897713266482487e-05 5.009452605720225e-05 0 0 0 0
721000000 0.20550622752761957 -0.9896171075800504 -9.893416314815125e-05 5.820462000063753e-05 0 0 0 0
730000000 0.17590947571411322 -0.9947339360830586 4.253311391374587e-05 -2.2516056241718916e-05 0 0 0 0
739000000 0.16102749991926746 -0.9934268730168113 2.5799406292947397e-05 9.791427576010458e-05 0 0 0 0
748000000 0.13921397473191022 -0.9950667482658166 5.48754162944209e-05 2.2720640166858098e-05 0 0 0 0
757000000 0.11901444060939577 -0.9960098416384864 1.9892765973760067e-06 -5.4553852958021085e-05 0 0 0 0
766000000 0.10303771408722467 -0.9947489813381469 0.000126241999064784 4.8152108583918565e-05 0 0 0 0
775000000 0.08178767569231271 -0.9912413079367816 3.226139231213366e-05 1.5394051933733693e-05 0 0 0 0
784000000 0.05188415063438813 -0.9921572890004918 4.025197684721736e-05 4.852978271441931e-06 0 0 0 0
793000000 0.0405007999325408 -0.9896737297532561 1.959234939485273e-05 4.754443003681374e-05 0 0 0 0
802000000 0.014769317198841945 -0.9847700520414526 0.00010512077527858076 -2.5065599002422155e-05 0 0 0 0
811000000 0.003924225999408137 -0.9824268536332468 -1.3147460698133557e-05 -9.260451281753607e-05 0 0 0 0
820000000 -0.017765284438232505 -0.9764708876122019 6.053029730956722e-05 -3.418966953508854e-05 0 0 0 0
829000000 -0.042810803236422355 -0.9720868260373589 7.567186706226045e-07 -8.46990606418764e-06 0 0 0 0
838000000 -0.05562557897377497 -0.9677466937273708 5.523329114081426e-06 4.394504756002507e-05 0 0 0 0
847000000 -0.07038449608069716 -0.9614996730047364 7.01064024840843e-05 1.2865093823734516e-05 0 0 0 0
856000000 -0.09313758354232837 -0.9542101208136835 5.406344108056051e-05 -2.9090455259619416e-05 0 0 0 0
865000000 -0.10607030010947867 -0.9486315128729876 -6.512686265677638e-05 -8.623394796690292e-05 0 0 0 0
874000000 -0.11831459271734958 -0.9419102169873343 -2.542040458332061e-05 5.433356106930777e-05 0 0 0 0
883000000 -0.1361746731664542 -0.9346171690062528 4.53845342068294e-06 4.992118440193358e-05 0 0 0 0
892000000 -0.15998770354642064 -0.9268813094173061 1.9291347468075494e-05 1.8351372868473813e-05 0 0 0 0
901000000 -0.17498110081647208 -0.9181209543498879 6.855279804645454e-05 5.061696879367298e-05 0 0 0 0
910000000 -0.18960236385457077 -0.9100204929920481 3.9085776048402965e-05 2.333576050251034e-05 0 0 0 0
919000000 -0.20532079346941584 -0.9022655309392553 1.3570855305551735e-06 -4.2333784337062274e-05 0 0 0 0
928000000 -0.22231155053294882 -0.892701983445779 -8.946165233694591e-06 -1.7179878017567505e-05 0 0 0 0
937000000 -0.23390591664014876 -0.8873040063743567 -5.800498887405242e-05 -3.67348127757114e-07 0 0 0 0
946000000 -0.2431286202853518 -0.8775519038446847 2.5689033882591446e-05 -1.8898730856891267e-05 0 0 0 0
955000000 -0.25182514239878534 -0.871231554894817 4.849473845160933e-05 1.0719556488090104e-05 0 0 0 0
964000000 -0.26790854863163516 -0.8622430149889126 1.2504315120680512e-05 -5.304864555504713e-05 0 0 0 0
973000000 -0.2865934456022174 -0.8506104084079348 9.373193824591005e-06 3.282346892322107e-06 0 0 0 0
982000000 -0.28887706323599305 -0.844761664888024 -2.5491639075122293e-05 5.795692238956163e-05 0 0 0 0
991000000 -0.30376663806029025 -0.8385331553258842 6.413812474698763e-05 6.463081599759458e-05 0 0 0 0
1000000000 -0.31205521314660206 -0.8269089147466258 8.166295886154114e-06 1.0973334222147437e-05 0 0 0 0
