# HZ S RI R 50
100000000 1.0080901313537034 -0.21966055655619907 -3.427546303352906e-05 5.0414504138054276e-05 0 0 0 0
109000000 1.0076824372377555 -0.23450848868436525 -2.4879251004728463e-05 -9.080093065658994e-06 0 0 0 0
118000000 1.002224637960401 -0.24956587894563753 -1.3412267540119475e-05 2.5507737119918636e-05 0 0 0 0
127000000 0.9972749646666418 -0.264770781670352 -3.67719442493951e-05 -3.4881963241541604e-05 0 0 0 0
136000000 0.9914626235846905 -0.2808061644107117 -3.890235236304244e-05 4.0037844113251515e-05 0 0 0 0
145000000 0.9829373829215367 -0.29568391563027735 2.6948022536774998e-05 3.626795943962105e-05 0 0 0 0
154000000 0.9770504506546921 -0.3102168909810056 7.619582144349403e-05 1.4174637192676681e-06 0 0 0 0
163000000 0.9703007424408095 -0.3255901821927244 3.743202744829247e-05 4.943820756392395e-05 0 0 0 0
172000000 0.9641125266603057 -0.34082935119085417 1.892506789629124e-05 4.030104043709295e-05 0 0 0 0
181000000 0.9575000946994646 -0.35589636703335453 3.191086448059586e-05 5.601472578651095e-05 0 0 0 0
190000000 0.951170437661979 -0.37018171275344736 -2.5921160684522706e-05 2.449896714475169e-05 0 0 0 0
199000000 0.9437052600767334 -0.38454927331678435 -6.011442123640118e-05 -1.3394349462348527e-05 0 0 0 0
208000000 0.9370809363890591 -0.39760975182078306 2.818222857111426e-05 1.2713645662245211e-05 0 0 0 0
217000000 0.9299762508175147 -0.41299778076286475 1.1526578625020257e-06 -4.985949280267012e-05 0 0 0 0
226000000 0.9218547347640142 -0.42758094708599836 -2.7236500300873038e-05 6.50902576658096e-05 0 0 0 0
235000000 0.914952811462108 -0.4411893871796511 -2.5180277113955466e-05 1.0064439131478373e-05 0 0 0 0
244000000 0.9072675012606858 -0.45473425420687885 1.8346966638163343e-05 -4.35051224304202e-06 0 0 0 0
253000000 0.8993555853348514 -0.46803547802398154 1.2594984641778189e-05 2.6012991888624842e-05 0 0 0 0
262000000 0.8907002095545019 -0.4840732239221958 2.2582046244445703e-05 -2.525696988414308e-06 0 0 0 0
271000000 0.8814668124398057 -0.4971995714029076 -4.252218451243604e-05 9.342573373336452e-06 0 0 0 0
280000000 0.8728726819133493 -0.5100630332787559 -3.1387881534900615e-06 -2.8810241137241482e-05 0 0 0 0
289000000 0.8654832099780065 -0.5219780471812724 -5.383298340979111e-05 -2.2356951175138686e-06 0 0 0 0
298000000 0.8564938987371428 -0.5344480397488086 3.633227610184596e-05 -6.785780224596811e-05 0 0 0 0
307000000 0.84609204976035 -0.5493441210924992 1.4393575278971696e-05 -5.045024123753209e-05 0 0 0 0
316000000 0.8387563776243562 -0.5615650136357663 -4.38793344500299e-05 -4.2044770409050295e-05 0 0 0 0
325000000 0.8299268945867471 -0.5746826167042104 -2.3609746458526457e-05 7.971794589441479e-05 0 0 0 0
334000000 0.8193379188118111 -0.5881244279381476 -2.6173631733426514e-05 8.346178494906033e-06 0 0 0 0
343000000 0.810353624357726 -0.6000235427703609 -4.6221738888649704e-05 5.196576298328251e-05 0 0 0 0
352000000 0.8014955386263398 -0.6126512049001275 -1.510180777292953e-05 -2.8666222341923423e-05 0 0 0 0
361000000 0.7893125679120432 -0.6262364160296184 -7.669047999438854e-05 7.313605141235888e-05 0 0 0 0
370000000 0.7813027201869788 -0.6374831696212121 3.47950726061298e-06 -5.2360209009526185e-05 0 0 0 0
379000000 0.7700558279568931 -0.650182741656462 -4.1969154445022924e-05 -9.107685001521122e-06 0 0 0 0
388000000 0.7586246719840128 -0.6626688089132179 4.074700536558907e-05 -4.480168207275482e-05 0 0 0 0
397000000 0.7501054922016437 -0.672591295866474 -3.6767569999560805e-05 2.0493883359904276e-05 0 0 0 0
406000000 0.7366510229530944 -0.6865266395412806 -1.7965154302312672e-05 3.4979477799665886e-05 0 0 0 0
415000000 0.7272191183293794 -0.697931854733622 4.103467214618638e-05 7.220880604655717e-05 0 0 0 0
424000000 0.7157582695391687 -0.7101185631816461 7.564876502068246e-06 1.0942629081339609e-05 0 0 0 0
433000000 0.7031079749094257 -0.7212910911884334 1.0139236945253713e-06 1.440168830145702e-05 0 0 0 0
442000000 0.6945792294315762 -0.7304660162914552 7.7067646895903e-06 -1.3965160240184222e-05 0 0 0 0
451000000 0.6796983247284086 -0.7431666611146088 5.6897382671309246e-05 3.556004541988058e-05 0 0 0 0
460000000 0.6705753438421393 -0.7522146355643257 -2.3333433630320472e-05 2.7530945242996887e-05 0 0 0 0
469000000 0.6567177109212446 -0.7656938465328499 7.891581637185117e-05 -1.987720592913099e-05 0 0 0 0
478000000 0.6448337510122264 -0.7774485221508316 -4.965790877367609e-05 -2.7399189042139334e-05 0 0 0 0
487000000 0.6318092974197378 -0.7877913068345592 6.0268608502438805e-05 -1.1415277214201631e-05 0 0 0 0
496000000 0.6207474003580614 -0.7970114596843058 -1.962939029110924e-05 2.4654957798453266e-05 0 0 0 0
505000000 0.6077150583351119 -0.80814698753215 -1.2351760653426828e-05 -2.7182735420828573e-05 0 0 0 0
514000000 0.5921251639342657 -0.8202951772885937 8.801672218415737e-06 1.1987193061105308e-05 0 0 0 0
523000000 0.5765421339713206 -0.8304245167205271 7.717431151895769e-05 4.705671975082501e-05 0 0 0 0
532000000 0.5623913992489028 -0.8413826143488475 -1.88118389086897e-05 -1.5194634354839001e-05 0 0 0 0
541000000 0.5526661405924916 -0.8481678751311283 6.793383424735981e-05 1.914494608499352e-05 0 0 0 0
550000000 0.5362453529055293 -0.8597273880448787 1.4838304497835032e-05 -5.5556413117327735e-05 0 0 0 0
559000000 0.5215562304809827 -0.869226352150017 -4.700043341411023e-06 7.783566151059313e-05 0 0 0 0
568000000 0.5080781099747403 -0.8789454661135433 -2.3778163613502133e-05 -4.296075547118833e-05 0 0 0 0
577000000 0.49287604252614126 -0.8891380803640748 3.905154094561168e-05 2.4807034679652214e-05 0 0 0 0
586000000 0.4730448642933446 -0.8997633004776467 -2.320020340105489e-05 -3.927751595234495e-05 0 0 0 0
595000000 0.4590313426779096 -0.908284332691925 -8.90232537359486e-06 1.554885093046273e-05 0 0 0 0
604000000 0.4415568891604777 -0.9177113720575282 4.035713227363679e-06 -6.235597585640758e-06 0 0 0 0
613000000 0.4309928592093526 -0.9227713956104433 -2.267133618621531e-05 -1.625127395512845e-05 0 0 0 0
622000000 0.4101091116112544 -0.9302244690946276 -1.0142335652194507e-05 -3.431684083340072e-05 0 0 0 0
631000000 0.3903596008783952 -0.9392575635907195 1.2831838793607847e-05 -1.6939295288901026e-05 0 0 0 0
640000000 0.37389545220946047 -0.9471619331346862 1.5611195379424164e-05 -5.657465033368875e-05 0 0 0 0
649000000 0.3558717623884815 -0.9534497412991666 -9.269827082129651e-05 -3.638610897348488e-05 0 0 0 0
658000000 0.3386226439088929 -0.9597847907242931 4.952784605284278e-05 2.3196516757702292e-05 0 0 0 0
667000000 0.3215403826031108 -0.9650966435106666 5.1733955122061656e-05 -5.714195915998995e-05 0 0 0 0
676000000 0.2961118773169275 -0.9715768173826368 -5.2222887694835425e-06 -1.5220993747968944e-05 0 0 0 0
685000000 0.27889789991562147 -0.9776490803929822 3.94785598594285e-05 -1.5856112092256496e-06 0 0 0 0
694000000 0.26184083554959503 -0.9798230523681423 6.938964391908178e-06 7.699843296488744e-05 0 0 0 0
703000000 0.23967731941795356 -0.985006470421461 9.848079876815168e-05 1.3567917333046578e-05 0 0 0 0
712000000 0.2181260376382709 -0.9892240182434717 0.0001342743775170748 5.295825982675299e-06 0 0 0 0
721000000 0.20502714571698022 -0.9904268397667365 7.304615089170468e-06 -4.0895218452084674e-06 0 0 0 0
730000000 0.18399124903726924 -0.9928100575408786 5.262390327193751e-05 6.496294102837462e-06 0 0 0 0
739000000 0.15905420758271152 -0.995595494972846 9.690826613264666e-06 9.199974103525313e-06 0 0 0 0
748000000 0.1357169547594688 -0.9965208793433816 6.605485784630812e-05 5.738297468993697e-05 0 0 0 0
757000000 0.11526938017995171 -0.9963223544947075 3.975550198981423e-05 2.059251778070744e-05 0 0 0 0
766000000 0.09952310179147064 -0.9945877951868171 9.388489362613443e-05 4.847462567139737e-05 0 0 0 0
775000000 0.07847744614587862 -0.991378426315606 3.8340070842198456e-05 -3.224762444830246e-05 0 0 0 0
784000000 0.05884140467886325 -0.9903395957319107 -2.2881229068901224e-05 3.500394588726215e-05 0 0 0 0
793000000 0.03942877768685388 -0.9890795172083184 8.152755332611653e-05 2.925140726791448e-06 0 0 0 0
802000000 0.022708354208461363 -0.9851384867324563 2.473087867826022e-05 -3.705334023422994e-05 0 0 0 0
811000000 0.0015999377964580849 -0.980766979562719 -1.1740329240483544e-05 -3.0995035356937054e-05 0 0 0 0
820000000 -0.018418485953290705 -0.9775384733574015 6.919141785296768e-05 3.25854923975603e-05 0 0 0 0
829000000 -0.03935883961253895 -0.9732467206204851 0.00011672495178536807 -3.9250159400734364e-05 0 0 0 0
838000000 -0.0582748236933923 -0.9665025094848011 -7.155414463526962e-05 6.0732671430850196e-05 0 0 0 0
847000000 -0.07012621879655313 -0.962374015260792 2.6873037276863645e-05 3.5567292907680505e-05 0 0 0 0
856000000 -0.08837101060968808 -0.9553420826611632 2.8382256714421717e-05 1.785487165994763e-05 0 0 0 0
865000000 -0.11127496607022082 -0.9476150734275511 -2.2162669152969748e-05 2.960357444704523e-05 0 0 0 0
874000000 -0.11751001995498062 -0.9430612065024216 -2.1993448421104093e-05 1.5457617768538434e-05 0 0 0 0
883000000 -0.14395136377753825 -0.9352116540586083 3.877915247381145e-05 1.8156250729463845e-06 0 0 0 0
892000000 -0.1579768428717833 -0.9279526619972462 7.576856699703362e-05 -1.4550447442754166e-05 0 0 0 0
901000000 -0.17510890467832327 -0.9203636693285845 7.33402575694905e-05 -2.0588447763597325e-05 0 0 0 0
910000000 -0.19011683378525493 -0.9112900253977034 4.7029852536449286e-05 -5.733017124259347e-05 0 0 0 0
919000000 -0.2047926536011747 -0.9036059458944847 1.8731634734846257e-05 5.191947568405055e-05 0 0 0 0
928000000 -0.21791445155575678 -0.8947913783254974 2.6385905664933513e-05 7.147825083023966e-05 0 0 0 0
937000000 -0.22768979260807135 -0.8871934609392993 -2.406326749292968e-05 2.2732846827528732e-05 0 0 0 0
946000000 -0.24531912150272353 -0.8767440081641367 8.347486962681263e-05 -1.3621028209647597e-05 0 0 0 0
955000000 -0.26366073123843264 -0.8673852470161759 -2.5780639383820876e-05 -2.7687967174917914e-05 0 0 0 0
964000000 -0.2771906925053095 -0.8579228407056856 -6.073760571547736e-06 6.867914216507263e-06 0 0 0 0
973000000 -0.2817398535313751 -0.8536892625767394 3.574581484563884e-05 2.8376316670018764e-05 0 0 0 0
982000000 -0.29408425634948054 -0.8442783710010505 2.76143800291249e-05 7.906158515322903e-06 0 0 0 0
991000000 -0.30993557854060305 -0.8362290277832178 -5.919127953108161e-06 1.739097096093254e-05 0 0 0 0
1000000000 -0.31859585303501614 -0.8268016304341377 2.2269418921257082e-05 1.0392805497952469e-05 0 0 0 0
