# HZ S RI R 50
100000000 1.007876637129993 -0.21938075758379177 7.767277697633018e-06 -8.452470951702825e-06 0 0 0 0
109000000 1.0076189331241292 -0.2352274560723275 -5.010083961292378e-05 -7.993424365692593e-07 0 0 0 0
118000000 1.0025163591606203 -0.24928379272796716 1.035964305094327e-05 1.8832427597117072e-05 0 0 0 0
127000000 0.9968041491453247 -0.2650158934604121 -4.540683031939129e-05 4.7076358811696414e-05 0 0 0 0
136000000 0.9910662205209293 -0.2800619680289642 4.3257606678618525e-06 -4.768780061975967e-05 0 0 0 0
145000000 0.9826012848670604 -0.29637791950430975 -7.198333910203404e-05 -6.207994453809773e-05 0 0 0 0
154000000 0.9778980989731365 -0.31045878631092233 4.2958805409624584e-05 -1.4366462501491906e-05 0 0 0 0
163000000 0.9706431098404378 -0.3259325083671864 -3.438680141418314e-05 -2.180794416425771e-05 0 0 0 0
172000000 0.964382932101343 -0.340044839244453 1.311892811932275e-05 -5.155494391870225e-05 0 0 0 0
181000000 0.9580437627574745 -0.3547134152809523 5.660359320344952e-06 2.6250385088064512e-05 0 0 0 0
190000000 0.950727141892097 -0.36934233302459135 -9.571341860320837e-06 2.143379770656062e-05 0 0 0 0
199000000 0.9446050188791786 -0.3835745382566539 -3.9850875109043654e-05 -2.9637207583656754e-05 0 0 0 0
208000000 0.9364905317451031 -0.3991960897866032 -3.428919741871067e-05 1.1571511275315162e-05 0 0 0 0
217000000 0.929075178460456 -0.4132315524584347 1.5092610094724717e-05 3.118169698227359e-05 0 0 0 0
226000000 0.9215549905359083 -0.42701995121234937 -2.3832566358884427e-06 -1.1211143870105955e-05 0 0 0 0
235000000 0.9142956212849562 -0.44102153911755415 5.977370037410217e-05 -5.702044873465958e-06 0 0 0 0
244000000 0.9062521239555945 -0.45392448277459985 1.9082736441895928e-05 -1.9077328425478813e-05 0 0 0 0
253000000 0.8986307218268829 -0.4682405748980952 2.6457592692783718e-05 5.163695179445886e-06 0 0 0 0
262000000 0.8907048102977766 -0.48203194130285965 -5.7118519093236126e-05 -1.53903861879877e-05 0 0 0 0
271000000 0.8829859618914445 -0.49558825486911606 1.4592032487842276e-05 -8.845379155660704e-08 0 0 0 0
280000000 0.8755286362846669 -0.5082817851631052 -4.238990391140216e-05 3.5195370463918044e-05 0 0 0 0
289000000 0.864787212692471 -0.5215608980723508 -9.039078930070027e-05 2.5968254952717154e-05 0 0 0 0
298000000 0.8564286448414796 -0.5370063580020761 -2.2946122927090955e-05 -2.9415393155804044e-05 0 0 0 0
307000000 0.846427127717058 -0.5503017322222625 -3.5317991694615915e-06 -4.30874182202334e-06 0 0 0 0
316000000 0.8410273981017209 -0.5596811318757056 1.645431291999244e-05 9.645173098476254e-05 0 0 0 0
325000000 0.8291609489559578 -0.5743968023992697 1.6997320811771589e-06 -1.688991768964686e-05 0 0 0 0
334000000 0.8208729704548661 -0.587635606638275 2.5130605244288537e-05 -5.928167033194853e-06 0 0 0 0
343000000 0.8117704871815693 -0.5994688373956563 6.069448690471242e-05 1.6038277878959356e-05 0 0 0 0
352000000 0.7985650623277029 -0.6169131280623635 8.525035950879813e-06 -9.17055470568324e-06 0 0 0 0
361000000 0.7908170874592968 -0.6252060739447065 -1.0943143312682676e-05 -2.9941339795575144e-05 0 0 0 0
370000000 0.7801912502662457 -0.6375245367870774 -5.6884024960621345e-05 -6.394903711837044e-05 0 0 0 0
379000000 0.7683576671845642 -0.651427329202681 -2.2909495859441984e-05 -3.01925412307285e-05 0 0 0 0
388000000 0.7608965193189631 -0.6606761652122106 -3.8566321388230885e-05 -4.1156031121951896e-05 0 0 0 0
397000000 0.7499069516563455 -0.6735910626291461 4.147009264295557e-06 -4.5856730604894654e-05 0 0 0 0
406000000 0.7396165673748254 -0.6830412046110939 -6.8180192832395015e-06 -2.2060450177184673e-05 0 0 0 0
415000000 0.7273033686198219 -0.6971985928971881 -4.43295376025002e-05 3.769410719812071e-05 0 0 0 0
424000000 0.716383595570882 -0.7096876764705896 -4.9907772917791695e-05 -2.7645297467497978e-05 0 0 0 0
433000000 0.7041379139673275 -0.7208597036955536 5.937875101488191e-06 -9.57114917145482e-06 0 0 0 0
442000000 0.6927388819526121 -0.7320909588700109 7.628031112673583e-06 -7.402322358360383e-05 0 0 0 0
451000000 0.6805116031629354 -0.7433508198258103 0.0001201342679359024 -4.530510185926452e-05 0 0 0 0
460000000 0.6696550860812791 -0.7538699606913655 -2.774245201006e-05 -7.908251779216368e-06 0 0 0 0
469000000 0.6571744116603121 -0.7651506961485793 2.6731433703346513e-05 3.5889444233769183e-05 0 0 0 0
478000000 0.6440974422397013 -0.7762379871301435 8.878185388361707e-05 3.119230042799307e-05 0 0 0 0
487000000 0.6323396002222993 -0.786876183108966 2.258919145005621e-06 2.283163901796004e-05 0 0 0 0
496000000 0.6188295558541502 -0.7987283541461635 -5.8278246604963785e-05 0.00013174206849573454 0 0 0 0
505000000 0.6071477764381082 -0.8077261843327267 -1.2125977390035378e-06 -1.2190426809147805e-05 0 0 0 0
514000000 0.5926715712067662 -0.8197741609773083 -4.267173455618383e-05 -2.5354479908351487e-05 0 0 0 0
523000000 0.5809082935368485 -0.8279099954670558 -4.1707277381118914e-05 -2.6323713079640703e-05 0 0 0 0
532000000 0.5629292183899062 -0.8410304088161901 -3.913020022846431e-05 -2.6015257658618502e-05 0 0 0 0
541000000 0.551858815753253 -0.8497494937603612 2.015697698923557e-05 -4.894680994177054e-06 0 0 0 0
550000000 0.5353089629253073 -0.8611685371223199 -6.770398052878589e-06 3.22150836299813e-05 0 0 0 0
559000000 0.5236018869872435 -0.8679961623180567 4.5575392632386256e-05 2.5252152227424108e-06 0 0 0 0
568000000 0.5082859172688861 -0.8803598351762796 1.9338617682613516e-05 3.704906221571153e-05 0 0 0 0
577000000 0.495553828518235 -0.8879130954799509 3.3995271344668715e-05 1.2083089733737486e-05 0 0 0 0
586000000 0.47658365172293754 -0.8971611147752013 -3.3218965092300996e-05 -2.7056231882274378e-05 0 0 0 0
595000000 0.4557371212856957 -0.9077616866917088 -2.6494583434137737e-05 1.2557028557261216e-05 0 0 0 0
604000000 0.44220068642595656 -0.9141777906051671 3.33738108828052e-05 1.544570904251465e-05 0 0 0 0
613000000 0.42861657875175413 -0.9228589445722183 1.317229211075633e-05 5.7285899867325496e-05 0 0 0 0
622000000 0.4100294132808549 -0.9331171120556312 -3.9540696254466304e-05 -9.837103673370142e-06 0 0 0 0
631000000 0.3938431896125572 -0.9380854011497975 4.749153088054338e-05 1.5214040474585777e-05 0 0 0 0
640000000 0.3736629202428112 -0.9474043911072414 -1.691659299661115e-05 1.8322583966088585e-05 0 0 0 0
649000000 0.3507787521560387 -0.9558130468487714 -4.20921048797854e-05 1.554508456972295e-05 0 0 0 0
658000000 0.33587479715642454 -0.9599529337184735 1.3925634888471097e-05 -2.9488907296287835e-06 0 0 0 0
667000000 0.3159641195988032 -0.9654234943482327 -2.4074780774906246e-05 -1.690126311921878e-05 0 0 0 0
676000000 0.2989436589241152 -0.9709331384502188 -5.693827386686563e-05 9.925642127461895e-07 0 0 0 0
685000000 0.2835088553541626 -0.97677385275967 2.0209156443154976e-05 -2.1426554233709417e-05 0 0 0 0
694000000 0.2634184561036385 -0.9811772534190236 5.3623121723328545e-05 0.00010711660364450073 0 0 0 0
703000000 0.2441271478807465 -0.9834731378179326 -1.5557847718460482e-05 4.6871558030771195e-05 0 0 0 0
712000000 0.2242772976876818 -0.9881980224562683 3.580301299200315e-05 3.184893845752771e-05 0 0 0 0
721000000 0.2061091787246815 -0.9900721177143316 -1.998290080160527e-05 -6.11354003874338e-06 0 0 0 0
730000000 0.1876354117406685 -0.9912632052024813 -7.587565930560864e-06 3.573313393493055e-05 0 0 0 0
739000000 0.16109584619000264 -0.9955618493494267 7.71197555122505e-05 -2.3001546859136417e-05 0 0 0 0
748000000 0.13726610716297577 -0.9956243136860886 7.718811653749207e-05 3.0395913986745496e-05 0 0 0 0
757000000 0.1155263665707506 -0.9944234641361704 -1.535538122572276e-05 1.3493533418580556e-05 0 0 0 0
766000000 0.09838749674348886 -0.9945763310652997 7.043274169521151e-06 4.772132869011997e-05 0 0 0 0
775000000 0.08005939078360141 -0.9936785514363675 5.718981088848279e-05 3.621383549888883e-05 0 0 0 0
784000000 0.057185576789587605 -0.990633030024867 4.070139952355055e-05 1.9707891492136808e-06 0 0 0 0
793000000 0.0326687963510465 -0.9881429838789874 2.732658750471672e-05 -6.299432688564965e-05 0 0 0 0
802000000 0.022820136663804034 -0.9843939407553159 2.2471667989319866e-05 -3.764805429664159e-05 0 0 0 0
811000000 -0.0088057259245921 -0.9831513622198346 3.440052569615351e-05 1.3097110314672826e-05 0 0 0 0
820000000 -0.012337708522602872 -0.9762500921740365 0.00012284394973412135 -5.6549282690313077e-05 0 0 0 0
829000000 -0.03409820271074944 -0.9725049993037342 6.416448016105935e-05 -2.8574179762417386e-05 0 0 0 0
838000000 -0.057096865719744476 -0.9662039843199066 -1.430142921477492e-05 6.911822502114587e-05 0 0 0 0
847000000 -0.08095291279106584 -0.9598937626886228 2.198224305617169e-05 -2.7389262553972438e-05 0 0 0 0
856000000 -0.09082969745907297 -0.9544926734407283 3.882273018693731e-05 5.019589001223054e-05 0 0 0 0
865000000 -0.11409648927414619 -0.946267143775781 6.186425448440904e-05 -1.3304779524011914e-05 0 0 0 0
874000000 -0.12792969317318673 -0.9399302077387153 1.1558043213320155e-05 -6.995680643083217e-05 0 0 0 0
883000000 -0.1489045400533411 -0.9339341127263655 4.1900001798565917e-05 -2.4867566458775046e-05 0 0 0 0
892000000 -0.16168784595709773 -0.923583670857192 4.8486822489927514e-05 3.6815183334168246e-06 0 0 0 0
901000000 -0.17985403636409414 -0.918385666073754 4.75475404832609e-06 1.6686982711339247e-05 0 0 0 0
910000000 -0.19332972329292292 -0.9081572630803529 6.889801800538848e-05 -4.87840239365775e-06 0 0 0 0
919000000 -0.2021944819006188 -0.9019835000095449 8.127407696543791e-05 3.268243194601226e-05 0 0 0 0
928000000 -0.22056866277749632 -0.8929501725296806 6.983781649553327e-05 2.6168454976553165e-05 0 0 0 0
937000000 -0.22998359042039018 -0.8858872162063431 3.1431678453488584e-05 -3.137493916146127e-05 0 0 0 0
946000000 -0.24234539480703995 -0.8773503651974213 -4.590902914832216e-05 -2.1900592139782262e-05 0 0 0 0
955000000 -0.25733631483858876 -0.8686455749956963 1.4285153605015461e-05 -6.769248854609576e-06 0 0 0 0
964000000 -0.26938257412038247 -0.8596951510228794 -3.362378333372973e-05 -5.303147627922664e-06 0 0 0 0
973000000 -0.28354063284409026 -0.8515147374007573 4.1445926432909934e-05 -6.016646715859802e-05 0 0 0 0
982000000 -0.297847534236313 -0.8431696044854053 -4.75552017855835e-05 9.71827808001766e-05 0 0 0 0
991000000 -0.3086508617493273 -0.8339739557564241 -2.0200461330797585e-05 -4.362384712281688e-05 0 0 0 0
1000000000 -0.3154568010149741 -0.827854318905172 4.5955040986630854e-05 -5.306056883526425e-05 0 0 0 0
