# HZ S RI R 50
100000000 1.0157047169734879 -0.2191338764090747 -5.497519542416647e-05 6.303665027874717e-05 0 0 0 0
109000000 1.0078260457611061 -0.2341089988588784 -2.1446092602819304e-05 -6.360361544721533e-05 0 0 0 0
118000000 1.002288252847213 -0.2497997867268872 -3.0410763563979008e-05 3.637204631575426e-05 0 0 0 0
127000000 0.9969782184090703 -0.26573731125970734 5.157904411362453e-05 1.1782269346801458e-05 0 0 0 0
136000000 0.9909923992662395 -0.2806234954541192 -2.1433879096339218e-06 -1.8106072309646093e-05 0 0 0 0
145000000 0.9829706256365405 -0.2958370433856177 6.014210295300064e-05 -4.028309677055063e-05 0 0 0 0
154000000 0.9766401118665504 -0.3111620419305659 4.672215326229214e-05 -2.1140892199989447e-06 0 0 0 0
163000000 0.9722999644747893 -0.32413374776637394 -1.940571742109933e-06 5.7327682595177276e-05 0 0 0 0
172000000 0.9644193114336375 -0.33981221235275816 2.8698762860533145e-05 6.4779418604187325e-06 0 0 0 0
181000000 0.9578177163587185 -0.35558057197818665 -3.464785742159158e-05 -8.488272812601365e-07 0 0 0 0
190000000 0.9510109796541758 -0.3703073464857781 3.249131081559931e-05 3.0140574125505437e-05 0 0 0 0
199000000 0.9435673435446449 -0.38503212200411424 -2.5981369734090066e-05 3.4140561389344864e-05 0 0 0 0
208000000 0.9360366451798956 -0.3986863080757897 3.5693562850113134e-05 -3.08414434203057e-05 0 0 0 0
217000000 0.9296633363753433 -0.41269866843090947 1.1282807422756413e-05 -1.0222911511890398e-05 0 0 0 0
226000000 0.9220434345979887 -0.4269883679068559 4.357633947719118e-05 -1.1927596400891136e-05 0 0 0 0
235000000 0.9149554695470216 -0.44034213220435064 -6.11410755639166e-05 1.3358795006050734e-05 0 0 0 0
244000000 0.9078783147455387 -0.45221094969573755 -5.740516443606435e-06 -2.5317029790221564e-05 0 0 0 0
253000000 0.8993850407851013 -0.46741334261462036 -4.738049230724732e-05 -0.00011090065661777899 0 0 0 0
262000000 0.890963920749774 -0.4819221522361256 -3.26357200170515e-05 -7.303843530209985e-05 0 0 0 0
271000000 0.8833735595842472 -0.49486376004573823 -3.558391600216697e-05 -6.958002892912153e-05 0 0 0 0
280000000 0.8727642190854962 -0.5098884656508992 -6.112909321321517e-06 -9.6609569285555e-06 0 0 0 0
289000000 0.8646090954921926 -0.5238407314120146 3.1230896311484637e-06 1.8744677794934723e-05 0 0 0 0
298000000 0.8562726189927562 -0.5369516688632013 -5.212442579105273e-05 -2.6197359599330876e-05 0 0 0 0
307000000 0.8471631745374163 -0.5491250276906094 -1.6883926811344275e-05 1.5234136335914023e-05 0 0 0 0
316000000 0.8396092530979661 -0.5621185768185792 1.2715461300181753e-05 1.333012867047834e-05 0 0 0 0
325000000 0.8289448931783362 -0.5751057671030452 4.2867924909955244e-07 5.500058087187547e-06 0 0 0 0
334000000 0.8192157518046519 -0.5887070191804422 1.5133353494434185e-05 -3.4862199340822155e-05 0 0 0 0
343000000 0.8099679295955713 -0.6012211945932603 -8.747078777370853e-06 -1.8249530512303508e-05 0 0 0 0
352000000 0.8007445854000537 -0.6124215203760925 -0.00012794343856294872 2.69335483219284e-05 0 0 0 0
361000000 0.7923054652737491 -0.6232350037260087 -2.025184694776277e-05 2.009831025420361e-05 0 0 0 0
370000000 0.7804779472136477 -0.6384804108588342 -8.657326216559723e-05 -3.1643461571305227e-05 0 0 0 0
379000000 0.7691912318891798 -0.6512051702628363 -2.982302188706848e-05 2.4046390175173003e-05 0 0 0 0
388000000 0.7590834224008779 -0.6629208393981086 3.2984607573767794e-05 -2.9856653997096685e-05 0 0 0 0
397000000 0.7493402675063408 -0.6737076269331719 5.280571575570887e-06 1.76832709301276e-05 0 0 0 0
406000000 0.7361493367250335 -0.6876795869782435 -2.485423962421326e-05 -1.8491695099177107e-05 0 0 0 0
415000000 0.7271918041313254 -0.6966051182980838 -2.4937815624067104e-05 1.884004730620894e-05 0 0 0 0
424000000 0.7162987355399366 -0.7100564144004654 5.6479704209532944e-05 3.285469797508468e-05 0 0 0 0
433000000 0.7064910302435866 -0.7184796507289221 -8.503334299616692e-06 1.8918986359054635e-05 0 0 0 0
442000000 0.6913389992662974 -0.7340328101456343 1.4620340548859924e-05 2.8860182558416685e-06 0 0 0 0
451000000 0.6817127759505822 -0.7436941941341306 -1.8484924403079526e-05 4.18077728052155e-06 0 0 0 0
460000000 0.6672990743443933 -0.7543623019575648 -4.470835558565097e-06 4.418023781622373e-05 0 0 0 0
469000000 0.6559162296548612 -0.7665276434400216 4.143235480395918e-05 3.0344705301175143e-05 0 0 0 0
478000000 0.6454333111701159 -0.7751087855378009 5.709052863654986e-05 5.6642423855326384e-05 0 0 0 0
487000000 0.632667431069965 -0.787241093365982 -7.090927889689522e-06 -2.1554198958350084e-05 0 0 0 0
496000000 0.6215099009574233 -0.7971970423458817 -4.213416164024418e-05 -3.172271125045093e-05 0 0 0 0
505000000 0.6042217703814325 -0.8097330925023519 8.90540826648477e-07 -2.1497372552728794e-05 0 0 0 0
514000000 0.5925997791255805 -0.8181672724004948 -1.8449612191154845e-05 3.226695596943275e-05 0 0 0 0
523000000 0.5779455817369583 -0.8294730065128544 -1.296713888512488e-05 -1.3989256835641304e-05 0 0 0 0
532000000 0.5692178181028323 -0.8379892229550693 2.787610716309744e-05 -2.600281949887375e-05 0 0 0 0
541000000 0.5538402667744629 -0.8485443108186853 4.9606457507631756e-06 -4.2018824251254804e-05 0 0 0 0
550000000 0.5379067788807558 -0.858911730048288 -7.40151152957577e-05 2.3738803251910697e-05 0 0 0 0
559000000 0.5230087583958306 -0.8701901214416158 1.4877231603794359e-05 0.00011644180384951258 0 0 0 0
568000000 0.5051089899560336 -0.8799296843186932 4.8986688069725425e-05 7.378872836309197e-05 0 0 0 0
577000000 0.49320237612482776 -0.8878066515047098 -3.3262335496628133e-05 -0.00010582985536933536 0 0 0 0
586000000 0.4737614046342591 -0.8989140905172034 4.757595970738684e-05 0.00011599992637048144 0 0 0 0
595000000 0.4579258787570383 -0.9069990755705886 6.233022702026424e-05 5.152872189480385e-06 0 0 0 0
604000000 0.44249931267691606 -0.9157025370233112 -4.876271971438064e-05 -3.760869790401152e-05 0 0 0 0
613000000 0.4219985417877815 -0.9260820624966981 3.4748715520558046e-05 3.3616211863209815e-05 0 0 0 0
622000000 0.4133795246384885 -0.9299925416365641 -6.607672624993585e-05 -3.150968670937945e-05 0 0 0 0
631000000 0.3935373752319452 -0.939248220778137 6.612512250878404e-05 6.680055646489463e-05 0 0 0 0
640000000 0.37129842914903627 -0.9471292247069703 -6.574608944201062e-05 2.1833600890560822e-05 0 0 0 0
649000000 0.35801286399808596 -0.9535377459740882 3.642673170757211e-05 -6.621870840651813e-05 0 0 0 0
658000000 0.3370426383587664 -0.9595045987549343 6.130075902819163e-05 5.0790229545206166e-05 0 0 0 0
667000000 0.3186859031811016 -0.9657971154599707 1.4723156564549017e-05 2.4398193969756756e-06 0 0 0 0
676000000 0.3008659531998472 -0.9702463909846766 -6.037554623776057e-06 3.333169998354069e-05 0 0 0 0
685000000 0.2814824708827899 -0.9756262276975589 -9.212357206386858e-06 -1.1566912988833485e-05 0 0 0 0
694000000 0.2633852885675364 -0.9799275919246135 5.423101997068362e-05 3.480837660400057e-05 0 0 0 0
703000000 0.24107174168408194 -0.9828438738928187 -3.979561936745221e-06 6.531924384736407e-05 0 0 0 0
712000000 0.2206320861858644 -0.9892740819989391 3.54750489493399e-05 8.417587738912575e-06 0 0 0 0
721000000 0.20671792636497344 -0.990140457516528 -7.062727588792603e-05 1.925591352297813e-05 0 0 0 0
730000000 0.181204532602825 -0.9926651521337232 4.191229737328309e-05 8.195415953342043e-05 0 0 0 0
739000000 0.1629288696477535 -0.9934800193740829 5.129521966630256e-05 3.7812612423547425e-05 0 0 0 0
748000000 0.138618605480949 -0.9944721931426106 5.974167083649279e-05 4.23733743182722e-05 0 0 0 0
757000000 0.1295695353146934 -0.9952234172491375 8.318019556171546e-05 1.3677646326028384e-05 0 0 0 0
766000000 0.09660674397498982 -0.9960149855497242 9.043931026687658e-05 2.488380712156428e-05 0 0 0 0
775000000 0.0788992885627183 -0.9942910143391448 0.00011633098202003081 8.446936662453742e-05 0 0 0 0
784000000 0.06119737025229736 -0.9914938373333171 0.00012386541380202706 3.9004749671944464e-05 0 0 0 0
793000000 0.036895456802221886 -0.9895988037857901 5.491194512898323e-05 -2.9347721357353664e-05 0 0 0 0
802000000 0.017436866454978397 -0.9850560372572751 9.462533775415842e-05 -5.862748184705849e-05 0 0 0 0
811000000 -0.006146455032504334 -0.9814743441409028 8.080713884673673e-06 -3.4195945472842216e-05 0 0 0 0
820000000 -0.019046955519962067 -0.9777320606544584 1.9725217538829274e-05 -1.1181264062707717e-05 0 0 0 0
829000000 -0.037512573451987254 -0.9708342427376938 3.958158647868477e-05 1.5079331339699487e-05 0 0 0 0
838000000 -0.05510907903661233 -0.9670488043146368 1.60582922048926e-05 -2.1131960589447085e-05 0 0 0 0
847000000 -0.07410434054692984 -0.959551424983088 5.490507127199489e-05 3.094088608444124e-05 0 0 0 0
856000000 -0.09473801098994913 -0.9543920722471365 0.000104471245612714 3.437142812498306e-05 0 0 0 0
865000000 -0.11427391527559656 -0.945674586226075 1.9054857332102627e-05 0.00010067177601191284 0 0 0 0
874000000 -0.12816194556343588 -0.9414372425116982 4.865459223895259e-06 -1.005656437786877e-05 0 0 0 0
883000000 -0.1352504291128422 -0.9344108737226238 -2.3675213247572903e-05 -4.056947840237631e-05 0 0 0 0
892000000 -0.15245821777242444 -0.9252100492611492 5.0416490832868205e-05 -5.041633373374929e-05 0 0 0 0
901000000 -0.18294129772940654 -0.9162629460044986 3.1213537744365884e-06 4.861737240252126e-06 0 0 0 0
910000000 -0.18633639755499198 -0.9110446736768983 -9.834697107571655e-05 -2.4554360203621107e-05 0 0 0 0
919000000 -0.20923140431275208 -0.9007681774815541 2.3218340138036996e-05 -2.6930280856020496e-05 0 0 0 0
928000000 -0.2169971233335445 -0.8932060482307699 4.145276121474819e-05 6.5146518005815696e-06 0 0 0 0
937000000 -0.23005758891284356 -0.8850560097555814 3.46593258725883e-05 -5.617333448647774e-05 0 0 0 0
946000000 -0.2442425359162848 -0.8797138345545809 -1.7538163971161475e-05 -3.275224621485351e-05 0 0 0 0
955000000 -0.26013677464669166 -0.8678025229711092 5.152299440154363e-06 -1.041772467394762e-06 0 0 0 0
964000000 -0.2628259934435299 -0.8626502620737311 4.09558477305503e-05 1.528340492496461e-05 0 0 0 0
973000000 -0.2844387072160144 -0.8519896000230178 1.6558374048001273e-06 -1.3104275639596908e-06 0 0 0 0
982000000 -0.2987175228858471 -0.8422546427943617 2.6505623582268986e-05 -4.684552266519714e-05 0 0 0 0
991000000 -0.30747997093187707 -0.8343972832392679 -1.787674026776214e-05 8.912460634585399e-06 0 0 0 0
1000000000 -0.31578599766225957 -0.8270776905749904 6.387032623800087e-06 -1.0691533094984812e-05 0 0 0 0
