# HZ S RI R 50
100000000 1.012087227821545 -0.21886505090550817 3.9348511087495754e-05 -1.8094786652157473e-05 0 0 0 0
109000000 1.0076350782523626 -0.23459150956354227 -4.0641580786341125e-05 -3.657855306532156e-05 0 0 0 0
118000000 1.0023466737692006 -0.24984518380203352 -3.105577758218256e-05 -1.5593166702044904e-05 0 0 0 0
127000000 0.9968279678999635 -0.26517237084886924 -6.948752023774493e-05 3.340895688054845e-05 0 0 0 0
136000000 0.9911461733491896 -0.2805114105673116 5.595175311193745e-06 3.7349142651289155e-05 0 0 0 0
145000000 0.983393807909322 -0.29619031946529856 -6.183098095364985e-06 -3.880124984613141e-05 0 0 0 0
154000000 0.9765906171832656 -0.3110220614694554 -1.8048612612103682e-05 7.922495212782337e-06 0 0 0 0
163000000 0.9709324503251192 -0.3253223047950538 1.9618938283322682e-05 2.492108605492607e-05 0 0 0 0
172000000 0.9640045579505642 -0.34197187919833005 8.746891821001473e-06 -6.162903314660532e-05 0 0 0 0
181000000 0.9575607256441947 -0.35506583684925297 1.0551330535362958e-05 2.4854429188727855e-05 0 0 0 0
190000000 0.9503319604382918 -0.369241915433893 -7.643644586446339e-06 -2.9626659027367275e-05 0 0 0 0
199000000 0.9438371360482369 -0.384416234275799 2.2287784608919656e-05 3.4922742994637605e-05 0 0 0 0
208000000 0.9368479871333629 -0.3982557533608825 -3.410837393315504e-05 -1.742491971741384e-06 0 0 0 0
217000000 0.9300670233192968 -0.4114671912529827 -4.4611111182731455e-05 5.110174893626122e-05 0 0 0 0
226000000 0.9216730878942707 -0.42847435289533087 -8.364296154761807e-05 1.6145431068366924e-05 0 0 0 0
235000000 0.9147824641066831 -0.44046392510498134 5.3644460436808747e-05 -1.9821672975203412e-05 0 0 0 0
244000000 0.9071541101018494 -0.4548733128818362 -3.3043169419696956e-05 4.952928927037356e-06 0 0 0 0
253000000 0.8991086523065397 -0.4676738223343233 2.2011035876112048e-05 3.4355858887256377e-06 0 0 0 0
262000000 0.8907967676952422 -0.4815327204182689 6.84033245759398e-05 1.5508815864912204e-05 0 0 0 0
271000000 0.882586255306405 -0.4953027140842215 2.4426590341206823e-05 -2.6378665152434753e-05 0 0 0 0
280000000 0.8739470263861171 -0.5096065698943114 2.705718912852479e-05 -2.4660723488468094e-05 0 0 0 0
289000000 0.8653788124871257 -0.5218081470857757 -5.04257878972124e-05 -9.064570047805716e-05 0 0 0 0
298000000 0.8559933852946927 -0.5369477093738007 1.9385608756248178e-05 4.423215649607334e-05 0 0 0 0
307000000 0.8453888893293957 -0.5532942471909096 1.195413076198076e-05 -4.665213907919031e-05 0 0 0 0
316000000 0.8397073504097134 -0.5626084685552039 1.6403625131364258e-05 -1.07694682887937e-06 0 0 0 0
325000000 0.8308189561122598 -0.5741495135030106 -4.671204180732981e-06 8.048380029078459e-06 0 0 0 0
334000000 0.82011725004549 -0.5865907528105794 4.382787623941029e-05 4.311754616689164e-05 0 0 0 0
343000000 0.8105839669839526 -0.6006576021020029 -1.1884369488370435e-05 5.8657563425133735e-05 0 0 0 0
352000000 0.8017447680958038 -0.6136660468095161 1.2428194417288804e-05 2.4464436776359575e-05 0 0 0 0
361000000 0.7927161432981358 -0.6249540577120799 -1.4114428512279902e-05 1.8401990592570247e-05 0 0 0 0
370000000 0.7813186344783858 -0.636929456067311 -4.928781819666936e-05 1.39235135063217e-05 0 0 0 0
379000000 0.7697462191174245 -0.6500044387094412 3.8492447214417113e-05 -6.5155718389931195e-06 0 0 0 0
388000000 0.7608338511392663 -0.6604149757381185 -3.648730986921887e-05 -4.521799469296378e-05 0 0 0 0
397000000 0.7475109596716383 -0.6745827202909306 1.4750943219946832e-05 -2.3654060346469332e-05 0 0 0 0
406000000 0.7379698752210174 -0.6859347325586563 2.2086003517962338e-05 3.543237699314992e-06 0 0 0 0
415000000 0.7267448304654939 -0.6971586496802507 -5.843444121646394e-05 3.847242022702114e-05 0 0 0 0
424000000 0.7161473719757169 -0.7090203115051735 -2.2095192895976174e-05 -5.831515136119292e-05 0 0 0 0
433000000 0.7028716150809555 -0.7212086824456431 1.6374581062651272e-05 4.689245560334158e-06 0 0 0 0
442000000 0.691590076985963 -0.733122771949631 1.564930376487383e-05 -5.879079997905806e-05 0 0 0 0
451000000 0.6815348015032326 -0.7429657157604657 0.00010896494723480037 3.902041591328766e-05 0 0 0 0
460000000 0.6699267740047288 -0.7530993246588576 -1.285149304171142e-06 5.264866640883209e-05 0 0 0 0
469000000 0.6593586152864593 -0.763057592955707 3.096925904191049e-05 2.9188744966096866e-05 0 0 0 0
478000000 0.6450408945243042 -0.7766288097568439 -8.596296823853486e-06 -1.1018063001436277e-05 0 0 0 0
487000000 0.6306807440521764 -0.7876288563996648 1.344216735893124e-05 -6.53310634730725e-06 0 0 0 0
496000000 0.6208998719729768 -0.7963641946958062 6.675612273254003e-05 -1.959791088884366e-05 0 0 0 0
505000000 0.6064489881916397 -0.8089611299141527 -5.922670345458646e-05 6.247425680077615e-06 0 0 0 0
514000000 0.5930535229138582 -0.8188326782158721 6.746562143504302e-05 2.7858841751653538e-05 0 0 0 0
523000000 0.5787009772938065 -0.8295535700056125 -2.5756001049604484e-05 -1.6594729971194325e-05 0 0 0 0
532000000 0.5656907498080554 -0.8397090516978567 -5.866082993575686e-05 6.654589461293635e-05 0 0 0 0
541000000 0.551503667863798 -0.8494351827374143 -4.657635396322868e-05 1.2228708691219697e-05 0 0 0 0
550000000 0.5381664879406783 -0.8601865018779962 4.3539020477512045e-05 6.737629726395041e-05 0 0 0 0
559000000 0.524393740687511 -0.8682598798955008 9.5125043499619e-05 3.059512966456776e-05 0 0 0 0
568000000 0.5080801312372912 -0.8790896492601111 -3.5595499409977254e-05 3.614820247614063e-05 0 0 0 0
577000000 0.491491583299954 -0.888147343515635 -0.00011604886568534544 7.441248795792679e-06 0 0 0 0
586000000 0.46980087222723277 -0.9000388301336102 5.844732523736248e-05 -1.1865585708430885e-05 0 0 0 0
595000000 0.45659274146834095 -0.907981058455931 3.6197251608970305e-05 -5.025368738576409e-06 0 0 0 0
604000000 0.44249557806906514 -0.9149961588787843 1.1124260930912292e-05 -6.291544140558294e-06 0 0 0 0
613000000 0.42788648762464854 -0.9218728351544903 3.048336762518723e-05 -1.0691023665877944e-05 0 0 0 0
622000000 0.4073466244683565 -0.9325977712991804 2.078127716824363e-05 -9.747105373277996e-06 0 0 0 0
631000000 0.3963181586666636 -0.9380550246836329 2.988995679719345e-05 1.585653761627571e-05 0 0 0 0
640000000 0.37201883830682736 -0.9470496073018003 1.6907145911170088e-05 -1.1693778709877298e-05 0 0 0 0
649000000 0.36107853499464104 -0.9506126867740019 -1.699290810985837e-05 1.9209863193409805e-05 0 0 0 0
658000000 0.34676881221665407 -0.9554903095615688 4.0566685064012446e-05 5.6695895836727125e-05 0 0 0 0
667000000 0.3148936595099129 -0.9676421382700291 4.5260134621321066e-05 0.00010751185221495187 0 0 0 0
676000000 0.29472551595223995 -0.9731214081450236 9.962806394618621e-05 3.861739108837306e-05 0 0 0 0
685000000 0.2802642943251506 -0.9745431643338148 -3.27214159190144e-05 -1.426475055225478e-05 0 0 0 0
694000000 0.2617469541529762 -0.9809498032075993 -3.164656359793583e-05 -1.4678991623834057e-05 0 0 0 0
703000000 0.23844252566240615 -0.9841983756585423 6.156335914042566e-06 7.176201368522106e-05 0 0 0 0
712000000 0.22009701613455598 -0.9876479889495478 2.7511631493403008e-05 4.689093117335591e-05 0 0 0 0
721000000 0.20330446761920654 -0.9904825609424667 4.168607675550598e-05 2.993792331751571e-05 0 0 0 0
730000000 0.17339193320775773 -0.9946809087986395 4.588241919161049e-05 8.20679742377075e-05 0 0 0 0
739000000 0.1651439432350118 -0.9945412627563445 -5.04060155880618e-05 0.00012352849075640735 0 0 0 0
748000000 0.13681465366648793 -0.9964929288642669 3.7438874229500494e-05 5.894460913372614e-05 0 0 0 0
757000000 0.115160021782956 -0.9946321316522172 9.496820373171238e-05 -3.694050502774213e-05 0 0 0 0
766000000 0.09435051162016414 -0.9953430946538234 3.526923209532177e-05 5.740252137904247e-05 0 0 0 0
775000000 0.08008106704631139 -0.991477562687476 6.156879013828297e-05 4.8582059703120875e-05 0 0 0 0
784000000 0.05784179578114414 -0.9919701981761794 -9.4886458437791e-07 2.7057167318292768e-05 0 0 0 0
793000000 0.03831309046783984 -0.9885182411885616 -1.2972487065401248e-05 1.6081733294407225e-05 0 0 0 0
802000000 0.01600920374552869 -0.9841333184299406 3.569206517716333e-06 -7.023938797617132e-05 0 0 0 0
811000000 0.004181118686539348 -0.9806530906563404 3.14030959680369e-05 -1.9809232627978746e-05 0 0 0 0
820000000 -0.021381539213694872 -0.9774419162930504 4.573385600718307e-05 -3.920431154893913e-06 0 0 0 0
829000000 -0.03524663166012029 -0.9729778151251285 0.00010093202418596457 -1.2934896011056717e-06 0 0 0 0
838000000 -0.05278203909325542 -0.9690617185335636 1.8272741798972228e-05 1.957381282047167e-05 0 0 0 0
847000000 -0.07313087516981502 -0.9616843741819093 2.9231843253955346e-05 -0.00010202387075943485 0 0 0 0
856000000 -0.09022461882124684 -0.9547523967541487 4.790613557405108e-05 -3.388206505943798e-05 0 0 0 0
865000000 -0.11118070646104995 -0.9486216543465161 5.028305631155649e-05 1.783833903029779e-05 0 0 0 0
874000000 -0.11917384626475486 -0.9418398081189223 0.00012155876486530873 4.25821671495702e-05 0 0 0 0
883000000 -0.14541308595626556 -0.9330235913645356 8.38610442437396e-05 2.9934564776554945e-05 0 0 0 0
892000000 -0.15697396691919846 -0.9273772230482927 -6.376870181360493e-05 -4.4618803734160374e-05 0 0 0 0
901000000 -0.168145950480137 -0.9205820891688852 2.3710359920838316e-05 1.5114515338729588e-06 0 0 0 0
910000000 -0.18323858011570315 -0.9115637325729443 -3.2705538940807e-05 -2.9669546859763046e-05 0 0 0 0
919000000 -0.20178738567194604 -0.9043135562346177 2.0372532130989013e-05 5.474344281512831e-05 0 0 0 0
928000000 -0.21578411584820067 -0.8940609672919824 2.065211078638048e-05 -3.21738364672043e-05 0 0 0 0
937000000 -0.23190617944459807 -0.88714854634658 3.0462679144600072e-05 1.3959400491689176e-06 0 0 0 0
946000000 -0.244826871574686 -0.8782575581431491 -2.36308697125201e-05 1.9260032269666948e-05 0 0 0 0
955000000 -0.2559999275609147 -0.868670328268432 -3.6176516683235273e-06 -6.240801924855277e-05 0 0 0 0
964000000 -0.2718199497319109 -0.8607194631863962 2.2970654425177737e-05 4.278468499245162e-05 0 0 0 0
973000000 -0.2857870613101586 -0.8515226402388983 8.960173905222863e-05 -3.1294925191304337e-06 0 0 0 0
982000000 -0.29351011489310697 -0.8449418706432459 -3.111115250459906e-05 2.2353037407902335e-05 0 0 0 0
991000000 -0.3126017711016152 -0.8326437752269671 4.216716225621068e-05 -5.4562698919608675e-05 0 0 0 0
1000000000 -0.31496452476444364 -0.8276669224317705 5.377239123143006e-05 2.4029671804436645e-05 0 0 0 0
