# HZ S RI R 50
100000000 1.0130350829757813 -0.21912318321288232 8.617376257707235e-05 -3.359013680201573e-05 0 0 0 0
109000000 1.0078492188969026 -0.23473631934287337 1.0612624689635841e-05 5.888657169682626e-05 0 0 0 0
118000000 1.0020901851568431 -0.25047017785658693 -1.1533209907331845e-05 2.288151387163683e-05 0 0 0 0
127000000 0.997024431737448 -0.2652254296527313 -1.2818705494696276e-05 1.4461914832426768e-05 0 0 0 0
136000000 0.991212027417015 -0.2800383775190587 -3.678502612012997e-06 -4.021327606341357e-06 0 0 0 0
145000000 0.9831373905920539 -0.29511641297756425 1.7281931450186115e-06 1.133288152741188e-05 0 0 0 0
154000000 0.9767265297058867 -0.311110562217222 -1.3245678970598875e-05 -2.200506790221016e-06 0 0 0 0
163000000 0.9703979271931971 -0.32539878219764656 -4.932015919366344e-05 -4.598926637980278e-05 0 0 0 0
172000000 0.9650537992004784 -0.3393679452418518 -4.669491890142321e-05 -4.898945483871075e-05 0 0 0 0
181000000 0.9578437843734071 -0.3543986699203985 1.5787102755407156e-05 3.445022913683247e-05 0 0 0 0
190000000 0.9503098734643217 -0.36950234894139644 5.055109456126884e-06 1.8838743815313316e-05 0 0 0 0
199000000 0.9441111247446192 -0.38427265735765354 1.3176738261630567e-05 4.344374090690694e-05 0 0 0 0
208000000 0.936866384106017 -0.3985632755540409 1.7246720712608666e-05 3.8607103861202006e-05 0 0 0 0
217000000 0.9291587245938463 -0.4139730201564494 4.714612377584455e-06 -8.584768612705137e-06 0 0 0 0
226000000 0.9219201526713553 -0.42691174538276805 -6.125245356339401e-06 1.4121472703398892e-05 0 0 0 0
235000000 0.9140815853912783 -0.4421577246237741 -5.256349074412685e-05 3.055724594425809e-05 0 0 0 0
244000000 0.9071012092940542 -0.4544792809579025 -2.4976864148349902e-05 -5.821885790400548e-05 0 0 0 0
253000000 0.8987193318330983 -0.4685716493997632 -6.12427742282721e-05 3.1352408961187825e-05 0 0 0 0
262000000 0.8923176078079124 -0.48047248603724235 -1.0037146836316859e-05 -1.886036313143284e-05 0 0 0 0
271000000 0.881804114335809 -0.4961958273414406 2.995489344723397e-06 -6.39742744469185e-05 0 0 0 0
280000000 0.8740557125700772 -0.5097287889271354 1.8489627078882644e-05 -1.4092131022077434e-05 0 0 0 0
289000000 0.8628599059096794 -0.5251299363678017 -7.815429877910353e-06 -2.975925506900849e-05 0 0 0 0
298000000 0.8561636669717398 -0.5377730141558006 -1.3222504405988172e-05 1.4514246858881695e-05 0 0 0 0
307000000 0.8485103767808027 -0.5503392351379308 -1.0124756761307739e-05 2.0285513037486124e-05 0 0 0 0
316000000 0.840153910107348 -0.5605487746544071 1.3428568550168534e-06 2.6549011830232617e-05 0 0 0 0
325000000 0.8296803446455578 -0.5751475285430684 1.9050331435972443e-05 -2.2039241872009153e-05 0 0 0 0
334000000 0.8194675953874233 -0.5865301331780299 2.168685184222453e-05 -2.2125688231819244e-05 0 0 0 0
343000000 0.8118333428242843 -0.5983576880717228 2.53880257730152e-05 4.804667755307295e-05 0 0 0 0
352000000 0.8028804374406376 -0.6110592233811057 2.3507145634902924e-05 -4.672211583804688e-06 0 0 0 0
361000000 0.7902517190930131 -0.6263617431770937 4.2397590021232746e-05 -4.775605962235162e-05 0 0 0 0
370000000 0.7805184218121822 -0.6370676827378046 -2.9596614715596008e-05 -2.854511261044023e-06 0 0 0 0
379000000 0.7686599270304872 -0.6509612028634195 -1.9460569678192572e-05 -1.4853297160840873e-05 0 0 0 0
388000000 0.7599464733208033 -0.6615184946951504 1.1457442973677539e-05 -3.612371127914782e-05 0 0 0 0
397000000 0.7492909369161052 -0.6729693304504254 -3.829622928606905e-05 -4.350722094415228e-05 0 0 0 0
406000000 0.7397333167885307 -0.6828632133969106 -1.3501141881739105e-06 3.5895136895727096e-05 0 0 0 0
415000000 0.7287127082048637 -0.6959709364535605 1.3124520922591612e-05 -1.8654681096512033e-05 0 0 0 0
424000000 0.7173475777569206 -0.7075374867892704 -5.40816884982759e-05 -7.269203477414986e-05 0 0 0 0
433000000 0.7055336866600768 -0.7189985080755544 1.2257145061889309e-05 3.626414959458021e-05 0 0 0 0
442000000 0.6922835880131335 -0.732573058441146 -6.417067683317351e-05 3.0355770175162764e-05 0 0 0 0
451000000 0.6801478883717972 -0.7437927527300912 -3.118435270292716e-05 2.2293948237659706e-05 0 0 0 0
460000000 0.6710122372905193 -0.7528792350274329 -5.974516698658202e-05 -1.2162116561092971e-06 0 0 0 0
469000000 0.6579238551973805 -0.7649963631819129 -1.4918966372215428e-05 -3.116369630055233e-05 0 0 0 0
478000000 0.6422776515145255 -0.7777011299799159 -6.929295788527105e-07 -8.088802020794205e-06 0 0 0 0
487000000 0.6353167855685199 -0.7859622343445808 -5.427479352611008e-05 -4.083555796782214e-05 0 0 0 0
496000000 0.6209806159218518 -0.7966406551934291 7.027458982889217e-05 -4.163361966395161e-05 0 0 0 0
505000000 0.6030047333387119 -0.811364535216201 1.0635043583088016e-05 8.615893374087004e-05 0 0 0 0
514000000 0.5916012732267952 -0.8197380131578293 8.001824485274578e-05 -1.0693370220227165e-05 0 0 0 0
523000000 0.5795300269064609 -0.828761646680715 3.6741820886114074e-05 -1.4525729808727854e-05 0 0 0 0
532000000 0.5659636244993071 -0.838888852165942 -6.16201399693476e-05 -1.4974610599294538e-05 0 0 0 0
541000000 0.5544375581897515 -0.8471808930754691 2.8453862441132833e-05 9.97108084241935e-06 0 0 0 0
550000000 0.5356284964649712 -0.8599829617735273 -8.402466420146443e-06 -4.910614377526234e-05 0 0 0 0
559000000 0.5226963742967624 -0.8685243956187718 -6.791207258798196e-06 -6.300442900238629e-05 0 0 0 0
568000000 0.5044136208635278 -0.8805859455606323 -7.275875853593575e-05 -4.4245281306292016e-05 0 0 0 0
577000000 0.4942692224313395 -0.8863827583464785 6.433933084042486e-05 5.9012446389661715e-05 0 0 0 0
586000000 0.4769324073187354 -0.8977681513055586 -3.949456946042704e-06 -6.246916530136579e-05 0 0 0 0
595000000 0.4642400663317899 -0.9048506727159163 -3.106649640296071e-05 5.1274527870942e-05 0 0 0 0
604000000 0.4394501580206922 -0.9172623609683862 -6.784842064215095e-06 -6.38389181050848e-06 0 0 0 0
613000000 0.4269868877634476 -0.9233869499137474 -7.515760941059169e-05 -5.193495479439039e-06 0 0 0 0
622000000 0.41351008329152766 -0.9285153007486499 4.343073107919796e-05 4.938733334406844e-05 0 0 0 0
631000000 0.39446066220126036 -0.9390266286585454 -3.0391726863716952e-05 1.9086684505160083e-05 0 0 0 0
640000000 0.3755697218914752 -0.947732769343472 6.516501503068938e-05 -6.142367777103426e-06 0 0 0 0
649000000 0.3579517391840619 -0.9524257329234426 5.245647664655174e-06 -6.5880286818743434e-06 0 0 0 0
658000000 0.3378182844589004 -0.9595268656374283 0.00010015802051020493 1.1664713892829485e-05 0 0 0 0
667000000 0.3203849631661366 -0.965431625696023 7.024455379330506e-05 7.053886518326834e-05 0 0 0 0
676000000 0.29745554665849244 -0.9733667218209936 7.5664050170161e-06 9.366857946971157e-06 0 0 0 0
685000000 0.2787955296744087 -0.974941725429848 -1.0232612434272554e-05 0.0001441407086653062 0 0 0 0
694000000 0.25984386314518976 -0.9818337334301277 -1.505837565093128e-05 7.845525298800597e-05 0 0 0 0
703000000 0.23886866510156554 -0.983046288181275 7.107984442954076e-06 5.310187099371956e-05 0 0 0 0
712000000 0.21986472561926643 -0.9886488273797523 -4.0322918232961405e-05 -6.549470627329739e-06 0 0 0 0
721000000 0.20155511509995022 -0.991875132817969 -3.219320527225435e-05 4.819225132914888e-06 0 0 0 0
730000000 0.18042085080837572 -0.9931321309293147 4.141263777339012e-05 2.7257002575613845e-05 0 0 0 0
739000000 0.15750840731281976 -0.9947463680859182 2.3871615330605126e-05 6.216457033016964e-05 0 0 0 0
748000000 0.1450580461284682 -0.9938459558274574 3.209154591328778e-05 3.029463106316513e-06 0 0 0 0
757000000 0.11854898834193574 -0.997282432571798 4.835511315554731e-05 1.4560970919630269e-05 0 0 0 0
766000000 0.09595012805761118 -0.9958005557873179 -6.362118811452746e-05 1.2032049150779705e-05 0 0 0 0
775000000 0.07923849299295144 -0.9919196427963733 2.0392453905692306e-05 6.001966618074113e-05 0 0 0 0
784000000 0.05745564375708611 -0.9910027886178618 3.899499376196888e-05 4.6390836392461964e-05 0 0 0 0
793000000 0.034779850008289266 -0.9902071922835645 2.3659289938425633e-05 4.1263625213396504e-05 0 0 0 0
802000000 0.025039363809219773 -0.9844899812738995 0.00012059949638312279 -4.0026842250558766e-05 0 0 0 0
811000000 -0.008078440577297447 -0.9801021899189318 4.798361027990887e-05 -1.1805808242568596e-05 0 0 0 0
820000000 -0.0201752424990331 -0.9770754872577999 1.2999402186145585e-05 -1.1010801581937702e-05 0 0 0 0
829000000 -0.042012648937912275 -0.9708162003101268 3.007909264640379e-05 8.304526541889974e-06 0 0 0 0
838000000 -0.06422528817300642 -0.9655671611976236 1.1421505210897574e-06 -6.401118642746771e-05 0 0 0 0
847000000 -0.07152523809287381 -0.9598495360243807 3.048201398826986e-05 -8.564328523992601e-06 0 0 0 0
856000000 -0.1025968537908435 -0.9550582603941404 -5.747086270084607e-07 2.9714928697916492e-05 0 0 0 0
865000000 -0.11298432094499657 -0.9452391818383027 1.8941024437611938e-05 2.338370151165511e-05 0 0 0 0
874000000 -0.12788658641844244 -0.9419739191651629 -2.7307379553937794e-05 -4.894347596587027e-05 0 0 0 0
883000000 -0.14480487087904653 -0.9357771406624119 7.235516529339297e-05 -3.1700852036454727e-06 0 0 0 0
892000000 -0.16081965384119698 -0.9253734733651007 4.9660779856726826e-05 1.6270914608070847e-05 0 0 0 0
901000000 -0.17378521363098226 -0.9184375121091078 6.403131317939736e-05 4.044100787163934e-05 0 0 0 0
910000000 -0.1934629427247794 -0.9100052124573198 2.7276332153964744e-05 -2.8872818452670302e-05 0 0 0 0
919000000 -0.210325533919636 -0.9009105895057129 1.4987693106770803e-05 -4.0849953155259066e-06 0 0 0 0
928000000 -0.21456748944285065 -0.8953658388747576 1.213952210107071e-05 4.747296621727587e-05 0 0 0 0
937000000 -0.23159119009222362 -0.8859293347985885 -6.597089515809616e-05 3.1681898242307754e-05 0 0 0 0
946000000 -0.24488423773539147 -0.8774765066751664 4.20280497602238e-05 -0.00011494390071344068 0 0 0 0
955000000 -0.26099402732723764 -0.8674910758327565 -1.5005840113669955e-05 2.078638517070011e-05 0 0 0 0
964000000 -0.26964889588633534 -0.8608709868678529 -2.7930710522064414e-05 2.5198629879435687e-05 0 0 0 0
973000000 -0.2834118712163469 -0.8529045972843238 2.244125948031567e-05 -8.40194606218274e-06 0 0 0 0
982000000 -0.2926239432470627 -0.8430779141765905 -4.182254818247652e-06 -1.4041740998819223e-05 0 0 0 0
991000000 -0.30629085821644697 -0.8348853550723891 3.7256545452451134e-05 -6.690781059932279e-06 0 0 0 0
1000000000 -0.3138817988252311 -0.8277970912809395 0.0001121234607324869 -3.540950037668839e-05 0 0 0 0
