# HZ S RI R 50
100000000 1.0148170146132094 -0.21940846032556635 5.864188844950474e-06 -3.165215618107698e-05 0 0 0 0
109000000 1.0074831524916086 -0.23466690422370903 1.4265937211296985e-05 2.4001805356418665e-05 0 0 0 0
118000000 1.0020671178704224 -0.24950950220136991 -6.598587931724307e-05 -2.9402017299860506e-05 0 0 0 0
127000000 0.9969215964410135 -0.26470790570441277 -3.7181455588071116e-05 -4.624987851406458e-05 0 0 0 0
136000000 0.9911480643843253 -0.2804416204042439 5.644920999743672e-06 1.387319507408572e-05 0 0 0 0
145000000 0.9827998202891013 -0.29481161089884084 3.4267895797179506e-05 2.1645353587408644e-05 0 0 0 0
154000000 0.976920155464206 -0.31099242701580815 2.4906434575019452e-05 -5.09639650463827e-05 0 0 0 0
163000000 0.9705933280451289 -0.3238661078271966 3.0520442385211037e-05 4.7007522173232995e-06 0 0 0 0
172000000 0.9643669707582433 -0.34013355194685657 -6.648905020872335e-06 -1.3461380426891004e-05 0 0 0 0
181000000 0.9577905950999802 -0.3555380357728592 -4.3461297727463834e-05 4.840784621260528e-06 0 0 0 0
190000000 0.9504095921771069 -0.37095411151181007 1.5961319599317526e-05 3.8140125527438e-05 0 0 0 0
199000000 0.9437590253972863 -0.3846832726962278 -1.066938416472954e-05 1.0635137467138827e-05 0 0 0 0
208000000 0.9377013723681671 -0.39596547562412643 -4.377093972383324e-05 -2.848146055860699e-05 0 0 0 0
217000000 0.9298837948610198 -0.4116262022651995 5.944799205079676e-06 9.410728143776856e-06 0 0 0 0
226000000 0.9219602192810014 -0.42688520148763753 3.875655676589218e-05 1.7109256953939146e-05 0 0 0 0
235000000 0.9144388532381202 -0.4408586667389835 3.4038629227840697e-06 -7.698430654957433e-06 0 0 0 0
244000000 0.9080357621081446 -0.45221531917426744 4.7651641831241e-06 -1.682656999325036e-05 0 0 0 0
253000000 0.9001043035359685 -0.4660352509496802 2.4841016641996532e-05 1.2872661583615953e-05 0 0 0 0
262000000 0.8907786185726553 -0.48248033621776526 -3.411387901436194e-05 1.7142212569305487e-05 0 0 0 0
271000000 0.8813000469350054 -0.4975179854338379 -2.6430487033754976e-05 -1.9875054601142318e-05 0 0 0 0
280000000 0.8738794674095558 -0.5096989188032027 -3.05817889237406e-05 -7.951252491806094e-06 0 0 0 0
289000000 0.8650661126406676 -0.5234058061536876 9.485488087310708e-06 -1.012403534055098e-05 0 0 0 0
298000000 0.857376141259505 -0.5346165415140627 -1.127473858387115e-06 1.5766454963649086e-05 0 0 0 0
307000000 0.8487386926728457 -0.5489243132722567 -5.8219072799109215e-05 8.355633626481535e-06 0 0 0 0
316000000 0.8387266337221305 -0.5617408550915338 2.5572585000725428e-05 -3.9021357474543905e-06 0 0 0 0
325000000 0.8295031083188779 -0.5746109939064316 3.4634957562372325e-05 1.7263003946086897e-05 0 0 0 0
334000000 0.8188664732440224 -0.5881037738892506 4.904056993964184e-05 -1.970590503281103e-05 0 0 0 0
343000000 0.8099977325755457 -0.599264138907863 -2.9984952789924394e-05 -1.3798853197421495e-05 0 0 0 0
352000000 0.7978776050400539 -0.6160308338750121 1.5451868464087708e-05 -3.0164250780540788e-05 0 0 0 0
361000000 0.790207312565237 -0.6243895261129693 4.715919758685979e-05 -4.1094827301359956e-05 0 0 0 0
370000000 0.7805872959194957 -0.6379255256452877 3.706082400581003e-05 -1.8999242395435598e-05 0 0 0 0
379000000 0.7718999934442131 -0.6498909289167557 9.512779723342497e-05 2.9809279571739733e-05 0 0 0 0
388000000 0.7592523877586389 -0.6628633302014852 -7.068375687654953e-05 8.438342176068178e-07 0 0 0 0
397000000 0.7497630841494153 -0.6728766279320756 -3.68005447688732e-05 2.328932989174529e-05 0 0 0 0
406000000 0.7373665569393325 -0.6869031522493011 -3.338096934769338e-05 -8.10183847086759e-06 0 0 0 0
415000000 0.7267334995696532 -0.6958377782116095 4.541882462653106e-06 1.8808047578243337e-05 0 0 0 0
424000000 0.718778768939539 -0.7077214621014277 -3.3536280418095705e-05 -9.247171419839929e-05 0 0 0 0
433000000 0.7068040322822259 -0.7189482475694292 1.1777529960446373e-05 3.0194747956647186e-05 0 0 0 0
442000000 0.6950747030398506 -0.7302475827646806 3.2813920375627354e-05 -2.1346733533040494e-05 0 0 0 0
451000000 0.6826657768270455 -0.7413272323200871 2.413342751171954e-06 9.605582914661288e-06 0 0 0 0
460000000 0.670632253066439 -0.7543672040995585 -1.4862909989586196e-05 2.2096660508247184e-05 0 0 0 0
469000000 0.65683542756275 -0.7660780487579142 -0.00010545278408458917 -1.4536002526817591e-05 0 0 0 0
478000000 0.6444040899703217 -0.7772964737274481 -1.561924532987254e-05 7.186392604149593e-05 0 0 0 0
487000000 0.6342344124091953 -0.78485173622613 1.2869948001563934e-05 -6.286432681214687e-05 0 0 0 0
496000000 0.6179965622408415 -0.7984586642224967 4.4846059416700784e-05 9.296469885588412e-05 0 0 0 0
505000000 0.6024787974835573 -0.8115297885347834 -3.873210853976634e-05 5.0413876177958386e-05 0 0 0 0
514000000 0.5952539646465964 -0.8178277262734902 -2.4986484624617015e-06 -5.1275504937303894e-06 0 0 0 0
523000000 0.5809978851697473 -0.8292514352059523 -6.473688282586307e-05 -3.5650649680111317e-05 0 0 0 0
532000000 0.5644087054204106 -0.840753494771429 6.668663876655613e-05 3.480616642093843e-05 0 0 0 0
541000000 0.5479577883667833 -0.8520728200796686 -5.1303872232545955e-05 2.3567582395541562e-05 0 0 0 0
550000000 0.5374563516325128 -0.8590757838859018 6.596718043788562e-05 -7.244581335073059e-05 0 0 0 0
559000000 0.51836600561605 -0.8701579483164329 1.3357224667000108e-05 4.199946123914388e-05 0 0 0 0
568000000 0.506427658689392 -0.8789102881633782 -2.153924652456732e-05 6.20658262047281e-05 0 0 0 0
577000000 0.48897266702990266 -0.8891450026508756 -5.918361638247934e-06 -4.062743808213913e-05 0 0 0 0
586000000 0.4722924321480038 -0.8987739520238401 -4.068240905445838e-05 7.556863609167883e-05 0 0 0 0
595000000 0.4572519676691037 -0.9078988909564214 -4.049697004211552e-05 3.151833321745208e-05 0 0 0 0
604000000 0.4431150506186174 -0.9132289317534777 2.457061156561528e-06 -2.6883814628707288e-05 0 0 0 0
613000000 0.425801775520455 -0.924681819274464 3.615059090208137e-05 1.1695827224604992e-06 0 0 0 0
622000000 0.40908629350458803 -0.9329995112414645 8.782802063466716e-06 -4.316554182411985e-07 0 0 0 0
631000000 0.3960045989634359 -0.9369295479212827 -5.737889160983356e-06 -2.584214294912261e-05 0 0 0 0
640000000 0.3691618889663369 -0.949172543375917 2.6176716703023466e-06 0.00013743827727320763 0 0 0 0
649000000 0.35923685764685515 -0.9521674320410861 -4.69572070129867e-06 -8.070679330175452e-06 0 0 0 0
658000000 0.3368090546976335 -0.9606297162112384 4.133415838028884e-05 -4.0631833375551535e-05 0 0 0 0
667000000 0.3201301767719648 -0.9643594156914177 -3.713917806322797e-05 0.00016454342598626667 0 0 0 0
676000000 0.2923096978143124 -0.9742860151158423 0.00011972383734949076 3.4019528327229046e-05 0 0 0 0
685000000 0.2752768862358881 -0.9768548369449018 7.720300345324016e-05 6.501528127992489e-05 0 0 0 0
694000000 0.26250432346874514 -0.9808090358906182 -1.940624562971679e-05 0.00014641702899567926 0 0 0 0
703000000 0.24267610458688116 -0.9853350359717913 -5.2977906986729554e-05 -1.5531921094300988e-05 0 0 0 0
712000000 0.21502448345343878 -0.9901351585230616 1.2165769165023705e-05 4.813190652925498e-05 0 0 0 0
721000000 0.20398664245871975 -0.988678822710649 2.3347818656870452e-05 6.97321742505322e-06 0 0 0 0
730000000 0.18024532441082294 -0.9937959223192536 0.00011724444589412551 -1.158335432387087e-05 0 0 0 0
739000000 0.1649706049721351 -0.9936004288237628 -6.390853731425577e-06 2.1098985857250975e-05 0 0 0 0
748000000 0.14005570306415044 -0.9935629029675744 4.818783334954156e-05 0.00011213655450625626 0 0 0 0
757000000 0.11421970500426856 -0.9945605522183965 8.47797143124038e-05 9.929386918795354e-05 0 0 0 0
766000000 0.099617421760573 -0.9949522928484821 2.9941180850910636e-05 7.030677476541853e-06 0 0 0 0
775000000 0.07256203486523105 -0.993425771782908 8.79733950361536e-05 4.595310302440155e-05 0 0 0 0
784000000 0.05864075617718185 -0.9914153861142505 4.646079859655126e-05 8.172153618248826e-05 0 0 0 0
793000000 0.03907493647483001 -0.9887848671229229 8.458400953161896e-05 -6.988564609693729e-05 0 0 0 0
802000000 0.02174124394289346 -0.9835818293272169 6.547860153874483e-05 2.850730164022118e-05 0 0 0 0
811000000 -0.0056544172852748195 -0.980527771189851 4.5194051526984964e-05 -5.9244490833886804e-05 0 0 0 0
820000000 -0.024996950004090798 -0.9778656437415053 2.6210693502636666e-05 2.804409730021304e-06 0 0 0 0
829000000 -0.03816647727279221 -0.9710619589906634 0.00011358787572041733 2.5060377692076105e-05 0 0 0 0
838000000 -0.05905363701225649 -0.9660989775929777 2.2329661874454366e-05 -9.659839061826695e-06 0 0 0 0
847000000 -0.06799684899403809 -0.9617195035343412 2.9871672212071128e-05 -3.3470878564221655e-05 0 0 0 0
856000000 -0.08902075870117794 -0.9543583201419764 4.580715350086515e-05 1.4017308206105653e-05 0 0 0 0
865000000 -0.11027354205009243 -0.9493221718469854 0.00010825553590546304 7.716402430651422e-05 0 0 0 0
874000000 -0.12408920171850193 -0.9410890272092293 -1.283387719477654e-05 -4.178633564007164e-05 0 0 0 0
883000000 -0.1415088813017845 -0.9343406756463996 2.7859570168467756e-05 -8.940331941820857e-06 0 0 0 0
892000000 -0.15949037359120338 -0.9261972852215424 6.033920676167914e-05 3.0586419105678407e-05 0 0 0 0
901000000 -0.17220858416918933 -0.9168528187341394 4.011801247903845e-05 1.7008298771463164e-05 0 0 0 0
910000000 -0.1854691734702438 -0.9112368254176946 -1.2783492923846356e-05 3.887053427615444e-05 0 0 0 0
919000000 -0.19932560398200744 -0.9028024629940397 2.298632802870844e-06 2.9230169222801156e-05 0 0 0 0
928000000 -0.2153072010558299 -0.8938273446625588 7.545891016682157e-05 9.940118649086216e-05 0 0 0 0
937000000 -0.23218634652233688 -0.8858126339390501 4.229165997227567e-05 4.0360695522751704e-05 0 0 0 0
946000000 -0.2376747423287054 -0.8804784952734456 1.1825501360330828e-05 6.818698335316646e-05 0 0 0 0
955000000 -0.25739582580955994 -0.8685582602724827 -2.1107799527890857e-05 4.0495061330346554e-05 0 0 0 0
964000000 -0.2683367947751709 -0.8607869767046984 -4.455845249787739e-05 -2.428382227206478e-05 0 0 0 0
973000000 -0.2838961841695627 -0.8533480429662057 -4.6408886626097614e-05 3.8043275440693286e-05 0 0 0 0
982000000 -0.29573397954513775 -0.8445724302953925 4.644473412594772e-05 -4.345281083610891e-05 0 0 0 0
991000000 -0.3037336937044995 -0.8357910193235626 3.277652978100791e-06 4.7464896753396785e-05 0 0 0 0
1000000000 -0.323814192884591 -0.8246695397445902 -2.172768552724196e-06 9.056724690298425e-06 0 0 0 0
