# HZ S RI R 50
100000000 1.0124151823309586 -0.21933625984883257 6.475485557215424e-05 6.6694150364982485e-06 0 0 0 0
109000000 1.0077378255030862 -0.23432499124946488 -3.393054572056014e-05 -3.8668436391430834e-05 0 0 0 0
118000000 1.0025223505452698 -0.2498654269559441 -7.997880760943062e-06 0.00010105323764256299 0 0 0 0
127000000 0.9969177025802451 -0.2649319919500023 7.200041540793529e-06 -5.470515650116914e-06 0 0 0 0
136000000 0.9916677359608942 -0.28007412152216066 -4.540069904423643e-05 5.674386284552603e-05 0 0 0 0
145000000 0.9832054272783717 -0.29581106493669024 -1.189135373740276e-06 2.718149496827375e-05 0 0 0 0
154000000 0.9763541908169071 -0.31072099790255614 -3.77556952683399e-05 4.531978613738285e-05 0 0 0 0
163000000 0.9712607480707502 -0.3249498149038253 -1.3564509250225986e-05 2.0664943787167132e-05 0 0 0 0
172000000 0.9647536694758575 -0.3393632748484256 -7.679673613063806e-06 6.365072166307839e-05 0 0 0 0
181000000 0.9587466309802626 -0.35401858945083414 -3.285955915891162e-05 -2.2970473996553042e-05 0 0 0 0
190000000 0.9507809868896936 -0.36964290706360914 6.785435896170889e-07 -3.565633968896249e-06 0 0 0 0
199000000 0.9438964966247089 -0.3844783386944569 5.230116694676058e-06 -2.460336532043895e-05 0 0 0 0
208000000 0.9366753099657122 -0.39909042768316877 8.143946378084456e-06 3.652168482443518e-05 0 0 0 0
217000000 0.9298002547930199 -0.4120280163911687 4.296075637998816e-06 -3.773392152756754e-05 0 0 0 0
226000000 0.9220438769789595 -0.42694900805978137 2.4995504316963624e-05 2.575368131867194e-05 0 0 0 0
235000000 0.9147269632023199 -0.44014592022199595 -2.4088233110410824e-05 -1.8417645251132493e-05 0 0 0 0
244000000 0.9068338528640861 -0.4541391051747463 -1.0637145447516154e-05 1.3782761682876159e-05 0 0 0 0
253000000 0.8990570924671434 -0.4688059961762437 3.543313624847729e-05 3.3270180790781175e-05 0 0 0 0
262000000 0.8910858542697276 -0.48089920197645636 -1.740025975812978e-05 -2.5835360134263247e-05 0 0 0 0
271000000 0.8822616542122237 -0.49563418650079677 2.72865065444933e-05 2.1311424328405444e-05 0 0 0 0
280000000 0.8735349498625183 -0.5088339660010265 -1.3570126380245418e-05 4.5772225637705265e-05 0 0 0 0
289000000 0.8653683751376371 -0.5222939512254259 5.6555529201875406e-05 3.2668796318731495e-05 0 0 0 0
298000000 0.8570743677066601 -0.5359442076849245 -2.146954722537502e-05 -4.32449229556504e-06 0 0 0 0
307000000 0.8467506296875011 -0.5504045867008549 6.860139122706146e-05 -6.342555705678698e-05 0 0 0 0
316000000 0.8394896802320184 -0.5625880142558448 5.2002597125398424e-05 7.640512644696256e-06 0 0 0 0
325000000 0.8295270231329219 -0.574950157356516 -2.019744701753593e-05 2.8520147556993294e-05 0 0 0 0
334000000 0.8206442961218187 -0.5875223572878905 -2.587225321065483e-05 2.1986680556007364e-05 0 0 0 0
343000000 0.8108161668094427 -0.5997084337289855 -1.6459022251894686e-05 -6.768157882822952e-05 0 0 0 0
352000000 0.7991195808388756 -0.6163575025249248 -1.241716037799966e-05 -9.245732385412887e-05 0 0 0 0
361000000 0.7898433843591102 -0.6264622589641716 -3.8104352618036156e-05 4.163661285236431e-05 0 0 0 0
370000000 0.7815518383948663 -0.6369041964730724 -5.404152178627387e-06 2.988192536655287e-05 0 0 0 0
379000000 0.767769324918952 -0.6522469726671244 -1.8736529323891154e-05 1.3796029346743504e-05 0 0 0 0
388000000 0.758009842502345 -0.6638632434489687 -2.469684251393982e-05 -3.037820650215207e-06 0 0 0 0
397000000 0.7464378622551042 -0.6758247816748005 -3.1895434798693417e-06 1.3124607154234609e-05 0 0 0 0
406000000 0.7373180446452102 -0.6859682951727927 -8.483444172249968e-06 3.80339045324826e-05 0 0 0 0
415000000 0.7265953879273337 -0.6978913401991075 -3.631708979225599e-06 -5.663891269931779e-06 0 0 0 0
424000000 0.7130764054849107 -0.7114534241444879 -9.668162956304863e-05 1.1496335874832851e-05 0 0 0 0
433000000 0.7047454426970091 -0.7206817240133501 7.807568469984446e-05 -2.5227704264877933e-05 0 0 0 0
442000000 0.69578112972563 -0.7289903726186713 3.0087330644440116e-05 3.3955583884789086e-05 0 0 0 0
451000000 0.6807422236017826 -0.7425311642994284 -1.592771921462581e-05 2.7969766584898573e-05 0 0 0 0
460000000 0.6679305406720203 -0.7553800457867632 -4.003139122590467e-05 3.331124601173252e-05 0 0 0 0
469000000 0.6574508480356471 -0.7662453834808297 -7.299907207921912e-05 -2.8817805001235195e-05 0 0 0 0
478000000 0.6450666086258205 -0.7761173399651976 -8.728566716678907e-05 5.742946632056954e-05 0 0 0 0
487000000 0.6346841340268932 -0.7852086099448131 1.7923663791509935e-05 -7.204530774547548e-05 0 0 0 0
496000000 0.6194151674182273 -0.7978262386166226 1.4219846638521801e-05 -5.545476011738534e-06 0 0 0 0
505000000 0.6025056916781494 -0.8112633374138255 7.71846849701168e-06 1.0800266519424772e-05 0 0 0 0
514000000 0.5906251879851547 -0.8195914184994546 5.2803920338754734e-06 3.619107771416117e-05 0 0 0 0
523000000 0.5767701912835264 -0.8319095531197302 7.897219813799249e-05 1.5311234108360278e-05 0 0 0 0
532000000 0.5622787523697486 -0.8406508333680005 -1.5177957674822435e-05 7.229570206113876e-05 0 0 0 0
541000000 0.552531456847064 -0.8494715475093405 5.251294833329363e-06 6.750530240676227e-05 0 0 0 0
550000000 0.5327166173612261 -0.8613586588159227 3.145736650745257e-05 -3.3500749454043316e-06 0 0 0 0
559000000 0.5188535651685101 -0.8713490135797376 3.109188568107987e-05 6.990157265382776e-06 0 0 0 0
568000000 0.5040173723675043 -0.8814406223492787 4.503861716719187e-05 2.7278742347852706e-05 0 0 0 0
577000000 0.48772005325463724 -0.8883558405391498 6.51354678609621e-05 7.861180323509811e-06 0 0 0 0
586000000 0.4750587799846993 -0.8979173715017597 -1.0071480360455564e-05 -1.2733828671304864e-05 0 0 0 0
595000000 0.4623734526137183 -0.9041957726299055 -3.769314700112513e-05 3.0302818082336573e-05 0 0 0 0
604000000 0.44434646157746843 -0.9155298598088554 5.016619109214273e-05 6.219255604233455e-05 0 0 0 0
613000000 0.420634655504077 -0.9267303330075575 -1.8762501230270286e-06 -1.7917736081792547e-06 0 0 0 0
622000000 0.41039353277501117 -0.9317974708932969 -1.2926109132736432e-05 -1.2414386196426357e-05 0 0 0 0
631000000 0.39446604604766333 -0.937649297067742 2.796383131834761e-05 -3.200817784325984e-06 0 0 0 0
640000000 0.37995077519349946 -0.9444275429125453 -2.2054748275822092e-05 6.0864770080103565e-05 0 0 0 0
649000000 0.35913030247311556 -0.9520828583298968 -5.810035095385968e-05 -2.8144290117227778e-05 0 0 0 0
658000000 0.3417773859851979 -0.957780042735146 -2.2864226009871872e-05 1.7470648639109947e-05 0 0 0 0
667000000 0.3181001944437493 -0.9645633859269703 1.939619195843341e-05 -1.6073274221485105e-06 0 0 0 0
676000000 0.29445786118786915 -0.9705607278942869 7.000566437674125e-05 -5.5009623903880636e-06 0 0 0 0
685000000 0.28105232833639393 -0.9754887337690524 7.204548602083078e-05 5.289890938303203e-05 0 0 0 0
694000000 0.26370821529003186 -0.9811926367290339 4.5378210380866365e-05 3.3328779530099864e-05 0 0 0 0
703000000 0.23399690602596726 -0.9858074085912012 6.261810447927613e-05 3.142364411594663e-05 0 0 0 0
712000000 0.2174567983876201 -0.9872454739015305 3.6788175886388323e-06 4.942022216379978e-07 0 0 0 0
721000000 0.20198049258460457 -0.991072590738789 3.841465214832153e-05 0.00014210048306942597 0 0 0 0
730000000 0.1789879806990288 -0.9937697080710695 5.668768581648202e-05 9.735285290414324e-05 0 0 0 0
739000000 0.15890007301700332 -0.994635423875318 3.5330930006600656e-05 6.204940861689012e-05 0 0 0 0
748000000 0.1404600149422534 -0.9951314129016581 -2.8042437452993544e-05 6.203742524094505e-05 0 0 0 0
757000000 0.1161387419577179 -0.9969714992312027 -3.3698769627159154e-06 -6.6763635722683965e-06 0 0 0 0
766000000 0.0948375438011244 -0.9949134738186998 5.764018081071135e-05 4.863308140234184e-05 0 0 0 0
775000000 0.0759136702072124 -0.9939731071053945 4.887585669305288e-05 6.969208382994564e-05 0 0 0 0
784000000 0.05886149917214173 -0.9901669871607757 1.831140890910814e-05 -7.0055516230510785e-06 0 0 0 0
793000000 0.03640230310063411 -0.9875631965483154 0.00012509318883766456 8.088427069282474e-05 0 0 0 0
802000000 0.022385487250480136 -0.9840573780447841 4.433648589350683e-05 -5.7998549549278326e-05 0 0 0 0
811000000 0.0043187831676958525 -0.981570751834457 9.050717328481493e-05 -1.545411883385758e-05 0 0 0 0
820000000 -0.01856445843967365 -0.9774716416763888 6.694240968470064e-05 1.4809864928083607e-05 0 0 0 0
829000000 -0.04180243459861422 -0.9703618496160092 5.7341459162784677e-05 -1.808897383129808e-05 0 0 0 0
838000000 -0.054027749525512765 -0.9658366011265597 2.66404218912739e-05 -1.4921088730450963e-05 0 0 0 0
847000000 -0.07321447934875676 -0.9621150194757937 4.670928326725687e-05 -5.843225331945443e-05 0 0 0 0
856000000 -0.09618469592100876 -0.9544785832040471 7.61430833776138e-06 3.188281278623517e-05 0 0 0 0
865000000 -0.11204816159415701 -0.9463846239007851 -9.029927105019975e-06 -1.7744717812634115e-05 0 0 0 0
874000000 -0.12440956706743021 -0.9398387707603958 3.306536411837956e-05 -1.93247898670353e-05 0 0 0 0
883000000 -0.14674705810752475 -0.9324858014048892 6.043480140090437e-05 1.947569224305991e-05 0 0 0 0
892000000 -0.15435580418106523 -0.9262143969821462 3.9401077638093434e-05 -5.622928249190798e-06 0 0 0 0
901000000 -0.17442856978094096 -0.918785153972302 1.48531915384343e-05 -4.2946324153635485e-07 0 0 0 0
910000000 -0.19097331480942561 -0.9108009018218045 1.61544406031203e-05 1.9602938173531844e-06 0 0 0 0
919000000 -0.19605434327362137 -0.903354007355182 3.584475958112587e-05 5.158130702317377e-05 0 0 0 0
928000000 -0.2173183564983194 -0.8940675463966854 5.9637782639195136e-05 7.375422889465837e-05 0 0 0 0
937000000 -0.23288023513343956 -0.8859565712057756 5.75147861020205e-05 -1.588845672524813e-05 0 0 0 0
946000000 -0.24269635685582164 -0.8790473489422745 -6.934375097362532e-05 -2.941006050962444e-05 0 0 0 0
955000000 -0.2548552470951379 -0.8691810901583739 -6.852509224227789e-05 3.483610180975439e-05 0 0 0 0
964000000 -0.2705835547937981 -0.8616181699947102 2.2942175430467928e-05 5.036088608689555e-05 0 0 0 0
973000000 -0.28719978405288543 -0.8528251461192501 5.978297112354218e-05 -7.35857573894245e-05 0 0 0 0
982000000 -0.29400118621054894 -0.8437641671406056 -1.1504942818115597e-05 -4.638353427460828e-05 0 0 0 0
991000000 -0.30715364366547265 -0.8337220557131576 -5.218318790103973e-05 5.19554899290374e-05 0 0 0 0
1000000000 -0.3237363573082007 -0.8255495791996637 5.1650191481682576e-05 1.664616237936339e-06 0 0 0 0
