# HZ S RI R 50
100000000 1.0155267206664065 -0.2192945965391881 -1.7032950090258663e-05 1.3258751785129062e-05 0 0 0 0
109000000 1.0078908348805735 -0.23423434287185102 -1.3184735388743828e-05 -8.313874693477128e-06 0 0 0 0
118000000 1.0022526671292844 -0.2501295643973763 2.5417951902636597e-05 8.231539089115685e-05 0 0 0 0
127000000 0.9968179554399517 -0.26548870653329004 -7.999361259457818e-06 6.243484792082538e-06 0 0 0 0
136000000 0.9914445759044347 -0.2800754819184423 1.214444268236444e-05 1.576913937153833e-05 0 0 0 0
145000000 0.9832610740656891 -0.29504283479222226 -2.578495632358828e-05 3.781135515708057e-05 0 0 0 0
154000000 0.9781745461864579 -0.30820301994341515 -5.507477628220419e-05 3.2187229588796605e-05 0 0 0 0
163000000 0.9709092353454801 -0.3253014707920038 -2.034825786506011e-05 -5.4287810111668304e-05 0 0 0 0
172000000 0.9640947455586619 -0.3401241702352596 2.0226873098556038e-05 -1.5209374440502448e-05 0 0 0 0
181000000 0.9580406321144683 -0.3551407652262003 -1.0273987056961981e-05 1.2700451143347273e-05 0 0 0 0
190000000 0.9511470014006471 -0.3680139836551567 -3.066802411222811e-05 3.982499785059972e-05 0 0 0 0
199000000 0.9439732739481503 -0.384340583808511 5.104396981337653e-06 1.750920266076526e-05 0 0 0 0
208000000 0.9383125965672426 -0.39651926701457124 -1.4620633308044582e-05 1.6850244848355593e-05 0 0 0 0
217000000 0.9295311893595423 -0.41327989193305575 -4.123439632505185e-05 -6.647991142233539e-06 0 0 0 0
226000000 0.9220073383023795 -0.4262567282529472 1.2674402108644134e-07 4.780245541584796e-05 0 0 0 0
235000000 0.9149842768866889 -0.4411143821406775 2.6366673183097802e-05 -4.696535479468761e-06 0 0 0 0
244000000 0.9067346826005813 -0.4559986916779125 8.248458174490181e-05 2.7192662936239358e-05 0 0 0 0
253000000 0.8987868474855522 -0.46798113490149024 -3.043349702399103e-06 7.0037370645312e-06 0 0 0 0
262000000 0.8908079167917936 -0.4814611753042119 1.1457390561001336e-06 5.182009388596654e-05 0 0 0 0
271000000 0.8824758478971719 -0.49448323469212135 -2.1063804551269707e-05 -8.7814814423921e-05 0 0 0 0
280000000 0.8721861795571398 -0.5104616100495368 -2.82833203877387e-06 4.265556595486834e-06 0 0 0 0
289000000 0.865067977077873 -0.5237185395406098 4.22699460999184e-05 2.5618741890851417e-05 0 0 0 0
298000000 0.8567661177037724 -0.5367566644565236 2.1969975445888213e-05 -1.3000941637842697e-05 0 0 0 0
307000000 0.8475901716639235 -0.5479713397381205 -1.562465000693196e-05 6.47155972791381e-05 0 0 0 0
316000000 0.8396421549018281 -0.5608197447015275 3.7226405316928597e-06 -1.4781288311664654e-05 0 0 0 0
325000000 0.8269825530619492 -0.5760244477318156 3.4058598431978982e-06 3.954086059182959e-05 0 0 0 0
334000000 0.8184771634885426 -0.5887869639404478 -7.381249503922179e-06 2.0714462174489637e-05 0 0 0 0
343000000 0.8113090303125072 -0.6001246380822249 2.4317609341504677e-05 1.4461232767149985e-05 0 0 0 0
352000000 0.8018111893671865 -0.6127174447750124 -1.1440617289349794e-05 -3.463632881878467e-06 0 0 0 0
361000000 0.7901452640934029 -0.6239387640056542 -2.86834834395164e-06 -1.996580615196595e-05 0 0 0 0
370000000 0.7796193249073365 -0.6388567542531265 1.2806609737676103e-05 5.2520285002915804e-05 0 0 0 0
379000000 0.7698259221771124 -0.6498268279832325 2.270783834795834e-05 2.745389729146749e-05 0 0 0 0
388000000 0.7587697390008651 -0.6629109436839943 3.4941731171088874e-05 5.7818977297306735e-05 0 0 0 0
397000000 0.7511020977810001 -0.6724972237441881 5.12620923060904e-05 5.119801193063048e-05 0 0 0 0
406000000 0.7383380559477154 -0.685310198965341 3.5243255879531215e-05 -3.063871151378423e-05 0 0 0 0
415000000 0.7283270547401134 -0.6956855716595597 -1.73919152023714e-05 -3.5491675958941976e-06 0 0 0 0
424000000 0.7164622695254613 -0.708681123820912 -4.237804210448143e-05 1.2655919521961666e-05 0 0 0 0
433000000 0.7075050981287669 -0.7182193695668432 -5.679647248768838e-06 -5.6509249726045734e-05 0 0 0 0
442000000 0.6937994107470908 -0.7307508915434715 -7.673216691409115e-05 3.836902459217074e-05 0 0 0 0
451000000 0.6813688945645845 -0.7440325196442643 3.9170235802246584e-05 0.00010009113122780007 0 0 0 0
460000000 0.6694929566013884 -0.7543392443122302 -1.385100284548561e-05 -3.3195824690771344e-05 0 0 0 0
469000000 0.6579663105340664 -0.7649024499921236 -6.3744915050770306e-06 5.429844044000174e-06 0 0 0 0
478000000 0.6437476246943167 -0.7771682900699634 -4.2858118412803484e-05 -4.787096109581534e-06 0 0 0 0
487000000 0.6324774024782408 -0.7867265298456937 2.4406123320454952e-05 -8.540890408585614e-05 0 0 0 0
496000000 0.6187118468060699 -0.7979333554723455 1.0717102137134719e-05 1.9811795196581594e-05 0 0 0 0
505000000 0.6060115853408213 -0.8084332242758029 4.751478230345318e-05 8.87161667699317e-07 0 0 0 0
514000000 0.5933135703714687 -0.8192239907264056 -5.24229041005273e-05 2.814344244953979e-06 0 0 0 0
523000000 0.5735418868931184 -0.8333250726357697 -3.061829979932389e-06 5.497645870231218e-05 0 0 0 0
532000000 0.5628547241383377 -0.8405884733188425 5.685066787328671e-05 2.59971059904716e-05 0 0 0 0
541000000 0.5519355118007522 -0.8507686383901129 -1.0898427129649163e-05 4.089993131449979e-05 0 0 0 0
550000000 0.5374792317383915 -0.8593069484925046 3.418835770192175e-06 -3.144785327254825e-05 0 0 0 0
559000000 0.5236673366630997 -0.870215182974755 6.544007987284897e-05 -1.4332286957350349e-05 0 0 0 0
568000000 0.5046217041442091 -0.8812530345703029 -4.7494825672805676e-05 5.151960374058863e-05 0 0 0 0
577000000 0.4932446550780744 -0.8881440915408682 1.954449595929188e-05 4.0094304800556816e-05 0 0 0 0
586000000 0.47883191175505646 -0.8961674955060204 -1.7978189496420687e-05 -3.555858573291844e-05 0 0 0 0
595000000 0.46001094999883857 -0.9062596894610468 6.711174238087662e-06 0.00011106430830691649 0 0 0 0
604000000 0.4404073569065677 -0.9162714008740319 1.6353305785025604e-05 -7.829763917089714e-05 0 0 0 0
613000000 0.4262557287184754 -0.924185268808283 5.616881104494573e-05 9.915626402539662e-06 0 0 0 0
622000000 0.41019857776755947 -0.9310176800498375 -5.3251219748547344e-05 3.380834280305548e-05 0 0 0 0
631000000 0.391663543319982 -0.9391486593295765 2.9137493731861153e-05 1.5213947027112839e-05 0 0 0 0
640000000 0.37091795816609086 -0.9464844384619311 -2.645552342682034e-06 -2.639541545225764e-06 0 0 0 0
649000000 0.35337394712811127 -0.9536447617643468 -1.9536369095250762e-05 -1.826571621959698e-05 0 0 0 0
658000000 0.33835826773563177 -0.9596839455136529 2.2270296482191223e-05 -3.7607541535180535e-06 0 0 0 0
667000000 0.3238691718746041 -0.9633754496288679 5.1980923195846566e-05 -4.0841863366520946e-05 0 0 0 0
676000000 0.2998245691270336 -0.9724549177695001 -1.790879885299939e-05 -3.895227603465124e-06 0 0 0 0
685000000 0.2751996517369388 -0.9774136644282507 2.5948062742955233e-05 -1.3728111436292082e-05 0 0 0 0
694000000 0.26032589278022855 -0.9797229904163879 -5.283338211180762e-05 4.744229584975789e-05 0 0 0 0
703000000 0.24675088833032058 -0.98323253475775 7.87849963024121e-06 -3.136569663776549e-05 0 0 0 0
712000000 0.22293761096135545 -0.987809137037852 4.814643208049816e-05 3.136337243260793e-05 0 0 0 0
721000000 0.20204984879081656 -0.9913670947362908 -8.068503290946819e-05 2.4728460868008696e-06 0 0 0 0
730000000 0.1769043624668636 -0.992585428901479 -1.6084752258437376e-05 4.9610648966089425e-05 0 0 0 0
739000000 0.16430596395071348 -0.9942077668714399 4.356387554187997e-05 9.342160393029995e-05 0 0 0 0
748000000 0.13850593516744067 -0.9957845148221424 -1.1418303387081855e-05 0.00011050036584542373 0 0 0 0
757000000 0.11873364422113689 -0.9950059353332394 5.724824868339365e-05 6.269101046159313e-05 0 0 0 0
766000000 0.09848993813067233 -0.993631490587646 -6.105931452073003e-06 4.43601677620937e-05 0 0 0 0
775000000 0.07200550263018088 -0.9926926170186225 2.5416590810610936e-05 -1.8293852889831015e-05 0 0 0 0
784000000 0.05605793808760654 -0.9917158700064983 5.805076134095028e-05 -3.0079114818369382e-05 0 0 0 0
793000000 0.035730854828445985 -0.9885563303702622 2.131668840766059e-05 2.5947559563882254e-05 0 0 0 0
802000000 0.016154383903083065 -0.9846623124317659 3.610612782999823e-05 7.535648832140091e-05 0 0 0 0
811000000 -0.006643952528684313 -0.9821797397865584 -1.1685145343723955e-05 2.7988516494921007e-05 0 0 0 0
820000000 -0.016963890685583308 -0.9768936704369658 4.4224992824268736e-05 2.1809411518640827e-05 0 0 0 0
829000000 -0.04011045636307327 -0.970570192510713 3.300882806740599e-05 -1.05161249842107e-05 0 0 0 0
838000000 -0.05223217011511239 -0.9671298640647988 2.6632765164884732e-05 -8.074660902859744e-05 0 0 0 0
847000000 -0.0754152489891778 -0.9613411349368551 -5.004065169579255e-06 -3.1052745027478316e-05 0 0 0 0
856000000 -0.09467756740292473 -0.9537656261089377 -5.6817479282116e-05 -2.1445730162785203e-05 0 0 0 0
865000000 -0.11010191316321316 -0.9479420619361913 4.487470057717125e-05 2.9571498413009384e-06 0 0 0 0
874000000 -0.1305224742477469 -0.9397825912766505 5.167820435278727e-05 -2.3066460972337436e-05 0 0 0 0
883000000 -0.14452743491836492 -0.9342794691300169 2.8865481197261415e-05 -4.194330639585975e-06 0 0 0 0
892000000 -0.15872937244267682 -0.9237250799645023 2.4494090887383733e-05 -4.699700894503181e-05 0 0 0 0
901000000 -0.16950375371242948 -0.9200408699444292 -3.440509250847923e-05 -3.260266135698461e-05 0 0 0 0
910000000 -0.1929854887112839 -0.9100349963873713 0.00011359603385025234 5.445639503562836e-05 0 0 0 0
919000000 -0.20663152347470445 -0.9033600338495775 1.3248009120514534e-05 -4.0014399875738765e-06 0 0 0 0
928000000 -0.22002632037486822 -0.8966317907772721 4.681863618812582e-05 7.048002037083891e-06 0 0 0 0
937000000 -0.22776349523922587 -0.88574657728034 3.2816357239896775e-05 -4.204889155286507e-05 0 0 0 0
946000000 -0.2505560729526452 -0.8763260280835968 4.221755876371301e-05 2.82389151649086e-05 0 0 0 0
955000000 -0.25608592750447146 -0.8688698106985292 5.075070025494207e-06 9.680845694154194e-06 0 0 0 0
964000000 -0.2726797318249018 -0.8596175961330241 4.394632572998263e-05 4.851242524970208e-05 0 0 0 0
973000000 -0.28661252401586024 -0.8532143614005042 7.959302143539511e-05 7.324740056215588e-05 0 0 0 0
982000000 -0.29784015251328244 -0.843276581306763 4.404379355688182e-05 3.8762102518001784e-05 0 0 0 0
991000000 -0.30081456887799535 -0.8388318517840785 -4.493025887167002e-05 -0.00010813017683527251 0 0 0 0
1000000000 -0.31648357812395234 -0.8267290286783966 -5.213088069428397e-05 -7.097127862742407e-05 0 0 0 0
