# HZ S RI R 50
100000000 1.0129305768727297 -0.21860947336478667 8.934978756522901e-06 -3.279109871682881e-05 0 0 0 0
109000000 1.0073140853908997 -0.23460990247484492 4.2225436624162576e-05 -1.4361984752137492e-05 0 0 0 0
118000000 1.0016933580420513 -0.2499410741046903 -1.588159129933252e-05 4.756926551647543e-05 0 0 0 0
127000000 0.9969039534182559 -0.2649211783450713 -1.3221764511501776e-05 -5.326151606902474e-05 0 0 0 0
136000000 0.9914334670997297 -0.28070907799410366 5.7429180103978045e-05 -3.9027555027566764e-05 0 0 0 0
145000000 0.9840303129032753 -0.293736126508577 1.2366304334943168e-05 -2.5713735582408403e-06 0 0 0 0
154000000 0.9774053338206272 -0.3108136069142678 -2.2255874873346717e-05 4.012264040101817e-05 0 0 0 0
163000000 0.9706518354310328 -0.32532681836763355 -5.39304413064593e-06 1.887638059841656e-05 0 0 0 0
172000000 0.9643559779092563 -0.341023413306464 2.135155881336194e-05 4.305446087589448e-05 0 0 0 0
181000000 0.9573433223557568 -0.35548454412581426 1.931051333526524e-05 -2.341467456678809e-05 0 0 0 0
190000000 0.950815422225065 -0.36946581718624 -3.330027318844596e-05 -1.970200793258187e-07 0 0 0 0
199000000 0.9443233004973098 -0.3831377948123237 -4.3189629892145675e-05 5.8115135550564596e-05 0 0 0 0
208000000 0.9370011929083145 -0.3983337659961067 -7.968585874112898e-06 -2.7066121746414406e-06 0 0 0 0
217000000 0.92989637704534 -0.410947295639117 -3.469394242005308e-05 6.701990796696721e-05 0 0 0 0
226000000 0.9212468209865207 -0.42715994014104075 2.911463838257779e-05 7.94575972530229e-06 0 0 0 0
235000000 0.9144955030669154 -0.44105750915672576 6.0081704519562246e-05 1.3512698931521333e-05 0 0 0 0
244000000 0.9059050098783972 -0.4560600915486934 1.7494931660246515e-05 -1.8526631956818688e-05 0 0 0 0
253000000 0.8989662019684083 -0.4681944036962189 3.5174015543244615e-05 -2.8004586936025425e-06 0 0 0 0
262000000 0.89051326351736 -0.4826092788162668 -1.8408627110302666e-05 4.0667210174077824e-05 0 0 0 0
271000000 0.8825679099460383 -0.49538928801918103 9.153589716926423e-06 5.3878535633050204e-05 0 0 0 0
280000000 0.8734043873438658 -0.5096931341229808 -7.386068594060773e-06 2.1161584498601998e-05 0 0 0 0
289000000 0.8660185162161028 -0.5219011868007181 -5.73048067188759e-05 1.9803136948834973e-05 0 0 0 0
298000000 0.8559816711830405 -0.5364301129724528 6.484438217123139e-05 1.8985695338767635e-05 0 0 0 0
307000000 0.8488208825343444 -0.5487178656412011 -2.1765597672320417e-05 -1.121417283165716e-05 0 0 0 0
316000000 0.8386424145563985 -0.5623499935496142 2.8207753280981302e-05 5.228377869421107e-05 0 0 0 0
325000000 0.8290014724579119 -0.5757971352494113 -1.0838462186788045e-05 3.929752806709037e-05 0 0 0 0
334000000 0.820124209787679 -0.5868712873876069 -4.646417661522279e-05 -1.5540372917173514e-05 0 0 0 0
343000000 0.811690585044852 -0.5986278177579686 2.0365612072474568e-05 -5.62583827181297e-06 0 0 0 0
352000000 0.8013073481651307 -0.6135855427799174 -1.6643434003296974e-06 -4.144269931188625e-05 0 0 0 0
361000000 0.790600661659927 -0.6241539043867926 3.91276403963493e-05 8.141214382820502e-06 0 0 0 0
370000000 0.7825793091799671 -0.6357525617348043 1.5387016705304095e-05 3.54926219128548e-05 0 0 0 0
379000000 0.7689065399249945 -0.6506993769837047 4.710313225562066e-06 2.0740809373286445e-05 0 0 0 0
388000000 0.7598907151123687 -0.6618703051098623 2.5226894644515268e-05 -4.3951251474541535e-05 0 0 0 0
397000000 0.749873973964649 -0.6715551915663724 -3.86637060283599e-05 4.711769202467063e-05 0 0 0 0
406000000 0.73871836876141 -0.6862938581820016 -2.673669557259784e-05 4.051111288474922e-05 0 0 0 0
415000000 0.7259460777318083 -0.6991806329499888 3.831113781046664e-05 8.171516817669275e-06 0 0 0 0
424000000 0.7158734029775388 -0.7098220661098616 6.162097275429186e-06 5.374625724650748e-05 0 0 0 0
433000000 0.7042796289825888 -0.7201725089261646 3.1430737207105375e-05 -2.4260042250599976e-05 0 0 0 0
442000000 0.6925547471509326 -0.7312924896333393 -1.950014938399526e-05 -5.009418487207033e-05 0 0 0 0
451000000 0.679927043513487 -0.743192426697063 6.934995049076834e-06 3.694421769299273e-05 0 0 0 0
460000000 0.6724266314639057 -0.7523428370794892 8.204298065762897e-05 5.065532350769799e-06 0 0 0 0
469000000 0.656237412388597 -0.7667968220767464 -4.345879792045052e-05 7.474014785099243e-05 0 0 0 0
478000000 0.6469196696457405 -0.7746008697443574 3.45257594383764e-05 -2.469223804141125e-05 0 0 0 0
487000000 0.6330930250530352 -0.7869989763387899 5.145984403428212e-05 3.392773033121577e-05 0 0 0 0
496000000 0.6206023818168772 -0.7983597927374241 -2.5431621904450824e-05 -2.352937683785606e-05 0 0 0 0
505000000 0.6064334691545638 -0.8084720062749846 -5.506899743154203e-05 1.0009318568507545e-05 0 0 0 0
514000000 0.5913314543779754 -0.8202824469340777 -1.2680282404797597e-07 -6.315245905295021e-05 0 0 0 0
523000000 0.5756766257883069 -0.832387104148775 2.8098084390067028e-05 2.125146599208387e-05 0 0 0 0
532000000 0.5625134836577103 -0.841437932195348 3.287395747237395e-05 -9.882996491431639e-05 0 0 0 0
541000000 0.5503757641640363 -0.8497067571047843 3.20145150057405e-05 -6.215751098815916e-05 0 0 0 0
550000000 0.5402409740360722 -0.8578894878536196 -1.745771367645323e-05 -5.068494909681091e-05 0 0 0 0
559000000 0.5190757363935186 -0.872506794133887 5.6118595143643935e-05 -4.881300828726689e-05 0 0 0 0
568000000 0.5070590980673718 -0.8795035497670485 -1.2347239832705222e-05 8.962237064169588e-06 0 0 0 0
577000000 0.4919427785629009 -0.8880955074607592 7.608965761333977e-05 -5.448606189536771e-05 0 0 0 0
586000000 0.4740968925339853 -0.8978596200484551 2.840005158541127e-05 5.798900222872117e-06 0 0 0 0
595000000 0.4566150734486986 -0.9077732519040435 3.950374786004493e-06 4.0858289759816694e-05 0 0 0 0
604000000 0.44063690645240844 -0.9162292987962428 -2.198518432113805e-05 2.398570189367271e-05 0 0 0 0
613000000 0.42616208256621974 -0.9244474429304295 -4.946290792515108e-06 -5.059595120168212e-05 0 0 0 0
622000000 0.40533760829215376 -0.9335772082170369 1.516773975602211e-05 -5.837771538319793e-05 0 0 0 0
631000000 0.39412891431497754 -0.9376001707758094 5.3487465145738974e-05 1.387240760835745e-05 0 0 0 0
640000000 0.3758074041750569 -0.9459673649272822 3.7450867266162764e-05 3.505019659803861e-05 0 0 0 0
649000000 0.3553124723582568 -0.953547429813664 1.818483520581524e-05 2.1383644900274667e-05 0 0 0 0
658000000 0.3398827865380098 -0.95923090882682 8.029040218731901e-06 1.350820085636719e-05 0 0 0 0
667000000 0.32098827848251166 -0.9656954781974258 -5.1487195707879776e-05 1.488381757049169e-05 0 0 0 0
676000000 0.3025743244203669 -0.9704094994469515 5.104119470858045e-05 5.262853698953551e-05 0 0 0 0
685000000 0.2759002248917943 -0.9746919632837844 -3.2282248092406018e-06 2.2546152248052545e-05 0 0 0 0
694000000 0.26448254483769834 -0.9811219877433283 3.7834111909218124e-07 -4.074143077184048e-05 0 0 0 0
703000000 0.24098387471728683 -0.9864331733481372 -8.740856411951725e-06 8.18735555239422e-05 0 0 0 0
712000000 0.2174689070099597 -0.9903736656369142 4.142596620882538e-06 9.670178712463376e-05 0 0 0 0
721000000 0.1953614690330571 -0.9926580312191564 6.299893099100722e-05 0.0001198298562861961 0 0 0 0
730000000 0.18181347996809008 -0.9909186345655289 2.002301652382434e-06 -2.0529376439814754e-05 0 0 0 0
739000000 0.16383852552108177 -0.9963106996968354 0.00010605209288772906 7.005130259623005e-05 0 0 0 0
748000000 0.13766711841300885 -0.9944047048258334 7.796704734621076e-06 1.7961622900732174e-05 0 0 0 0
757000000 0.11850540105916653 -0.9962282648395951 3.0050283835229465e-05 9.288983835813794e-05 0 0 0 0
766000000 0.08999786605125439 -0.995854915106514 7.412287745220912e-05 -1.1370653199719248e-05 0 0 0 0
775000000 0.077204615017781 -0.9924371243202085 5.01620506703295e-05 3.664505764545277e-05 0 0 0 0
784000000 0.05913376592739859 -0.9916910630064995 4.614616387857639e-05 -4.8056303333708285e-05 0 0 0 0
793000000 0.036736184171095254 -0.9884298556397332 1.1854009514550787e-06 -4.060235595773375e-05 0 0 0 0
802000000 0.015179988778905067 -0.986876299616235 2.452653492334532e-05 4.695806922695111e-05 0 0 0 0
811000000 -0.0031324618140938557 -0.9819847767820782 8.356922960077393e-05 1.1582917652961203e-05 0 0 0 0
820000000 -0.018829102416643994 -0.9767791618560522 0.00011251218549462778 -5.5458906012910424e-05 0 0 0 0
829000000 -0.03596319010358333 -0.9704728058619062 4.94877780071808e-05 -3.47216005548086e-07 0 0 0 0
838000000 -0.054206757825177816 -0.9677064528864129 -3.3574174734086413e-06 -2.4081252229780704e-05 0 0 0 0
847000000 -0.07545425307063598 -0.9593219083629373 -3.484370718062322e-05 -8.46455766697284e-06 0 0 0 0
856000000 -0.09712112658460711 -0.9541245316064897 3.9204412222210684e-05 4.93698604569811e-05 0 0 0 0
865000000 -0.1117428858395262 -0.9489527121119381 3.353939656353104e-05 2.042091037831649e-06 0 0 0 0
874000000 -0.12606493729436058 -0.9411253734893846 2.083039334457936e-05 -3.443854137024823e-05 0 0 0 0
883000000 -0.13818731285359154 -0.9333192985449454 -9.34181506305988e-06 9.380916582946198e-06 0 0 0 0
892000000 -0.15796542087897172 -0.9258171070501912 5.674269496739973e-05 4.1964849896640945e-05 0 0 0 0
901000000 -0.17334448947227077 -0.9165736658277504 -2.252126554492743e-05 -4.678135052899496e-05 0 0 0 0
910000000 -0.1888097794725829 -0.9115969224562308 -1.6998236639147902e-05 7.485405641469794e-05 0 0 0 0
919000000 -0.20391539620809881 -0.9040618802802849 -2.3122212069212844e-05 2.7542763710786524e-05 0 0 0 0
928000000 -0.21991009568408 -0.8943607888606481 -1.1253662203281007e-05 4.098472074661287e-06 0 0 0 0
937000000 -0.22896934971517677 -0.885339298627597 -3.721951728174719e-05 -3.5646296924786005e-05 0 0 0 0
946000000 -0.24486817121190319 -0.8766247796538755 -3.60648675272787e-05 -8.682554608614553e-06 0 0 0 0
955000000 -0.2614335720780622 -0.867102466443188 -3.83432762715272e-05 7.609079672426978e-05 0 0 0 0
964000000 -0.26669455916164775 -0.8617644058270107 3.772767439583826e-05 7.598794568592551e-06 0 0 0 0
973000000 -0.2899517536516774 -0.84918318884531 -1.095131197356011e-05 -3.9429416826037456e-05 0 0 0 0
982000000 -0.2926683085376606 -0.8442878179603951 3.04916658376181e-06 4.360433138948444e-05 0 0 0 0
991000000 -0.30604370831680605 -0.8354755317195023 1.3116398594491409e-05 -2.202244791797857e-05 0 0 0 0
1000000000 -0.3174929276615401 -0.8273880623263274 -4.960534188134527e-05 1.3551946529388954e-05 0 0 0 0
