# HZ S RI R 50
100000000 1.007937618260863 -0.21888732698950358 -1.4803753294435893e-05 1.0556837345665414e-05 0 0 0 0
109000000 1.0081202812675076 -0.23480836970989574 -6.164605126003503e-05 2.7979594076247523e-05 0 0 0 0
118000000 1.0023510423158324 -0.24993092263495356 -1.738602637753157e-05 -9.386474952197276e-05 0 0 0 0
127000000 0.9960753977678785 -0.26639184851667813 -4.928015524247706e-05 -3.094397764746713e-05 0 0 0 0
136000000 0.9914051772127556 -0.2811246686140835 -3.371348516299716e-06 -8.285091148868058e-06 0 0 0 0
145000000 0.9827645659337719 -0.29583455786163565 4.1225818939008674e-05 1.2793576065928528e-05 0 0 0 0
154000000 0.9776515965855919 -0.3101816474380032 -2.173193020360171e-05 -7.368245998001021e-06 0 0 0 0
163000000 0.9705049568474864 -0.32575207404708073 9.3718419052757e-06 3.35990549960353e-05 0 0 0 0
172000000 0.964717482741605 -0.33755529700789305 -2.395708204099835e-05 -5.2215238796008045e-06 0 0 0 0
181000000 0.9577985512106368 -0.35444546399712423 -1.5985003398602014e-05 -4.4274059772026416e-05 0 0 0 0
190000000 0.9511304149282248 -0.3680474599757815 6.732276891532333e-06 4.60836399882255e-05 0 0 0 0
199000000 0.9441770298799714 -0.3849541576490018 1.6228077942224728e-05 4.621321964590635e-05 0 0 0 0
208000000 0.937240840266902 -0.3970114128660444 9.383544628053009e-06 9.756556797421786e-06 0 0 0 0
217000000 0.9288732697197396 -0.4140271880268396 -9.00589477460243e-07 -4.818695230281043e-05 0 0 0 0
226000000 0.9234934422978315 -0.4255561151979975 -2.501828847901614e-05 3.284880431952683e-05 0 0 0 0
235000000 0.9155633869231516 -0.4398953706749881 -2.4579718486035058e-05 3.2915342558992625e-05 0 0 0 0
244000000 0.9069796863394336 -0.45483415570932717 -4.6829088171692686e-05 2.0396575130996534e-05 0 0 0 0
253000000 0.8990107699129285 -0.4684092673261192 4.8259155666881674e-05 -6.812642679423649e-05 0 0 0 0
262000000 0.8915405082574209 -0.4806284221662676 4.96057040624005e-05 -2.470491462156614e-05 0 0 0 0
271000000 0.8823979157750356 -0.49633082712152554 7.220723861704848e-06 -6.584671432997006e-06 0 0 0 0
280000000 0.8734537045769583 -0.5086540939277443 2.0189221646833295e-05 -3.5055896024655604e-05 0 0 0 0
289000000 0.8661895476414418 -0.5207651826243974 -2.5396950752827146e-05 1.9694299577282704e-05 0 0 0 0
298000000 0.856880752549452 -0.5353903740275257 9.165105171950719e-06 3.361003341169263e-05 0 0 0 0
307000000 0.8494295268074249 -0.5463610772792186 5.0170675277343905e-05 -3.353212441627465e-05 0 0 0 0
316000000 0.8378761404582787 -0.5636924318542532 1.1991794489324453e-05 -1.2582760361366283e-06 0 0 0 0
325000000 0.8304243469147725 -0.5754822863462516 -1.0398273592103818e-06 -3.430196527608218e-05 0 0 0 0
334000000 0.8204846042782085 -0.5878884927510288 -6.691550816427074e-07 -2.1378519371050505e-05 0 0 0 0
343000000 0.8100135985887461 -0.6011008768569666 -3.1516015729462402e-06 -3.113341004150876e-06 0 0 0 0
352000000 0.8011576003693289 -0.6120082986426177 5.095550597007256e-06 4.463983452778936e-05 0 0 0 0
361000000 0.7916146410861882 -0.6238579041628811 1.2946673765914953e-06 4.4202535666586176e-05 0 0 0 0
370000000 0.7793646465318507 -0.6372297444811937 3.5771451547167896e-05 -2.6635377446157735e-05 0 0 0 0
379000000 0.769206591700029 -0.6509363886863069 -4.517712550104605e-05 -4.056608700435372e-05 0 0 0 0
388000000 0.7555191280054279 -0.6664927115672555 5.4710073271414756e-05 2.4084576501857623e-05 0 0 0 0
397000000 0.7495770571119333 -0.6732327394884582 -4.326633491450578e-05 -3.576812929407075e-05 0 0 0 0
406000000 0.7392780885838282 -0.6847480721935622 0.00010698605431803967 -1.829901490098846e-05 0 0 0 0
415000000 0.7269236442553624 -0.6969314141991245 -5.6082709112822385e-05 4.047221103869328e-05 0 0 0 0
424000000 0.7137916099495771 -0.7117410661034069 8.702234557992013e-05 4.065609558833275e-06 0 0 0 0
433000000 0.7024564980957907 -0.7231513817036008 -3.998342713478341e-05 -2.956920400027e-05 0 0 0 0
442000000 0.6931019926073326 -0.7327373249765662 3.0276897610304142e-05 3.63131959879308e-05 0 0 0 0
451000000 0.6819478762383256 -0.7427575970729924 2.1765676903711488e-05 -1.4074497346429781e-05 0 0 0 0
460000000 0.6703130304763795 -0.7549390847337542 1.0965815559550368e-05 -5.838998885278253e-06 0 0 0 0
469000000 0.6605521278073275 -0.7631888246504476 -3.414164080959989e-06 2.213813212872427e-05 0 0 0 0
478000000 0.6481924214853921 -0.7735054219214923 -2.8025290760307013e-05 6.6984845183699885e-06 0 0 0 0
487000000 0.6325263924743015 -0.7879639171100111 3.0874096157020954e-05 -7.368158167255791e-05 0 0 0 0
496000000 0.6184804792204903 -0.7974428822489261 -6.44236214608327e-06 0.00010035050782880146 0 0 0 0
505000000 0.6075851131024878 -0.8080154815838138 5.8836772782498336e-05 -1.618586415655424e-05 0 0 0 0
514000000 0.594203934025405 -0.8174287096568508 3.9648950552308114e-05 -5.4831435352144075e-05 0 0 0 0
523000000 0.5793977755738073 -0.8296870242137699 4.38957364198201e-05 2.5678981197657558e-05 0 0 0 0
532000000 0.5624863447309548 -0.8415319208431787 -1.8861671003757953e-05 -5.243540405049805e-05 0 0 0 0
541000000 0.5499822755041588 -0.8495971550074431 1.3160891392810864e-05 -2.9243932336438587e-05 0 0 0 0
550000000 0.5392917367378744 -0.8587407509048929 4.805070932168441e-05 2.3813130785382667e-05 0 0 0 0
559000000 0.5236239099046497 -0.87054074497999 3.793256835530259e-05 -1.6399881299171807e-05 0 0 0 0
568000000 0.5106937841423776 -0.8780816709622056 1.4994457222493554e-05 -6.205486974148016e-05 0 0 0 0
577000000 0.49211961610041033 -0.887737906567037 -2.29563874911221e-05 7.488761469520141e-05 0 0 0 0
586000000 0.4772561608288642 -0.8967739048934186 -1.2933445073407045e-05 -5.9389141155226996e-05 0 0 0 0
595000000 0.45603442257670734 -0.9074950890421577 4.1921338816602836e-08 6.921722107626726e-06 0 0 0 0
604000000 0.44159692676290885 -0.9148391683246443 -1.123021064473949e-05 3.847831612460589e-05 0 0 0 0
613000000 0.42293337412072457 -0.9245875128563593 1.4187186603379097e-05 4.954515039392952e-05 0 0 0 0
622000000 0.4070289686353918 -0.9327831051164566 8.129569312740166e-06 -1.3840126273780447e-05 0 0 0 0
631000000 0.3975977704860581 -0.9357011940815421 -1.2104709613729225e-06 1.560171427046015e-05 0 0 0 0
640000000 0.37541014325586036 -0.9460838600006979 -4.563127613309739e-05 3.998451688631525e-05 0 0 0 0
649000000 0.355947753125109 -0.9544956539954784 6.106306613556162e-05 4.952437871258577e-05 0 0 0 0
658000000 0.3393808744358243 -0.9604156191861535 -3.212595353342934e-05 3.849306277023878e-05 0 0 0 0
667000000 0.3199718482461434 -0.9667223553413941 -3.152176371276361e-05 -2.624859061233496e-06 0 0 0 0
676000000 0.3011953922914613 -0.9700918057961818 -7.457970834090577e-05 -3.1806542866318826e-06 0 0 0 0
685000000 0.28051477132803365 -0.9763721280631908 2.2274409855020173e-05 -1.184238294081034e-05 0 0 0 0
694000000 0.262685555919361 -0.9801827015240008 7.43990809017381e-06 6.417766446511339e-05 0 0 0 0
703000000 0.23878472926812797 -0.9833428707447827 1.9136251040643942e-05 7.780682191282582e-05 0 0 0 0
712000000 0.21986372894246667 -0.9882182310401718 3.991881756902182e-05 4.915887066661504e-05 0 0 0 0
721000000 0.19920262143011686 -0.9910221217176182 9.403685798312626e-05 -2.343029182306907e-06 0 0 0 0
730000000 0.17846017206604178 -0.9929900429225501 2.1843014019933767e-07 6.0077360873629894e-06 0 0 0 0
739000000 0.16021028848787175 -0.9940024427521595 6.887056439028219e-06 5.515504325885656e-05 0 0 0 0
748000000 0.14418118407149186 -0.9938724071832256 7.378509386496033e-05 2.2106770669136504e-05 0 0 0 0
757000000 0.12558083161042627 -0.9957131211175938 -1.0195135932403307e-05 3.8093069148784147e-06 0 0 0 0
766000000 0.09803300269156064 -0.9942757657177337 2.367075156484826e-05 5.364335303822025e-05 0 0 0 0
775000000 0.07803044311871697 -0.993946774068097 0.0001001432937199379 6.311476958287925e-05 0 0 0 0
784000000 0.06564988128670005 -0.9907234417402663 3.971428118326927e-05 -9.054685975378957e-07 0 0 0 0
793000000 0.038769380808548234 -0.9881949622541666 7.310716151660564e-05 -2.27491110767106e-05 0 0 0 0
802000000 0.016296630587236162 -0.9849712880053667 0.00010927616379864895 1.555268127431637e-05 0 0 0 0
811000000 0.004072065565436248 -0.9803443248839271 6.329431647168343e-05 -4.264689431613042e-05 0 0 0 0
820000000 -0.02337912218265685 -0.9779149912503962 4.6876302038189235e-05 4.090975234744608e-06 0 0 0 0
829000000 -0.030410425813710087 -0.9729757491672185 4.710009945797955e-05 -1.3634070226564068e-05 0 0 0 0
838000000 -0.05732886351683493 -0.9654008011308732 -2.5565424697317678e-05 3.83665264708317e-05 0 0 0 0
847000000 -0.07207216574007291 -0.9605863116254199 -5.686937470020073e-05 5.0554459676034925e-05 0 0 0 0
856000000 -0.09664802157561249 -0.9543772325843782 -2.37063445400463e-05 8.589855147341616e-06 0 0 0 0
865000000 -0.10988803643999145 -0.9483776657544092 7.193638557623916e-06 1.6810473318286485e-05 0 0 0 0
874000000 -0.12343977205844033 -0.9433257009720311 2.263243392115331e-05 2.0233821154282433e-05 0 0 0 0
883000000 -0.1447173599440615 -0.9338639753105227 0.00010776629077774244 -7.944057086085647e-06 0 0 0 0
892000000 -0.1542453002338496 -0.9263281224420092 -2.3212906564164264e-05 2.5113795597984105e-05 0 0 0 0
901000000 -0.168004463720957 -0.9194228480855114 5.480035112174577e-05 -2.6442389052985956e-05 0 0 0 0
910000000 -0.1837123921619329 -0.9110538881509803 -1.6844320344364997e-05 -1.7269296170543457e-06 0 0 0 0
919000000 -0.20788817452645608 -0.9000291115844318 7.473045596847177e-05 7.360632113859957e-05 0 0 0 0
928000000 -0.2260520103724598 -0.8918314497405658 -7.532405751103253e-06 -3.660813275991036e-05 0 0 0 0
937000000 -0.23256486729885573 -0.8852560656889154 -0.00010433557121293856 2.8902374542396726e-05 0 0 0 0
946000000 -0.24308529077642851 -0.8772926270936321 -3.440862181172852e-05 -5.0691573831959495e-05 0 0 0 0
955000000 -0.25184209700558496 -0.8705181214348956 6.0239586712695534e-05 3.754133176904203e-05 0 0 0 0
964000000 -0.26123636195032457 -0.8640050446546272 -2.655417955465602e-05 -0.00010120552056806788 0 0 0 0
973000000 -0.2807552407305844 -0.8538742710961627 6.320463912854653e-05 6.80379016090267e-05 0 0 0 0
982000000 -0.2917904680618893 -0.8457694817106769 -2.4551550703859744e-06 5.3077837045099046e-05 0 0 0 0
991000000 -0.30709025275243146 -0.8357080463368898 -2.5375369164583685e-05 3.316651021359263e-05 0 0 0 0
1000000000 -0.31896920875732754 -0.8271204707173695 5.936434516830542e-05 6.542130299236138e-05 0 0 0 0
