# HZ S RI R 50
100000000 1.00814734148548 -0.2194371683981129 4.916120388901695e-05 -2.6470387183521405e-05 0 0 0 0
109000000 1.0075740341840225 -0.23524433296645725 -6.840231194948452e-06 2.776361394011898e-05 0 0 0 0
118000000 1.0021571745039997 -0.2498186917177673 -3.274119327114458e-05 5.3290539519041706e-05 0 0 0 0
127000000 0.9969269877827407 -0.2646708068406049 5.567845635709192e-06 3.557083281957285e-05 0 0 0 0
136000000 0.9916851800400608 -0.28002228006781404 -2.6518554402297724e-05 3.983966031714663e-05 0 0 0 0
145000000 0.9830386277263594 -0.29486706050414446 3.4078338675019806e-05 -3.9003592243636314e-05 0 0 0 0
154000000 0.9764242966615917 -0.31093345377500853 3.928971762999948e-05 1.556879137726946e-05 0 0 0 0
163000000 0.9701735758144489 -0.32748119644813967 -6.3745921597230205e-06 -6.557510471459783e-06 0 0 0 0
172000000 0.9642749078207442 -0.3402891426259338 -5.797215990696437e-05 1.0169235185149635e-05 0 0 0 0
181000000 0.9586841853584119 -0.35433651401063704 -7.597340676768595e-06 -2.427880316659825e-06 0 0 0 0
190000000 0.9507208067249371 -0.36912819607495545 1.645537514334008e-05 5.1751578091378234e-05 0 0 0 0
199000000 0.9444562571189435 -0.3826962543102828 2.480145146871106e-05 4.5470478674276245e-05 0 0 0 0
208000000 0.9370991052968213 -0.3988717199287717 2.4578286808359977e-05 3.7245368545470496e-06 0 0 0 0
217000000 0.9290196240516007 -0.4136592932071924 -5.298244055716108e-06 -4.6374741386717467e-05 0 0 0 0
226000000 0.9233264176748305 -0.4245482005653233 -7.140488237494577e-06 -3.227736853163304e-05 0 0 0 0
235000000 0.9146812408846031 -0.441126904960719 4.0562822395965884e-05 -7.6137386298003766e-06 0 0 0 0
244000000 0.9058070290544378 -0.45529250202427274 -3.895326674338409e-05 2.052203355066117e-05 0 0 0 0
253000000 0.8978932448196484 -0.4703768465512343 -1.4178744708530356e-05 5.67569981869426e-05 0 0 0 0
262000000 0.8908562058136883 -0.4821661885193531 -5.7876164340551185e-06 -3.3218672739553004e-06 0 0 0 0
271000000 0.8826254857699403 -0.4961314116933153 -4.631300843036046e-05 -2.1110812894866708e-05 0 0 0 0
280000000 0.8733521339289376 -0.5091055366500958 5.6782415621820036e-06 2.6655786924470456e-05 0 0 0 0
289000000 0.8647881649657019 -0.5237477684552004 2.1717980274550524e-05 2.711310913502268e-07 0 0 0 0
298000000 0.8567377029791626 -0.5351748491747733 -2.003899540237311e-05 4.633296662917001e-06 0 0 0 0
307000000 0.8464660026663614 -0.5494413541223043 -1.2888752721570373e-05 -1.5340209160635388e-05 0 0 0 0
316000000 0.8378577565870957 -0.5623302877692584 -1.4408846705094914e-05 1.629980577842786e-05 0 0 0 0
325000000 0.8292206544920904 -0.5738383199211573 3.7167176769642167e-06 4.565989833426966e-06 0 0 0 0
334000000 0.820742182706515 -0.5879246186207514 3.2340104618163835e-05 -2.5693164703347894e-05 0 0 0 0
343000000 0.8094538288473474 -0.6032460417356535 -2.0577332987803245e-05 4.364349474012213e-06 0 0 0 0
352000000 0.8014543502000071 -0.6122684551007662 -8.574502358090494e-05 3.100406912450462e-06 0 0 0 0
361000000 0.7920374336422238 -0.6241917811476405 3.167446967054781e-05 1.0154892207066367e-05 0 0 0 0
370000000 0.7778656781119552 -0.6404280885907271 -2.6442283670152166e-05 -1.4659975269374214e-05 0 0 0 0
379000000 0.7702016845574967 -0.6501201225602439 -3.84057405970136e-05 3.865872216324916e-05 0 0 0 0
388000000 0.7617316653915364 -0.6596633021717401 -2.4143947700588885e-05 -8.099484493681811e-05 0 0 0 0
397000000 0.7487043681060682 -0.6746671512668214 -3.750745888225032e-05 -7.750777646295969e-06 0 0 0 0
406000000 0.7378362935302193 -0.6866496696993307 1.942690529170161e-05 2.2890234408512985e-05 0 0 0 0
415000000 0.7281272631836168 -0.6963801300498038 -5.0342948487836646e-05 -1.825430122790472e-05 0 0 0 0
424000000 0.7175298576041507 -0.7060874438182557 -7.555965567341664e-05 2.7065756734823688e-05 0 0 0 0
433000000 0.7039416033914472 -0.7228833254263591 -3.510969903091959e-05 -3.236731393662417e-05 0 0 0 0
442000000 0.692383821425786 -0.7317235902623369 -3.6612007024862295e-07 2.804571521579884e-05 0 0 0 0
451000000 0.6788531394404075 -0.7460668177201497 2.6612331813300173e-05 9.440262837469238e-06 0 0 0 0
460000000 0.6716590738870838 -0.7542076399514599 -3.57664402628809e-05 2.3046891846108787e-05 0 0 0 0
469000000 0.6567468155187799 -0.7661344042589846 9.027157619256483e-05 2.2446652766571307e-05 0 0 0 0
478000000 0.6431193749173418 -0.7766541362294594 -1.7759215678044147e-05 -5.284195426550041e-05 0 0 0 0
487000000 0.6343199864652259 -0.7854915485585805 -1.5716326850805742e-05 -6.930160896989843e-05 0 0 0 0
496000000 0.619528328806158 -0.7975616292516152 3.135763746040688e-05 5.7669480054317295e-05 0 0 0 0
505000000 0.6052173013531198 -0.8086764084639113 2.3887581002629495e-05 3.792244213743283e-05 0 0 0 0
514000000 0.5893070075982201 -0.822535942523692 -3.345780601352545e-05 9.234642333003385e-06 0 0 0 0
523000000 0.5765131155752179 -0.8301878657962459 3.40316928637702e-06 4.438143686861372e-05 0 0 0 0
532000000 0.5653823251199198 -0.840555503419724 -2.5601505850466635e-05 -3.1414341307410876e-05 0 0 0 0
541000000 0.5534111821574603 -0.8486992402435436 -5.303314176853366e-06 1.9049346974328962e-06 0 0 0 0
550000000 0.5350103472736393 -0.8601033273996631 4.039029856363672e-05 -5.73212937023487e-05 0 0 0 0
559000000 0.5193977231805647 -0.8693563546702375 0.00011892843253490802 3.982935861983055e-05 0 0 0 0
568000000 0.505937074028075 -0.8783131337100546 -6.686529779900028e-06 -1.0981147146628875e-05 0 0 0 0
577000000 0.4929733919925614 -0.8887667917751809 -2.0441141032085864e-05 1.0574697177453158e-05 0 0 0 0
586000000 0.47807030066836187 -0.8979608717800417 -5.282784958166282e-05 7.458936621413528e-06 0 0 0 0
595000000 0.4619150995856433 -0.9054930031230642 6.929923333276399e-05 -4.154400551449183e-06 0 0 0 0
604000000 0.4427593300424639 -0.9156563102367836 2.397726223529776e-05 -3.661012051090554e-05 0 0 0 0
613000000 0.42410370758022 -0.9232988575575364 8.524381819019024e-05 -7.519837644804465e-05 0 0 0 0
622000000 0.4089053177667315 -0.9325153143744128 3.8283124548459686e-05 1.3848537223923555e-05 0 0 0 0
631000000 0.39178866423422243 -0.9404053652912292 -5.271637425047164e-05 1.9574558120376937e-05 0 0 0 0
640000000 0.3711397300344219 -0.9485146220570548 -3.231641277831815e-05 3.0338707906435463e-05 0 0 0 0
649000000 0.35927426988446814 -0.9536040636483587 3.569062895560139e-05 9.608664262980297e-05 0 0 0 0
658000000 0.3329602318959353 -0.9604551009437717 -3.955876545490745e-06 1.0578541263589537e-05 0 0 0 0
667000000 0.31740512672046356 -0.9656409115740214 4.534391828454911e-05 4.92016141019085e-05 0 0 0 0
676000000 0.3023831471832264 -0.9705299944241375 -1.492833481968588e-05 6.32460866180128e-05 0 0 0 0
685000000 0.2809582102099868 -0.9776667346519536 -3.204673170562501e-05 1.814915768749866e-05 0 0 0 0
694000000 0.2595594621557064 -0.9820786477222108 8.918150400617192e-06 -5.45216904336171e-06 0 0 0 0
703000000 0.2358458984849703 -0.987369490749729 7.391014364955911e-05 -4.038302601065085e-06 0 0 0 0
712000000 0.22142206595318165 -0.9885243116362112 1.887157698527305e-05 5.259118215309719e-05 0 0 0 0
721000000 0.19754100979871578 -0.9912930208731541 -3.2857519396258764e-05 3.606789092890884e-05 0 0 0 0
730000000 0.18355100397080948 -0.9925593736762871 -4.9019655157871516e-05 5.838327936532475e-05 0 0 0 0
739000000 0.1586218629278309 -0.9936757886800444 -5.710534899785116e-06 4.481107609536181e-05 0 0 0 0
748000000 0.14437648533764413 -0.9955505195031976 1.9843953443715002e-06 4.2749222025062384e-05 0 0 0 0
757000000 0.12537471248889107 -0.9952746752990356 4.666527430980017e-05 3.990039457271103e-05 0 0 0 0
766000000 0.09817210688200886 -0.9941156776192577 5.12393134040711e-05 4.234350988161246e-05 0 0 0 0
775000000 0.07520690799735406 -0.99362978624792 8.999359277977582e-05 5.355309639939484e-05 0 0 0 0
784000000 0.05539533357107351 -0.9915568589910528 4.422621471948925e-05 -7.458961645014488e-06 0 0 0 0
793000000 0.03913645119451921 -0.9910066410245997 -1.4705862800948772e-05 8.60553522151266e-07 0 0 0 0
802000000 0.014199802301513197 -0.9867493221876884 1.979604212354781e-05 1.4585838267321561e-05 0 0 0 0
811000000 0.004316839571940872 -0.9824465310195378 5.6855423370661446e-06 1.1328588752666601e-05 0 0 0 0
820000000 -0.016092340661027674 -0.9785710254919237 3.687900550583896e-05 -5.192091097419646e-05 0 0 0 0
829000000 -0.04400835097165093 -0.9727332317988817 6.040444638846996e-05 -3.7989724011188227e-05 0 0 0 0
838000000 -0.05275229905226833 -0.9666342773989726 -1.3317898138838508e-05 1.8912338261068252e-05 0 0 0 0
847000000 -0.07402193528039869 -0.9618660133867042 6.145651680431163e-05 3.949728404679934e-05 0 0 0 0
856000000 -0.0945870528075201 -0.9545159470824656 4.3103914875682384e-05 -4.8665641715913246e-05 0 0 0 0
865000000 -0.10846988015078288 -0.9471593515535687 9.609174231051597e-06 -5.1085780624483894e-05 0 0 0 0
874000000 -0.12724280342912622 -0.9410428330353513 8.728750496335266e-06 -8.173341547535826e-06 0 0 0 0
883000000 -0.13980370959603772 -0.9353837782375491 3.657863994821443e-05 5.257887362339808e-05 0 0 0 0
892000000 -0.1585621037456389 -0.9253755655296042 3.060078399418263e-05 -1.4224364839132224e-05 0 0 0 0
901000000 -0.17498974560620564 -0.9173290646284054 2.368728244451581e-06 5.339955655727178e-05 0 0 0 0
910000000 -0.18950140115972308 -0.9109278900343005 3.444085795935053e-05 -6.8105471406362324e-06 0 0 0 0
919000000 -0.20148408377704388 -0.9044483513301673 4.617815823769839e-05 6.527718661659989e-05 0 0 0 0
928000000 -0.21828572970602966 -0.8946019866863467 -2.9281874107008048e-05 5.941257835556757e-05 0 0 0 0
937000000 -0.2307868145993708 -0.8863667502263961 -1.3738494540575012e-05 -4.53009119101592e-05 0 0 0 0
946000000 -0.24561908525872436 -0.8771514596487794 -4.114272144588531e-05 4.887428587409553e-05 0 0 0 0
955000000 -0.25879945887177436 -0.8669513659774349 2.6029184989833626e-05 3.460182764250284e-05 0 0 0 0
964000000 -0.27468191960163807 -0.8578152957465263 1.6485398100649097e-05 2.8608399616455176e-05 0 0 0 0
973000000 -0.28227954901637164 -0.8514492545695602 5.0732585161048646e-05 -1.755722085668754e-05 0 0 0 0
982000000 -0.29864702222444756 -0.8431608364870102 3.563973849189571e-05 4.3468440695405574e-05 0 0 0 0
991000000 -0.3060713351230019 -0.8347583570187684 -2.5513553383941557e-05 1.173926742099302e-05 0 0 0 0
1000000000 -0.3216210105317285 -0.8250784686312084 2.8343717169320762e-05 5.646943063146947e-05 0 0 0 0
