# HZ S RI R 50
100000000 1.015053963040809 -0.21903887154582466 1.341381200300461e-05 -4.9963186325890056e-05 0 0 0 0
109000000 1.0078264821691416 -0.2344380839755445 -1.3880788768433692e-05 3.225379682370427e-05 0 0 0 0
118000000 1.0023815506065508 -0.24920339664671745 -3.743626220277769e-05 -2.9399629168379198e-05 0 0 0 0
127000000 0.9969674248705461 -0.26502050675516486 -8.16545284798765e-05 -5.007384823364975e-05 0 0 0 0
136000000 0.9916017903245711 -0.2807990293286803 -3.9987999604252645e-05 -1.6692142664878496e-05 0 0 0 0
145000000 0.9837189025803315 -0.2944344176659934 -1.603364700976929e-05 -2.3214831724910285e-06 0 0 0 0
154000000 0.9772980224576616 -0.31076242179829816 1.9747611521914774e-05 2.569437761995547e-05 0 0 0 0
163000000 0.9708102522982877 -0.3262768663035002 -2.0424858126559943e-05 -2.8420610382401997e-05 0 0 0 0
172000000 0.9649039602457975 -0.33822111426496115 5.769524463953744e-05 -3.907766192927654e-05 0 0 0 0
181000000 0.9578067385675111 -0.3542410652517532 2.3656344720560682e-05 2.2652516741841763e-05 0 0 0 0
190000000 0.9507765768668812 -0.3699931437526978 -6.0963620311901656e-05 -6.447322435847836e-05 0 0 0 0
199000000 0.9436058292027235 -0.3848662278612786 1.4805472031734463e-07 -1.5780363408243156e-05 0 0 0 0
208000000 0.9367392588885864 -0.39864515256266236 -3.248056500083516e-05 -1.1193999121486531e-05 0 0 0 0
217000000 0.9301999896810093 -0.41213141496745254 -1.2866914875366862e-05 1.5113628084887142e-05 0 0 0 0
226000000 0.9221886149806876 -0.4266442412671136 1.833164146415337e-05 3.280324136425961e-05 0 0 0 0
235000000 0.9144840725812603 -0.441311084502439 1.465681965284554e-05 1.7447742856181598e-05 0 0 0 0
244000000 0.9089075667740528 -0.45164683195463373 -6.170072820492873e-05 -3.8016927563510163e-06 0 0 0 0
253000000 0.8993541220037529 -0.467012177850254 2.7517823990963773e-05 -6.332116874305757e-05 0 0 0 0
262000000 0.8912849819486841 -0.48163625321118464 -3.8548092755597945e-06 4.06463787848521e-05 0 0 0 0
271000000 0.882696501986387 -0.4956415295543427 -3.4039019765805966e-05 5.419148177369975e-06 0 0 0 0
280000000 0.873807046447734 -0.5101291797323202 -1.263770368538917e-05 2.6789705540264047e-05 0 0 0 0
289000000 0.8638620457850554 -0.5240333160201807 -1.0996093423274899e-05 6.063835669176179e-05 0 0 0 0
298000000 0.8577274559801559 -0.5353499712054571 3.294206788343672e-05 0.00010867894406388023 0 0 0 0
307000000 0.8482177046030192 -0.5482302753868598 -1.0668015602892503e-05 3.013469251816882e-05 0 0 0 0
316000000 0.837497117181428 -0.5641768147187463 -3.553399260115894e-05 4.829532670914542e-05 0 0 0 0
325000000 0.8293449894708101 -0.5763011489811235 3.27435666402635e-05 2.5177420080053154e-05 0 0 0 0
334000000 0.8188174779662493 -0.5871056081950088 1.7586689500990368e-05 -1.2848370727662493e-05 0 0 0 0
343000000 0.809597918888283 -0.6015054440504417 -4.416785924373059e-05 -3.555627052542814e-05 0 0 0 0
352000000 0.799119098172259 -0.6134293338576899 -2.3807913475077614e-05 -6.0709508770435894e-05 0 0 0 0
361000000 0.7918727815620106 -0.6248371674239512 -3.8377331950645386e-05 -2.2512627721833908e-05 0 0 0 0
370000000 0.781583460348757 -0.6376066216729814 -2.1311332880916703e-05 -2.7837594186820228e-05 0 0 0 0
379000000 0.7690615624754349 -0.651125166654695 5.26450479856811e-06 -2.9890285277159504e-05 0 0 0 0
388000000 0.7594911785926681 -0.6632012286928773 7.2383695410065e-05 3.531767662246069e-05 0 0 0 0
397000000 0.7504987879091897 -0.6734872040842181 2.4564219037203225e-05 8.501195361332133e-06 0 0 0 0
406000000 0.7382574457168969 -0.6855720252944056 3.5393611377956146e-05 -1.4090095919710985e-05 0 0 0 0
415000000 0.7276448933153111 -0.6966346754598349 -2.1935267987275386e-05 2.200181285450475e-05 0 0 0 0
424000000 0.7160980190984441 -0.7090082089759254 -2.2562619685017003e-05 -2.317114471859556e-05 0 0 0 0
433000000 0.70323633540961 -0.7216643022360713 -4.3826055353094165e-06 2.3320756297433463e-05 0 0 0 0
442000000 0.6893649948985968 -0.7339068063540769 1.6602422640591322e-05 -4.26175773179247e-05 0 0 0 0
451000000 0.678559899010585 -0.7444308160200293 1.8160154409870394e-05 -2.383974381174395e-05 0 0 0 0
460000000 0.6694035503411768 -0.7562623141979463 6.945323520008092e-05 -3.2617725383844316e-05 0 0 0 0
469000000 0.6589637982280966 -0.7636642158639149 5.431492124289487e-05 -8.41747877661556e-05 0 0 0 0
478000000 0.6440535718090898 -0.7758416948223029 -1.9850520852766507e-05 2.42941789977423e-06 0 0 0 0
487000000 0.6330445662816564 -0.7868938359867204 6.595564083677392e-05 -1.0060248293650146e-05 0 0 0 0
496000000 0.6184963635460815 -0.7985356584909014 -5.8539927164525795e-06 -0.00010051393746982878 0 0 0 0
505000000 0.6040780012633523 -0.8103765564442369 -1.0947867089109823e-05 2.4188441401355296e-05 0 0 0 0
514000000 0.5935838543163743 -0.8189200159851369 1.6561516905786216e-05 3.8124657956578194e-05 0 0 0 0
523000000 0.5749104671725505 -0.8324830593234375 -7.450067328320757e-05 5.827430038255182e-06 0 0 0 0
532000000 0.5648728618520504 -0.8406326318825048 -6.764323790091562e-05 4.9219326586633934e-05 0 0 0 0
541000000 0.5492414535798356 -0.8502929631614108 -1.2529760283177194e-05 -1.5350310259835175e-05 0 0 0 0
550000000 0.5353176752298557 -0.859177313469632 -3.8113928876204367e-05 4.7615584294283994e-05 0 0 0 0
559000000 0.5216566769883298 -0.8699925282607964 1.2047923273367912e-05 -2.7173278612437807e-05 0 0 0 0
568000000 0.5089264809543604 -0.8765523166691838 1.912038053808434e-05 1.6447599750060948e-05 0 0 0 0
577000000 0.49177813859786534 -0.8873880184438623 2.3601555378530193e-05 -2.3632001778563526e-05 0 0 0 0
586000000 0.4724843283111238 -0.899172272538301 2.8029824075370075e-05 -2.1094290025661916e-06 0 0 0 0
595000000 0.46411146802554487 -0.905026425977369 -4.3851733240925954e-05 9.469712426422386e-06 0 0 0 0
604000000 0.43918121181789904 -0.9151639004115769 -3.5722391748491354e-05 -1.9266911445798682e-05 0 0 0 0
613000000 0.42699906710692287 -0.9226466141043299 6.0244846569707105e-05 1.088829351492e-05 0 0 0 0
622000000 0.41096247650816914 -0.9297909490771854 -3.463320383929175e-05 -1.0531870124958674e-05 0 0 0 0
631000000 0.3898368891394126 -0.9413345420918122 -4.386782519821477e-05 1.6979138584342588e-05 0 0 0 0
640000000 0.3759308188188239 -0.9455966787774832 -3.561292458872841e-05 2.910306169898469e-05 0 0 0 0
649000000 0.358495532336883 -0.9527325756590413 4.771867708032596e-06 4.831046132556289e-05 0 0 0 0
658000000 0.33648420728005146 -0.9623838216852512 -5.4693798503499575e-05 1.504831831179919e-05 0 0 0 0
667000000 0.3186709383141011 -0.9675590481622881 5.977950464954969e-06 -3.2915934231253744e-05 0 0 0 0
676000000 0.3019189154580318 -0.9701708467164093 -4.5858112073540396e-07 4.17275067948931e-05 0 0 0 0
685000000 0.2773455970184785 -0.9790382579670235 1.8463311883230528e-05 2.5834139713049215e-05 0 0 0 0
694000000 0.2669889969577401 -0.9789871271404085 3.32679225887712e-06 -1.6116051199669758e-05 0 0 0 0
703000000 0.2435105175308994 -0.984150287660045 4.964615611196645e-05 8.410423307615882e-05 0 0 0 0
712000000 0.21904028771359535 -0.9895466998426176 6.733149951260727e-05 3.0729731109877314e-05 0 0 0 0
721000000 0.19898556247286678 -0.9923092503509403 9.021650083594402e-05 5.412257439298648e-05 0 0 0 0
730000000 0.18109093187995481 -0.9926170010733412 4.1050192545117615e-05 8.110763044402454e-05 0 0 0 0
739000000 0.162698801772402 -0.994410414166379 7.179430226083492e-05 1.979468341526736e-05 0 0 0 0
748000000 0.13180085347137696 -0.9968266653016674 4.1495101235434154e-05 8.948751012474036e-05 0 0 0 0
757000000 0.11808171948274351 -0.9945346764431782 -4.3269554123730145e-05 5.6909079057995935e-05 0 0 0 0
766000000 0.09547007817012466 -0.9948548174167128 4.1262425799965354e-05 5.472959215564742e-06 0 0 0 0
775000000 0.0764301371284376 -0.9933488787305731 7.876609076281794e-05 2.8100430133317814e-05 0 0 0 0
784000000 0.06058618515766589 -0.9918675143029474 1.8744850384694027e-05 6.057698527290844e-05 0 0 0 0
793000000 0.03281742388653762 -0.9894851044493682 3.110740775227677e-05 -5.113572047137733e-05 0 0 0 0
802000000 0.01815015120267943 -0.9851345349264726 3.8340998687384576e-05 4.143718577752749e-05 0 0 0 0
811000000 0.00041333575932418396 -0.9824948899492736 -2.0159737145748662e-05 2.8669246247636183e-05 0 0 0 0
820000000 -0.02584423501786007 -0.9757449202142975 0.00011190587979699579 -5.252644182882138e-06 0 0 0 0
829000000 -0.03607680870942485 -0.973002659429415 9.339093528346542e-05 -1.2711423845762584e-05 0 0 0 0
838000000 -0.05818024361847524 -0.9679613772145972 7.466714868002761e-05 -7.904595760929951e-05 0 0 0 0
847000000 -0.07162053264798246 -0.9619969529577731 2.2212099671941284e-05 5.124263916443443e-05 0 0 0 0
856000000 -0.09272201923519213 -0.9553772165384203 5.1851735488644755e-05 -4.276461907951505e-05 0 0 0 0
865000000 -0.10483977885011199 -0.9477585549635612 2.276397211908157e-05 -1.0627562193848702e-05 0 0 0 0
874000000 -0.1294110911543387 -0.9408107179808152 -1.1954013537416797e-05 -3.070354970613932e-05 0 0 0 0
883000000 -0.14177008023854948 -0.9360108315398018 -3.4531787434548845e-06 -1.197515631842524e-05 0 0 0 0
892000000 -0.15604467496429664 -0.9255920534785126 -1.7341833147089895e-05 1.1413232131503097e-05 0 0 0 0
901000000 -0.1752943569706031 -0.919518751566895 3.605823130102875e-06 1.743990373003722e-05 0 0 0 0
910000000 -0.18642213854288184 -0.9101889293303693 -1.405160329119776e-06 5.2193814841869534e-06 0 0 0 0
919000000 -0.2017772091462221 -0.9022793354228942 -2.3535687697688896e-05 6.624069942891933e-05 0 0 0 0
928000000 -0.2196242502435382 -0.8941516057108022 -4.580641436493635e-06 -6.008822182436489e-05 0 0 0 0
937000000 -0.22190553723497594 -0.8868914304050237 -3.833178356581812e-05 -8.035193485686762e-06 0 0 0 0
946000000 -0.2503216502860886 -0.8771490171119873 1.7345435964139773e-05 5.5248978350994786e-05 0 0 0 0
955000000 -0.25314651254695913 -0.8692031631950428 8.479186618563431e-05 -1.2252584882136747e-05 0 0 0 0
964000000 -0.2651173549840298 -0.860844645045473 3.185429790772288e-05 3.8673794235875656e-05 0 0 0 0
973000000 -0.28425205504649736 -0.8514747508426349 6.442858560794221e-06 -2.2016563964624113e-05 0 0 0 0
982000000 -0.29660647227003833 -0.8435828697042685 -0.00010709343746913347 9.631504680059997e-06 0 0 0 0
991000000 -0.30285812324346517 -0.8361769733005278 -5.5823758617048944e-05 6.778089513836762e-06 0 0 0 0
1000000000 -0.3215017828362734 -0.8256119019341948 1.356406533593087e-05 -1.3274381008741735e-05 0 0 0 0
