# HZ S RI R 50
100000000 1.0122347024673386 -0.21970107321274146 9.878824821909863e-05 3.843891951417277e-05 0 0 0 0
109000000 1.007703971747158 -0.2339796967798583 3.881919732245852e-06 -1.0839943186014429e-05 0 0 0 0
118000000 1.0025818209750548 -0.249391533330112 -9.594522995495058e-05 -6.743567948722847e-05 0 0 0 0
127000000 0.9968027407589949 -0.26532625086681044 2.303570889422847e-05 2.8240398914697364e-05 0 0 0 0
136000000 0.9913749996974718 -0.28009813654713883 2.4144248785798076e-05 -1.1527542629804185e-05 0 0 0 0
145000000 0.9830398143604722 -0.2951634870143557 -5.035973820296528e-05 3.529872464900169e-05 0 0 0 0
154000000 0.977074485092626 -0.3102882610947207 4.256255494397569e-05 -4.790466574687437e-05 0 0 0 0
163000000 0.9712149629250043 -0.3253508798695787 -2.2526152927187824e-05 9.000893235512098e-06 0 0 0 0
172000000 0.9636589944013704 -0.34079642299248036 5.237470501865307e-05 4.05001201900485e-05 0 0 0 0
181000000 0.9577211252381297 -0.35496171026841417 -9.831643407124208e-05 3.546520898138298e-05 0 0 0 0
190000000 0.9505696204708344 -0.3711900436457489 -4.43615176525006e-05 -1.3043373264529408e-05 0 0 0 0
199000000 0.9438039622930567 -0.38482235774352 6.115814115797858e-05 5.547131068586443e-05 0 0 0 0
208000000 0.937465933427293 -0.39776671683047327 -5.345783223382743e-05 2.204301829991238e-05 0 0 0 0
217000000 0.9294504262624325 -0.4135952150049336 8.27568337749137e-06 3.184907841093596e-05 0 0 0 0
226000000 0.9218307568996621 -0.426173558004621 4.725709714978894e-05 9.554692573970362e-06 0 0 0 0
235000000 0.9147783104525734 -0.4393834789409661 -2.482615633141479e-05 -2.554457589914463e-05 0 0 0 0
244000000 0.9079482082980311 -0.4537917608283676 3.1060512269971055e-05 -1.6562424402925104e-05 0 0 0 0
253000000 0.8998076630636763 -0.46691861237613624 -7.673066966673342e-05 1.6402756526758854e-05 0 0 0 0
262000000 0.8918134380004202 -0.4815303761513836 -7.662844338699828e-06 4.839367203522353e-05 0 0 0 0
271000000 0.8823862427593229 -0.4971404512055974 2.8580895919623172e-05 -8.715641497970218e-05 0 0 0 0
280000000 0.8750200388269411 -0.5076739492496243 9.062126066003242e-06 8.224152808949272e-06 0 0 0 0
289000000 0.8656962376511803 -0.5222582882398894 -2.1227422757746015e-05 -2.3831080026603623e-05 0 0 0 0
298000000 0.8573515486831828 -0.5345132599741488 3.126129322837929e-05 -3.026430005232146e-05 0 0 0 0
307000000 0.8459989393188526 -0.5498888540825679 -1.3100492327746457e-05 -1.7081512354978124e-05 0 0 0 0
316000000 0.8378695710165094 -0.5621687760718901 3.438297156526563e-08 -6.812511379279128e-06 0 0 0 0
325000000 0.8293305387354469 -0.5745767019462888 -1.8344730950477543e-05 -1.1307983986374576e-05 0 0 0 0
334000000 0.8207404425449906 -0.5870329888227303 -4.69751398715679e-05 4.796395603310963e-05 0 0 0 0
343000000 0.8108547138132469 -0.6004025541658466 6.276764967617888e-06 -9.18962313596705e-06 0 0 0 0
352000000 0.8014962730799117 -0.6131664784798836 1.587682569812999e-05 -9.710857994493507e-06 0 0 0 0
361000000 0.7905177881877931 -0.6247335597227894 7.4819169576349815e-06 -5.4090167788404914e-05 0 0 0 0
370000000 0.7807437990697893 -0.6359307094801734 -1.754003048246337e-06 -7.34762448269103e-05 0 0 0 0
379000000 0.7712037597750786 -0.6488699883827871 -1.2267977118970327e-05 2.6305780240551435e-05 0 0 0 0
388000000 0.7613397765724597 -0.6608531319947477 -8.993808010297361e-06 -1.547255045083874e-05 0 0 0 0
397000000 0.7490681001916623 -0.6736858212646836 4.348472336097529e-05 6.553042281300862e-06 0 0 0 0
406000000 0.7383538194529204 -0.6861871470851469 -2.890321833190764e-05 -2.7141662998339033e-05 0 0 0 0
415000000 0.7306272602158047 -0.695200141484755 -7.798910073473071e-05 -8.69304709051548e-05 0 0 0 0
424000000 0.715583312772285 -0.7086896858644139 2.263140744983537e-05 5.6913628882460744e-05 0 0 0 0
433000000 0.7068286017759796 -0.7190792376041424 2.596586223455568e-05 2.8406715324186656e-05 0 0 0 0
442000000 0.6931220030643968 -0.7307968072764277 -1.2483580549959657e-05 3.421399604598064e-05 0 0 0 0
451000000 0.6793444893931136 -0.7453832778008761 -1.7628125241210026e-05 5.191921982561495e-05 0 0 0 0
460000000 0.6666915434378771 -0.7571248587581195 -2.2162653809219074e-05 -4.372186054536599e-05 0 0 0 0
469000000 0.6553847188076587 -0.7662242538000628 7.471072673606185e-05 2.0365536155631843e-05 0 0 0 0
478000000 0.6445811177837102 -0.7762127184648211 5.327496060511284e-05 1.5543485015255755e-05 0 0 0 0
487000000 0.6322463413609084 -0.7867015722487558 1.7418061090015115e-05 2.1295051922153272e-05 0 0 0 0
496000000 0.6198955291144652 -0.7977099707633151 4.505923851232329e-05 5.897027290972194e-06 0 0 0 0
505000000 0.6087786739765323 -0.8070249536260772 -1.0973902347881e-05 1.619781792705169e-05 0 0 0 0
514000000 0.59436835934873 -0.8178674452055359 -6.510999108988839e-06 1.597019578448569e-05 0 0 0 0
523000000 0.5772397870082681 -0.8295936370131067 -4.333210578317787e-05 6.072677615510957e-05 0 0 0 0
532000000 0.5665892222543255 -0.8390512033205503 -1.6705901593540748e-05 -1.6137740113416992e-05 0 0 0 0
541000000 0.5530016423390669 -0.849103832495019 -1.538606427149847e-05 -4.225701808227818e-05 0 0 0 0
550000000 0.5345387957471379 -0.8604962991068025 7.25953858635261e-05 -2.677967759594525e-05 0 0 0 0
559000000 0.5229066240952736 -0.8705873355536233 7.787074787519145e-05 -4.673210926319873e-05 0 0 0 0
568000000 0.5084790362514354 -0.8779751947426954 -4.259977629783981e-05 1.804734074813557e-05 0 0 0 0
577000000 0.48836706718451856 -0.890191734056603 -1.4437301881206543e-05 6.455523169670135e-06 0 0 0 0
586000000 0.473428405706542 -0.900485174922301 -7.772500016241517e-06 -5.284624352692301e-05 0 0 0 0
595000000 0.45916807603996684 -0.9059285993334208 -4.750550267520204e-05 -7.931376243867329e-06 0 0 0 0
604000000 0.4418264774896303 -0.91596175325471 -1.688742898544556e-05 -3.079223524283188e-05 0 0 0 0
613000000 0.43287565014363255 -0.919504114664144 -5.023502342509009e-06 2.5206086910109225e-05 0 0 0 0
622000000 0.40527868301385855 -0.9326109013199501 2.9605207718385985e-05 6.653349952702503e-05 0 0 0 0
631000000 0.38728356040743006 -0.9425592217543629 5.440501269803589e-05 -1.4982860720654824e-05 0 0 0 0
640000000 0.37798440102068254 -0.9464648258721592 -2.5505481252894988e-05 7.396800516288459e-06 0 0 0 0
649000000 0.3517724614262504 -0.954188051361127 1.4644213584489606e-06 -1.8043829046795803e-05 0 0 0 0
658000000 0.3424505067843317 -0.9591219092188921 -2.980026637461335e-05 3.676673072317488e-05 0 0 0 0
667000000 0.3192311207443437 -0.9671261340837254 5.279455148120893e-05 7.398767420047441e-06 0 0 0 0
676000000 0.2979495640968587 -0.9702274782038388 -3.164800376887435e-05 0.00010591035236573722 0 0 0 0
685000000 0.27764729869028326 -0.9775472644951414 2.5763035623004618e-05 5.778586564212653e-05 0 0 0 0
694000000 0.2619300677089035 -0.9806088741134804 7.322701569328408e-05 1.3790734681170647e-05 0 0 0 0
703000000 0.23919478869559077 -0.9833571923411548 5.741334810355511e-05 7.723946288401301e-06 0 0 0 0
712000000 0.21728455350505274 -0.9887303842187269 -1.38269115489263e-05 4.399712192538378e-05 0 0 0 0
721000000 0.2059753296955556 -0.9902567033755509 -2.0118472994123275e-05 3.266786869570869e-05 0 0 0 0
730000000 0.17404933906911554 -0.9949619247613405 8.717771174577253e-07 5.7418890836287615e-05 0 0 0 0
739000000 0.16267430920262807 -0.9956299977293944 1.571204972558954e-05 6.68333969163895e-06 0 0 0 0
748000000 0.1442176073131819 -0.9942509274378429 2.6356372842211155e-05 2.829457576258376e-05 0 0 0 0
757000000 0.11641622646196152 -0.9960478211320569 1.4531630797058095e-05 7.141605709304071e-05 0 0 0 0
766000000 0.09707646200134568 -0.9959147509102036 0.00010448825323335221 3.918004590008948e-07 0 0 0 0
775000000 0.0805438215160639 -0.9938704701766002 1.1384276321383682e-05 4.3128374532399185e-05 0 0 0 0
784000000 0.0599499741452348 -0.9902195532004742 6.144127218192772e-05 3.390995248813571e-05 0 0 0 0
793000000 0.040583531394740045 -0.9870446440376357 2.4047092801076934e-05 7.593571448369315e-05 0 0 0 0
802000000 0.01715204993073564 -0.9862719000774371 0.00015648631012474411 -5.429305243832811e-06 0 0 0 0
811000000 -0.002085252421175465 -0.9827754719217007 9.760169600743002e-05 2.6019776833602588e-05 0 0 0 0
820000000 -0.020705023182033173 -0.9767580381921936 5.978869667553389e-06 4.0089375498917355e-05 0 0 0 0
829000000 -0.038916085810724914 -0.9709467081961194 2.4007660855184726e-05 -2.1692172742055637e-05 0 0 0 0
838000000 -0.0566679108182316 -0.9673335856150513 1.2399248417106694e-05 7.509718660504503e-07 0 0 0 0
847000000 -0.07957568459185715 -0.9626894038750606 -5.5224706856696946e-05 9.760570039590422e-06 0 0 0 0
856000000 -0.09341186789264751 -0.9543828993673936 2.2281689066234135e-05 3.809016185575197e-05 0 0 0 0
865000000 -0.11084622633195758 -0.9487743352585938 7.554405179329252e-06 2.3593845681979156e-05 0 0 0 0
874000000 -0.12258024070925343 -0.9417490806528628 -4.1234819927362515e-05 -8.258724541870868e-05 0 0 0 0
883000000 -0.14135777440613223 -0.9317743823918502 1.2627839913814968e-05 4.43296524117581e-06 0 0 0 0
892000000 -0.16143545417687313 -0.9256843547978975 2.541782427156369e-05 0.00010145303495923317 0 0 0 0
901000000 -0.16457288357203256 -0.9205471471795591 -3.208634560330388e-06 4.961139437188051e-05 0 0 0 0
910000000 -0.18448379870104967 -0.911224819901343 -2.4846025417866385e-05 5.6198307791678314e-05 0 0 0 0
919000000 -0.20034794027419542 -0.9021988078094205 -8.058077176016816e-06 7.265047750541653e-05 0 0 0 0
928000000 -0.21602450795952793 -0.893670996404426 2.4056779229614185e-05 -1.1774646567235618e-05 0 0 0 0
937000000 -0.2255217387749114 -0.8897356465645758 0.00010701583759850361 1.5559104403992922e-05 0 0 0 0
946000000 -0.24625405301324627 -0.8769128732645686 5.295455493211743e-05 -4.8668479975777045e-06 0 0 0 0
955000000 -0.25499392704566193 -0.8702613620383154 9.0137587671805e-05 6.466750654300293e-05 0 0 0 0
964000000 -0.27026389801016965 -0.8616353019318451 1.72559381543333e-05 -2.582546908609879e-05 0 0 0 0
973000000 -0.2777576892835976 -0.8518464255096785 -1.0368815712174091e-05 -1.2042337787833287e-05 0 0 0 0
982000000 -0.2981699661495715 -0.8416146593069127 3.9901612665925726e-05 4.10967845844549e-06 0 0 0 0
991000000 -0.3042553920880442 -0.8375718778471573 -2.006741949308386e-05 -5.154299403822002e-06 0 0 0 0
1000000000 -0.3155673651386204 -0.8283823416674797 4.212793135249542e-05 5.989373257242115e-05 0 0 0 0
