# HZ S RI R 50
100000000 1.0071022543058663 -0.21927784440186524 5.615356445009668e-05 -4.592433597582553e-05 0 0 0 0
109000000 1.007434002654694 -0.23488602586033763 2.937865267775147e-05 3.917185497375463e-05 0 0 0 0
118000000 1.0025951537468563 -0.24942870218012525 -1.4966986514533117e-05 1.1389311307810273e-05 0 0 0 0
127000000 0.9972354773742652 -0.26499265834753716 -3.858613724690842e-05 1.0907948689707686e-06 0 0 0 0
136000000 0.9912669534539352 -0.2802944563979717 1.1849911804544023e-05 1.4476946896326083e-06 0 0 0 0
145000000 0.9836373437319635 -0.2939564796230367 1.2311558656691516e-05 1.0781461632829016e-05 0 0 0 0
154000000 0.9772661975155227 -0.3097957923522242 2.53441506639141e-05 -1.2095263831862546e-05 0 0 0 0
163000000 0.9705919966858678 -0.32466928872662365 8.959587326831316e-06 -3.0503782545102525e-05 0 0 0 0
172000000 0.963701390509429 -0.3410449923692514 -1.57396445089579e-05 3.487672359906676e-05 0 0 0 0
181000000 0.9569343141546938 -0.35635283301985227 -3.404917368370551e-06 1.9243838937713094e-05 0 0 0 0
190000000 0.9511753283514736 -0.36894580815504213 -6.788553263509999e-06 -7.279869910435021e-06 0 0 0 0
199000000 0.9437158482312473 -0.38398272245400944 -1.698111469086436e-05 1.445734929896889e-05 0 0 0 0
208000000 0.9371754679540066 -0.3975326781300598 1.7321123682578897e-05 -1.2859582030925114e-05 0 0 0 0
217000000 0.929377392104458 -0.4125866247081057 7.02968268123126e-06 -1.1128592625058738e-05 0 0 0 0
226000000 0.9227161051955024 -0.4266483971413469 2.4042051447112973e-05 5.3357904934083544e-05 0 0 0 0
235000000 0.9145701991080949 -0.44057459377230207 -2.1466073004642564e-05 -2.8084603652582057e-06 0 0 0 0
244000000 0.9070757968422273 -0.4545280613724138 2.7163680362731408e-05 1.69044199461794e-05 0 0 0 0
253000000 0.8987998343759991 -0.4681113078044807 4.243764777108891e-05 -1.1842678564418559e-05 0 0 0 0
262000000 0.8921072243505248 -0.4812213958366774 -1.2163545901452181e-05 3.384974071422225e-05 0 0 0 0
271000000 0.8826454173760865 -0.49573114684360914 -3.133094618847815e-05 3.843036377377152e-06 0 0 0 0
280000000 0.8735330043558371 -0.5099239991446134 1.703527212718113e-05 -2.1628319754147507e-05 0 0 0 0
289000000 0.866068923190248 -0.5222218463189161 -4.856491726867259e-05 5.011350373311932e-05 0 0 0 0
298000000 0.8570174337857888 -0.5345195615654573 -1.0066339510934421e-05 8.853222389962085e-09 0 0 0 0
307000000 0.8481430829798635 -0.5495809864996531 -4.5446988985934026e-05 -1.6449926792782534e-05 0 0 0 0
316000000 0.8371685821145222 -0.5643086496272849 -6.34271578493732e-05 -1.0058520195463776e-05 0 0 0 0
325000000 0.8302302870023057 -0.5747005421276563 -3.214523848737824e-05 1.670958987637329e-05 0 0 0 0
334000000 0.8204029148887455 -0.5867854167870952 -5.540077196284027e-06 5.068483144283518e-06 0 0 0 0
343000000 0.8105699464410441 -0.6013751587386107 6.939096697720366e-05 1.1293909619692453e-05 0 0 0 0
352000000 0.8009021758135798 -0.6142529099167936 5.3295133847349e-06 -1.8187445093984473e-05 0 0 0 0
361000000 0.791909143533 -0.6237770204015513 2.7320734645580486e-05 -1.257768148934855e-05 0 0 0 0
370000000 0.779409789487741 -0.6387274158143798 1.3148845852790706e-05 9.85757462635043e-06 0 0 0 0
379000000 0.7703197256184766 -0.6497278341155422 -1.903567323820615e-05 -3.445298972408263e-05 0 0 0 0
388000000 0.7598899500405378 -0.6609781583990754 3.6773415676045194e-06 -6.799114698850152e-05 0 0 0 0
397000000 0.7525417588818736 -0.6710149978601636 -6.13337878637298e-05 1.3190824296711614e-05 0 0 0 0
406000000 0.7376005944474073 -0.6865082209386033 -1.2621898878197356e-05 -9.774094151349555e-06 0 0 0 0
415000000 0.7266202089385891 -0.6977198731676603 -5.179602575699363e-05 6.2216037687350475e-06 0 0 0 0
424000000 0.71543892048107 -0.7097016930952329 -2.1865256617541796e-05 -3.234449609801775e-05 0 0 0 0
433000000 0.7080889970161484 -0.7177842692823443 6.403367421866719e-05 -4.26471354571224e-06 0 0 0 0
442000000 0.6913761647074169 -0.7319383257602812 -5.289593083583158e-05 1.5179241766718377e-05 0 0 0 0
451000000 0.6787559312608188 -0.7457259192922746 2.0675086856312122e-05 -6.326716454709191e-05 0 0 0 0
460000000 0.6680571157320931 -0.7530514042539409 2.1745142515874604e-06 -5.0293144013427656e-05 0 0 0 0
469000000 0.6570299298502364 -0.7650796074216568 2.9437712828915372e-06 6.877557778764628e-05 0 0 0 0
478000000 0.6442147844734886 -0.7764240710414699 2.5381902311561927e-05 7.736646267344017e-06 0 0 0 0
487000000 0.6319025957026122 -0.7870080746830407 -2.674303336977469e-05 3.7066205658619665e-05 0 0 0 0
496000000 0.617909041773706 -0.7992248959331327 6.04423836731382e-06 5.60759803380649e-05 0 0 0 0
505000000 0.6048793923911919 -0.8096242160226977 -1.4605996709410751e-06 6.476434637902237e-06 0 0 0 0
514000000 0.5947500544331095 -0.8178376127939281 9.25421258311548e-06 4.135296119065703e-05 0 0 0 0
523000000 0.5805556076440404 -0.8296686286961137 -1.0030180965007403e-05 7.757355401952733e-05 0 0 0 0
532000000 0.5663101745756162 -0.839067508497551 1.8369955283657875e-05 7.902505230013184e-06 0 0 0 0
541000000 0.549954432300358 -0.8499247015869237 -4.336030252091827e-06 -1.1235103971940456e-05 0 0 0 0
550000000 0.5362212680345186 -0.8596413889191531 -1.7815274672261032e-05 3.282519727140636e-06 0 0 0 0
559000000 0.5203677712442013 -0.8704920616035227 -2.29922943772951e-05 -5.850823283096434e-05 0 0 0 0
568000000 0.5072074109691838 -0.8774964632924216 2.0704649685338358e-05 8.400671305248343e-06 0 0 0 0
577000000 0.4851635857753575 -0.891384737212388 -3.0309445704143288e-05 -2.6660057781278e-05 0 0 0 0
586000000 0.47203578501889304 -0.8991644135624749 4.7981316942581385e-05 1.958087288980636e-05 0 0 0 0
595000000 0.4587000698645006 -0.9049016157016312 -3.929214078622302e-05 -4.879802997730789e-05 0 0 0 0
604000000 0.4440568283049577 -0.9157164151352002 -1.0435726423021776e-05 7.842487336555117e-06 0 0 0 0
613000000 0.425598127636596 -0.9230896890752722 -2.8293823583895904e-06 3.847597936243245e-06 0 0 0 0
622000000 0.4106066890336083 -0.9297163700869221 -2.622294421546875e-06 2.7228798079622978e-05 0 0 0 0
631000000 0.39265245708359425 -0.9379635008762789 7.871206354907244e-06 -4.872433304470026e-05 0 0 0 0
640000000 0.36864858050684735 -0.9480295080415918 -6.440585545329441e-05 4.03609589048838e-05 0 0 0 0
649000000 0.3549053996514106 -0.9545574856894611 -5.978298370050242e-05 1.9641366281207856e-05 0 0 0 0
658000000 0.33833593870063583 -0.9590130474028883 -2.3456505748778103e-05 2.1432188397922562e-05 0 0 0 0
667000000 0.31936819262348776 -0.9647238630356111 3.6185325227493035e-05 0.00010549182185621822 0 0 0 0
676000000 0.29579416766875577 -0.9713760572360984 -3.2036799977355467e-05 1.4045420015913585e-05 0 0 0 0
685000000 0.27654059654217955 -0.9763649559980941 -2.366024408416929e-05 5.103003999636242e-05 0 0 0 0
694000000 0.2607360545101037 -0.981722025436994 -8.744409962103418e-06 4.5548180334620804e-05 0 0 0 0
703000000 0.24926722393862505 -0.9827730389175975 5.7112986396020946e-05 3.804806726665409e-05 0 0 0 0
712000000 0.2246768774920849 -0.9863988145214176 7.849450137750586e-05 7.712283961821358e-05 0 0 0 0
721000000 0.20106826964556357 -0.9939897300284927 5.0278942299155326e-05 4.022971152662894e-05 0 0 0 0
730000000 0.1758198226633338 -0.9928599483499583 3.901207438781596e-05 1.578346554757884e-05 0 0 0 0
739000000 0.1578168853681632 -0.9956923884481103 1.7784809104103904e-05 0.0001159172042275933 0 0 0 0
748000000 0.136904332657204 -0.995308415967849 1.471337626615329e-05 9.689484434731109e-05 0 0 0 0
757000000 0.11969783126908666 -0.9962245084322201 -1.6434116467862087e-05 7.161581552483287e-05 0 0 0 0
766000000 0.09838979431190523 -0.9931643745872858 1.016723985921507e-05 0.00011513436125192005 0 0 0 0
775000000 0.07848041040063283 -0.9935622462722582 9.823357761666872e-06 2.611514668897723e-05 0 0 0 0
784000000 0.057429988189023395 -0.9917072282505572 8.809013336211017e-05 2.9348730053437856e-05 0 0 0 0
793000000 0.04171541129640978 -0.9888249338717182 8.531817453916506e-05 1.634978963385967e-05 0 0 0 0
802000000 0.017395622333630546 -0.9846588739258897 2.1712302808706672e-05 6.463674441083694e-06 0 0 0 0
811000000 -0.000573120406373071 -0.9802999369256526 4.855763196072851e-05 -6.183272631345281e-05 0 0 0 0
820000000 -0.01992947604549907 -0.9781454645669393 2.9211990147360724e-05 -5.812711720457675e-05 0 0 0 0
829000000 -0.03981284254080129 -0.9721203572697139 9.852287251655522e-05 -7.566183705187063e-05 0 0 0 0
838000000 -0.05693053726566808 -0.9664355307153906 2.3250629064307643e-05 -4.1416627921448376e-05 0 0 0 0
847000000 -0.07281296427959792 -0.9625989733702258 5.627392683458939e-05 2.5044958298419387e-05 0 0 0 0
856000000 -0.0982735959163398 -0.9562258502347339 9.53280493161659e-06 -3.1223942665491655e-05 0 0 0 0
865000000 -0.10743059043683142 -0.9463099733104238 -1.6638718943209215e-05 0.00010728401588241567 0 0 0 0
874000000 -0.12238954916217845 -0.9415717949559061 4.4935779088958106e-06 -5.854948289148109e-05 0 0 0 0
883000000 -0.13844697125941816 -0.9336706854644362 4.308834745181108e-05 -2.312979667992492e-05 0 0 0 0
892000000 -0.1610256101967794 -0.9260731115133795 5.687967127010659e-05 7.055287549085303e-06 0 0 0 0
901000000 -0.17904021364396466 -0.918929527235041 1.1137603034938928e-05 -2.264140948901345e-05 0 0 0 0
910000000 -0.18685719732998904 -0.9119136776048298 3.3365910763680324e-05 -2.11452658814179e-05 0 0 0 0
919000000 -0.20413071491317314 -0.9023988419763773 -5.740645689415391e-05 4.0005047725767275e-05 0 0 0 0
928000000 -0.21525868882835886 -0.8940671563964692 6.18572170000819e-05 2.7886280365123116e-05 0 0 0 0
937000000 -0.22410629495409218 -0.8885770450398888 7.630206726771674e-06 5.2989789523031585e-05 0 0 0 0
946000000 -0.24378778500282722 -0.8784792508082304 -6.558990921072372e-05 1.1173990956835764e-05 0 0 0 0
955000000 -0.25660900394297204 -0.8693843694774397 5.312929106758525e-05 3.612784151753026e-05 0 0 0 0
964000000 -0.26987532966677624 -0.8610190865494514 2.3364306050988838e-05 -1.6295566221854318e-05 0 0 0 0
973000000 -0.28241846645097507 -0.853200012144382 -7.488474767393427e-06 -9.026098612358022e-05 0 0 0 0
982000000 -0.2992692541767617 -0.8420137476471639 5.788854600534007e-05 2.1626557443850766e-05 0 0 0 0
991000000 -0.3039280401071561 -0.8359129305118145 2.2251124251988375e-05 1.8968177750367202e-05 0 0 0 0
1000000000 -0.31981515021166035 -0.8247478109988617 1.1804130145534446e-05 3.5741299849727034e-05 0 0 0 0
