# HZ S RI R 50
100000000 1.0126717285430937 -0.21869123560623177 4.3754533920272816e-05 -2.7289175863722123e-05 0 0 0 0
109000000 1.007822880984467 -0.23451401380557643 -1.683104266652809e-05 3.6020798448912345e-05 0 0 0 0
118000000 1.0020939163579325 -0.2505338526377812 5.996978910264566e-05 -8.491520347422564e-06 0 0 0 0
127000000 0.9970802212436396 -0.2643457469733083 -3.014189411637746e-06 7.203208237090466e-05 0 0 0 0
136000000 0.9916393715433703 -0.28000567352520567 3.765044094869189e-05 -1.336947273409639e-05 0 0 0 0
145000000 0.983704931654719 -0.2961172745548242 -1.8116938464408314e-05 6.325016554882303e-05 0 0 0 0
154000000 0.9765616398469117 -0.31092893762198515 1.4367508719462359e-06 -1.8070144310127543e-05 0 0 0 0
163000000 0.9713309533012755 -0.3251116653681571 8.355152785929244e-06 -3.1449568418038495e-06 0 0 0 0
172000000 0.9643326297073254 -0.34009644799146727 -4.3060774644818785e-06 1.7687394663358308e-05 0 0 0 0
181000000 0.9570519545883012 -0.3556294367954964 1.3333879223996073e-05 -6.01319052394011e-05 0 0 0 0
190000000 0.9498038182131837 -0.3714990006289479 -4.353302444789406e-05 1.8825379672094908e-05 0 0 0 0
199000000 0.9439657494153562 -0.3840927024124383 -5.339557829446746e-05 -1.7796335881465362e-06 0 0 0 0
208000000 0.9372874421797123 -0.39705575897397427 1.9993319081185785e-06 -9.444110366244777e-06 0 0 0 0
217000000 0.9294498584932648 -0.4132548007258115 1.8672842304191405e-07 -2.1775465737554887e-05 0 0 0 0
226000000 0.9218219014798612 -0.4268405675996695 -2.3488129851382318e-05 3.0300701434552536e-05 0 0 0 0
235000000 0.9151416699569114 -0.4401978941815617 2.740550375007719e-05 -1.11620004977508e-05 0 0 0 0
244000000 0.9067572957403 -0.4540308810515704 1.7008711398097125e-05 1.6528816403607927e-05 0 0 0 0
253000000 0.8984841248168658 -0.469668425370543 -3.338492098753432e-05 -1.1979805730439665e-05 0 0 0 0
262000000 0.8916099941095874 -0.4814344136517924 8.069591432917169e-07 -2.799355983199854e-06 0 0 0 0
271000000 0.8833610783892295 -0.4950290350838535 8.850861480405419e-06 1.5891258593052097e-05 0 0 0 0
280000000 0.873268725857565 -0.5089338867031692 -1.8175154215690376e-05 3.929277599931319e-06 0 0 0 0
289000000 0.8651916197412668 -0.524348449666668 -4.170585584316848e-05 3.167535593996411e-05 0 0 0 0
298000000 0.8578354255444535 -0.5349811372829414 -2.5322822576050578e-05 -8.742631743156499e-05 0 0 0 0
307000000 0.849577778827152 -0.5471433835872447 -2.7935051030201823e-05 1.3505361826915376e-05 0 0 0 0
316000000 0.8373891172221122 -0.564331324767032 2.268952391554513e-06 -1.85941698674545e-05 0 0 0 0
325000000 0.829204143435592 -0.5743196607321406 -1.5900959003088608e-05 -5.089325258084204e-05 0 0 0 0
334000000 0.8207062302028244 -0.5866545982451381 1.4716995089214017e-05 2.3564641010169464e-05 0 0 0 0
343000000 0.8099953865126763 -0.6002460292990632 -8.72447132692685e-05 1.3332322302110887e-05 0 0 0 0
352000000 0.8018878634198654 -0.6105103147851144 2.6437486831263193e-05 -3.822540137738259e-06 0 0 0 0
361000000 0.7904982179822727 -0.6244809303984482 1.7138158370321903e-05 -2.2200013051735356e-05 0 0 0 0
370000000 0.7812222125559223 -0.6368214494448937 2.0889036237514514e-06 2.551159504060922e-06 0 0 0 0
379000000 0.7703585100694325 -0.6504783174709827 -9.60949755886803e-06 5.217018357610431e-06 0 0 0 0
388000000 0.7602189671314487 -0.661249350037712 3.082317948911196e-05 1.3914039337947442e-06 0 0 0 0
397000000 0.7471414662934641 -0.6749911136529613 -1.7585927677023187e-05 4.718823551987982e-06 0 0 0 0
406000000 0.7382847927921881 -0.6851984117797509 2.2885494394052676e-05 1.9153370063735282e-05 0 0 0 0
415000000 0.7264279877569841 -0.6982582449965764 4.832415975477216e-06 6.565844579078443e-06 0 0 0 0
424000000 0.7154500618204915 -0.7103031703981544 -1.4274773307673727e-05 -2.1207868535435608e-05 0 0 0 0
433000000 0.7079816120757804 -0.7177300120290437 6.775588933640795e-05 6.089806496096633e-05 0 0 0 0
442000000 0.6933888774039574 -0.731720829001282 -4.460002861942364e-05 -1.6548107845860156e-05 0 0 0 0
451000000 0.6797780348206846 -0.7437144798529494 2.699428216902235e-05 1.1804579807608922e-06 0 0 0 0
460000000 0.6704326906850939 -0.7535450435722086 -3.135722482156721e-05 -4.884564756257595e-06 0 0 0 0
469000000 0.658621850517052 -0.7655660241592556 -4.733582856174031e-05 -7.469967194364e-05 0 0 0 0
478000000 0.6418105400164292 -0.7801144060858474 -4.525427506067607e-05 -1.583648069070689e-05 0 0 0 0
487000000 0.6347458983039183 -0.7865712023337975 -3.5296626818955426e-05 5.311671827407392e-05 0 0 0 0
496000000 0.6186320931505406 -0.7982740840032367 2.4542386743003616e-05 -2.49429622364633e-05 0 0 0 0
505000000 0.6074278800921779 -0.8079903519092185 1.3136167544939708e-05 1.2221251565551695e-05 0 0 0 0
514000000 0.5942056302629727 -0.8171630810709248 2.166085046889201e-05 1.234313591162092e-05 0 0 0 0
523000000 0.5753709518798515 -0.8327712089578998 1.8303700216473167e-05 1.7542829971353679e-06 0 0 0 0
532000000 0.566300778221536 -0.8390936116999717 -8.857878338962596e-05 -2.1682706853855257e-05 0 0 0 0
541000000 0.5534646230548464 -0.8482975397313963 -4.357661007539074e-05 1.6165442436907032e-05 0 0 0 0
550000000 0.5381174182520437 -0.8599460572230453 7.249614857757306e-05 -2.096990208830035e-05 0 0 0 0
559000000 0.5206521394855134 -0.8702175411388103 -3.830427063247456e-05 -5.070392892521954e-05 0 0 0 0
568000000 0.5066809299171535 -0.8780712556792216 4.271908862821051e-05 5.195510552228016e-07 0 0 0 0
577000000 0.49274242747343155 -0.8876424228198337 3.2049598640009936e-05 -8.497340540502693e-05 0 0 0 0
586000000 0.4739097049253732 -0.8987940078529347 -5.7588689029689924e-05 -4.556086017742056e-05 0 0 0 0
595000000 0.4572807893844484 -0.905675099445053 -1.615459727074577e-05 -6.670144669869831e-06 0 0 0 0
604000000 0.44511993241946096 -0.9148384571347171 5.27431947223098e-05 -2.157767366380048e-05 0 0 0 0
613000000 0.42573308201338284 -0.9237771101138792 3.0592920132100126e-05 7.177484743317458e-06 0 0 0 0
622000000 0.4047688880029073 -0.9329836811327628 1.687662858338635e-05 2.95416828601927e-05 0 0 0 0
631000000 0.38953486575172086 -0.9408895460199632 1.370715494509236e-05 -5.5086482107101425e-06 0 0 0 0
640000000 0.3696507812180957 -0.947965947123255 -2.5080929121371387e-05 -5.8704619873396115e-05 0 0 0 0
649000000 0.35567144882521584 -0.9529368289143879 6.729993754931356e-05 -3.1073502918549686e-05 0 0 0 0
658000000 0.3364362994988022 -0.9608872050103564 1.932584061600925e-05 2.9276484466697837e-05 0 0 0 0
667000000 0.3133946416684568 -0.9674323866780992 5.528870527293452e-05 1.4705655744099656e-05 0 0 0 0
676000000 0.2985009534563983 -0.972112931185609 2.8115689327252205e-05 -2.133100370436272e-06 0 0 0 0
685000000 0.27962589745875915 -0.9757918615286092 9.723938337743169e-06 5.657441790398616e-05 0 0 0 0
694000000 0.25668312814345223 -0.98146251046227 -4.216587372785277e-05 8.076926961962555e-05 0 0 0 0
703000000 0.24032327894060174 -0.9850613347303628 2.6297925686697925e-06 3.3534664821668475e-05 0 0 0 0
712000000 0.21991673385384675 -0.9884288169151867 -2.7682965690826672e-05 -3.9420708631942736e-06 0 0 0 0
721000000 0.2010783279938836 -0.9904474690857243 -3.0143407062039115e-05 5.861388772192112e-05 0 0 0 0
730000000 0.18123598268324784 -0.99237545621993 -4.078986858417047e-05 4.8780496955057574e-05 0 0 0 0
739000000 0.16522664331490797 -0.9949810536439858 0.00010969985194124099 -8.893909099798028e-06 0 0 0 0
748000000 0.13750553566102394 -0.9961552054949734 1.549059489936985e-05 -5.3757938879441424e-05 0 0 0 0
757000000 0.12168489747387674 -0.9960495979757302 6.573195972819471e-05 5.0074284469969826e-05 0 0 0 0
766000000 0.09452576097140893 -0.9953031094913845 0.0001591621954164501 3.5563526572371215e-05 0 0 0 0
775000000 0.07392214885512617 -0.9927936013451674 -2.133914527027635e-05 5.990917565828698e-05 0 0 0 0
784000000 0.05992069940627146 -0.9910330179377557 8.827318249413927e-05 5.787800472067361e-05 0 0 0 0
793000000 0.03453679128813863 -0.9901096577996397 8.157176601709765e-05 8.164764494347807e-05 0 0 0 0
802000000 0.017806040205762992 -0.9866407369002658 0.00010122210447870362 -7.458802927858536e-05 0 0 0 0
811000000 -0.0009562357607252273 -0.9820173368506916 9.345559922423877e-05 -3.462165220287748e-05 0 0 0 0
820000000 -0.02220363677890359 -0.9768759105455247 3.0640388613656274e-05 -5.71652135532033e-05 0 0 0 0
829000000 -0.035623380776626995 -0.9715127689060028 5.043292593352812e-05 -1.4045976316003058e-05 0 0 0 0
838000000 -0.056164170521430044 -0.9666541951142319 6.717953970920243e-05 1.23787732466434e-05 0 0 0 0
847000000 -0.07506109938865785 -0.9599333558960871 6.43193991049382e-05 1.351585869442218e-05 0 0 0 0
856000000 -0.09298274091759627 -0.9555877765474017 1.8450980075422116e-06 4.7387232324533627e-05 0 0 0 0
865000000 -0.11351256253637527 -0.9494684348788665 5.853999429510218e-06 5.894636018930001e-06 0 0 0 0
874000000 -0.1282966700853858 -0.9416951883139395 1.003354975440072e-05 1.196321322512547e-05 0 0 0 0
883000000 -0.1420797161295347 -0.9331826653030137 6.517507617195469e-06 6.470843087692179e-05 0 0 0 0
892000000 -0.15010830709179504 -0.927157466018513 1.8135655791444726e-05 -3.923300880006084e-05 0 0 0 0
901000000 -0.17320251726868735 -0.918315812054294 2.126084840142939e-06 -7.613502088387162e-05 0 0 0 0
910000000 -0.18651542414215605 -0.9116757546199536 -2.9437557156166438e-05 3.3125743720578455e-05 0 0 0 0
919000000 -0.19850611949928962 -0.9057746301970666 3.3621058655674795e-05 1.4235265813147429e-08 0 0 0 0
928000000 -0.21691795983230996 -0.8940441488199576 -4.413925653554915e-05 -3.05436283401303e-05 0 0 0 0
937000000 -0.21825243079963044 -0.8893562277224154 -1.3777662503008045e-05 -5.29807204594311e-07 0 0 0 0
946000000 -0.2416940034033362 -0.8787364360243604 4.546441287059935e-05 2.284171528386427e-05 0 0 0 0
955000000 -0.2532521836630468 -0.8686808393709674 -2.610507277558629e-05 1.2355032985258757e-06 0 0 0 0
964000000 -0.2627490639638945 -0.8620524177345963 4.673978510074156e-05 -2.1558107048963484e-05 0 0 0 0
973000000 -0.2838988072133334 -0.8521363791659033 -1.5735376936888577e-05 -3.330300040563668e-05 0 0 0 0
982000000 -0.29703779643487493 -0.8429305010120757 5.003029805808681e-05 -3.176402330343312e-05 0 0 0 0
991000000 -0.3039459659520461 -0.836899048547574 1.0454108237977244e-05 4.4478060278617286e-05 0 0 0 0
1000000000 -0.320844583245855 -0.8249522272106439 -5.435816121673001e-05 8.816321067910107e-05 0 0 0 0
