# HZ S RI R 50
100000000 1.0067238913733478 -0.21956168629592723 -6.307272293640546e-05 3.415273498682337e-05 0 0 0 0
109000000 1.0078094438464995 -0.2343003361846303 -7.938885725297376e-05 1.5253123455550798e-05 0 0 0 0
118000000 1.0026296139073154 -0.2494873823569036 -1.0988529386121937e-05 -1.4891689693312408e-05 0 0 0 0
127000000 0.9960558948453073 -0.26504271071784996 -7.520042280904069e-05 7.468193651848068e-05 0 0 0 0
136000000 0.9911239969406754 -0.2806496376373359 -2.602277039857537e-05 4.0217102100224744e-05 0 0 0 0
145000000 0.9828737457805726 -0.29542645239977505 2.640895664856485e-05 1.6503579006133282e-05 0 0 0 0
154000000 0.9770382389738319 -0.30972962413914135 8.949796269766846e-05 2.9114905829125964e-05 0 0 0 0
163000000 0.9707140940074741 -0.32574754210911766 3.0606857873756316e-06 4.273945864886886e-05 0 0 0 0
172000000 0.964075402298768 -0.34062950104165535 -3.451854024582947e-05 6.594227858510229e-06 0 0 0 0
181000000 0.9571952509610947 -0.3564482449097903 3.817567112515698e-05 7.404857075977758e-05 0 0 0 0
190000000 0.9509002807265229 -0.37009227937542755 4.258303262058416e-05 1.8846005890038158e-05 0 0 0 0
199000000 0.9439287729639476 -0.3847339338398772 -1.2534687577175843e-06 2.3258427646631265e-05 0 0 0 0
208000000 0.9367713324765856 -0.39887570606184813 -2.25384542088184e-05 -5.0452298623466054e-05 0 0 0 0
217000000 0.9293115949212237 -0.4138825631923363 -5.3938717400688765e-05 -3.2233796088673764e-05 0 0 0 0
226000000 0.9216058139814604 -0.42844011012068123 -4.944890863657929e-05 -5.276905613668307e-05 0 0 0 0
235000000 0.9149910115642901 -0.4404398012969406 -7.3364419150429576e-06 3.20702612116746e-05 0 0 0 0
244000000 0.9068494057677305 -0.455384335420377 3.744472756876141e-05 1.8233572667491596e-05 0 0 0 0
253000000 0.8984251967288414 -0.46861627358931973 4.710062539150977e-05 9.334083436107264e-07 0 0 0 0
262000000 0.8908394728561453 -0.4822845255417623 7.163742995735826e-06 1.4345814989851022e-05 0 0 0 0
271000000 0.8823838168899434 -0.49603207736416494 1.939666205389632e-06 7.0455974548269636e-06 0 0 0 0
280000000 0.8755960731497009 -0.5066414940609021 -9.463357546194975e-06 -3.161221299891806e-05 0 0 0 0
289000000 0.8660065648244033 -0.5217933257197042 1.1741625828619348e-05 -3.488164765927925e-05 0 0 0 0
298000000 0.8574827952907125 -0.5351321125915558 2.965098638197057e-05 9.987668277417426e-06 0 0 0 0
307000000 0.8488581837067914 -0.5480242157984674 -1.3337344324574407e-05 1.632934032184043e-05 0 0 0 0
316000000 0.8378928806203556 -0.5633518351281036 -9.704281058039648e-05 1.0970408604812545e-05 0 0 0 0
325000000 0.8274869857978323 -0.5763509448250467 -2.899510914322792e-05 1.6608351493002917e-05 0 0 0 0
334000000 0.8202692016024041 -0.5888807424811583 -2.0431051615248546e-06 -6.758602852378674e-05 0 0 0 0
343000000 0.8089574376988236 -0.6019378514357528 -6.085401903549097e-05 6.901653426311537e-06 0 0 0 0
352000000 0.8029641372664547 -0.609382094283026 2.025686984209827e-06 2.1990435247877732e-05 0 0 0 0
361000000 0.7908506046827956 -0.6249254385341803 2.235635382797093e-05 -5.3582521147285756e-05 0 0 0 0
370000000 0.7779452727442108 -0.6387956234434191 -3.684128472574181e-05 -2.649460436310253e-05 0 0 0 0
379000000 0.7698070521001678 -0.6495931720308775 -5.9723289396985146e-05 8.7420628612066e-06 0 0 0 0
388000000 0.7623809458529854 -0.6587805387841821 2.6203742472457105e-05 3.767520205759113e-05 0 0 0 0
397000000 0.7492160643874807 -0.6730478129766844 1.4258435652193112e-05 -1.0105531567248125e-06 0 0 0 0
406000000 0.7382495369892171 -0.6876961394902467 1.9910681881645424e-05 1.5285122935532932e-05 0 0 0 0
415000000 0.7287518993893688 -0.6958699546201718 -3.425894037106471e-05 1.6610266477123657e-05 0 0 0 0
424000000 0.7174124514270904 -0.7063572334909912 -1.0024111629599916e-05 -4.358415468489776e-06 0 0 0 0
433000000 0.7062040620681508 -0.7200282470780106 -1.6194393229326143e-05 8.611091938868144e-07 0 0 0 0
442000000 0.6920757072996933 -0.7332947369889328 7.844379619081745e-05 -2.7770393152152188e-05 0 0 0 0
451000000 0.680483162377446 -0.7433084002857709 1.4824476880459428e-05 4.9139295982794865e-05 0 0 0 0
460000000 0.6699179416871017 -0.7546894926632004 -6.811132387469242e-07 1.1054602616908523e-05 0 0 0 0
469000000 0.6600324574837375 -0.7634410595053117 -3.452152511883294e-06 3.90095805594001e-05 0 0 0 0
478000000 0.645220673676372 -0.7755968118476015 6.170401704385869e-05 3.189631202790342e-06 0 0 0 0
487000000 0.6312028392150197 -0.7873050863738384 4.9194760985069884e-05 -5.125252654432368e-05 0 0 0 0
496000000 0.6216765838192905 -0.7983747033994403 -2.6692140963636385e-05 -8.885893193078776e-05 0 0 0 0
505000000 0.6109057778307195 -0.8061269099189237 2.3529226769142335e-05 -5.374460277225408e-05 0 0 0 0
514000000 0.5927900681367684 -0.819743928035288 -3.0759119288994225e-05 0.00010454339156227285 0 0 0 0
523000000 0.5763285034645661 -0.8310112535189307 -2.485572382959261e-05 1.155099831056475e-05 0 0 0 0
532000000 0.5666102453679267 -0.8389329248661251 1.6603409725405988e-05 2.1531347350816998e-05 0 0 0 0
541000000 0.5533193503019603 -0.8493202289037259 1.581273356206241e-05 1.6258122254806687e-05 0 0 0 0
550000000 0.538421201098814 -0.8586172080264818 -1.552687736565997e-05 7.072921567653652e-05 0 0 0 0
559000000 0.5225739199353701 -0.8697677486947049 1.8173071264191417e-05 -0.00010147176870995279 0 0 0 0
568000000 0.5058883984175951 -0.8790686483813221 -1.3821453104561758e-05 -2.3228677753709212e-05 0 0 0 0
577000000 0.4902782174608653 -0.8894642492965107 2.6099021025500617e-05 9.820860018525583e-05 0 0 0 0
586000000 0.4761328487648077 -0.8971563421055752 1.6367560039169046e-05 -4.5123792516054635e-05 0 0 0 0
595000000 0.45887896894601515 -0.905887972540465 -1.939430941398509e-05 -4.1671029127471195e-05 0 0 0 0
604000000 0.44256564115389446 -0.9167995573452127 -6.283693251233889e-05 6.338647162173063e-05 0 0 0 0
613000000 0.4240047810071759 -0.9232623504425458 -7.865432004920906e-06 3.6410046062876046e-05 0 0 0 0
622000000 0.41069426795289543 -0.9314714103042261 -1.802899963122215e-05 4.7900127037870944e-05 0 0 0 0
631000000 0.39551888119903217 -0.9378192912766264 1.631368315801104e-05 6.510413468592043e-06 0 0 0 0
640000000 0.3740351124053447 -0.9461868154712255 -4.916677339506394e-06 -0.00012086917690427722 0 0 0 0
649000000 0.35697953323212595 -0.9537792908383315 -3.059759875682335e-05 -7.529188610295527e-05 0 0 0 0
658000000 0.33965005991454095 -0.9593103564807611 -7.124507216903689e-05 1.8930477905862965e-05 0 0 0 0
667000000 0.3174609176828164 -0.9666148786416122 -5.010952262502476e-05 9.571856696392329e-06 0 0 0 0
676000000 0.3011639165261487 -0.97036623305813 -4.192568175026741e-05 5.55832455522992e-05 0 0 0 0
685000000 0.2798924550547984 -0.9742617572691059 8.839044553343238e-07 9.491547505326902e-05 0 0 0 0
694000000 0.25505432005632067 -0.9814604524891092 -1.738964347864697e-05 3.668845009956388e-05 0 0 0 0
703000000 0.24259006032637134 -0.9848244696179149 -2.174881427925788e-05 -8.693296716344627e-07 0 0 0 0
712000000 0.22177749023082316 -0.9886032254507969 -2.2781042089713487e-05 5.9118447794038244e-05 0 0 0 0
721000000 0.19793745582544733 -0.9900857133212992 -5.29258681882873e-05 7.472850754973653e-05 0 0 0 0
730000000 0.18443702992301023 -0.9913638779858217 3.556057067052175e-05 3.318501328224259e-05 0 0 0 0
739000000 0.15876321174834704 -0.9964446743094308 2.495316971677988e-05 6.590666452204289e-05 0 0 0 0
748000000 0.14248454171637806 -0.9954798127125476 -4.5091029308438345e-05 7.172400881605182e-05 0 0 0 0
757000000 0.12483585921049027 -0.9948901247044467 5.372450852730985e-05 1.6001334630668384e-06 0 0 0 0
766000000 0.0956243188192522 -0.9942986226364389 9.743440374776592e-05 8.499444912124823e-05 0 0 0 0
775000000 0.07649808102697198 -0.9930878607928256 3.655061890861296e-05 5.519792364745651e-05 0 0 0 0
784000000 0.056657873779587406 -0.9924807773712757 5.67191202043567e-05 4.667158667083632e-05 0 0 0 0
793000000 0.037229955863046366 -0.9879789525213801 1.6626334794447088e-06 -4.756159784635649e-05 0 0 0 0
802000000 0.009892887980115587 -0.9863451808206087 1.1123835111551526e-05 -1.0561898498613235e-05 0 0 0 0
811000000 0.0038209480077915072 -0.9798746648215776 5.5996832018811483e-05 1.039386918030524e-05 0 0 0 0
820000000 -0.0207085279999589 -0.9763668964510652 7.455918606209889e-05 4.199229017152276e-05 0 0 0 0
829000000 -0.04459844400428086 -0.9731096639119801 -1.9071071424027775e-05 -8.793424580565484e-06 0 0 0 0
838000000 -0.06782149762613128 -0.9654254291645334 6.492571967040569e-05 -3.637965739077472e-05 0 0 0 0
847000000 -0.07537611350812685 -0.9598166655756388 6.769901150285507e-05 -5.4473047990673743e-05 0 0 0 0
856000000 -0.09065901291378589 -0.9536661400796339 3.907804309519285e-05 8.25903700930337e-06 0 0 0 0
865000000 -0.10502507628722269 -0.9471588532540144 -4.8357231284871414e-05 -2.6707173698370435e-05 0 0 0 0
874000000 -0.12729701184350098 -0.9408610650309314 -1.8497110427473578e-05 -8.632903425886036e-06 0 0 0 0
883000000 -0.1429735178885909 -0.9321779817183952 7.45324209744221e-06 4.916496061671841e-05 0 0 0 0
892000000 -0.16011821445320648 -0.9261063513938441 4.7980713802948963e-05 1.42247658774687e-05 0 0 0 0
901000000 -0.17832764877645757 -0.9191049344863104 -8.22541780896785e-05 1.9114743331639354e-06 0 0 0 0
910000000 -0.19278107578101747 -0.9094546403188016 9.483962961888066e-05 2.294000930259326e-05 0 0 0 0
919000000 -0.2027959816686683 -0.9037017633388906 -5.76384835098704e-05 -2.2549765583195567e-05 0 0 0 0
928000000 -0.21739747556283584 -0.8925080271659908 5.089915057172709e-05 2.6271065742375038e-05 0 0 0 0
937000000 -0.2343359046546382 -0.886619009178678 -2.0845793393358344e-05 7.355998497642919e-05 0 0 0 0
946000000 -0.23708142747936906 -0.8807130563306969 -4.541092171021432e-05 4.624171043594913e-05 0 0 0 0
955000000 -0.2598808915542687 -0.8681642303651528 -5.611413909916009e-06 -1.2775384136504297e-05 0 0 0 0
964000000 -0.2717759402849552 -0.8608583014404146 7.558297263296886e-06 1.1641212556197802e-05 0 0 0 0
973000000 -0.28410195479484396 -0.851001846302813 4.941283932810158e-05 1.1065103832244667e-05 0 0 0 0
982000000 -0.29117230794533167 -0.8451049718312624 2.334658814425296e-05 9.28789122766292e-05 0 0 0 0
991000000 -0.3074215472826566 -0.8346331115926865 4.9135779688705576e-05 2.0803395146679667e-05 0 0 0 0
1000000000 -0.3217429514730094 -0.8251801141177327 1.9072249675427644e-05 -5.0133621280483476e-05 0 0 0 0
