# HZ S RI R 50
100000000 1.0123844386774428 -0.21927141182298723 2.83812569323454e-06 2.105518744453365e-05 0 0 0 0
109000000 1.0075347612472607 -0.2349749628777513 5.532247860663515e-05 2.0295738936978583e-05 0 0 0 0
118000000 1.0021764080804667 -0.25021247357288035 -5.8589619550616225e-05 5.44280435313438e-05 0 0 0 0
127000000 0.9971560207291387 -0.26496781066358543 2.2372621465339936e-05 -1.833117475819339e-05 0 0 0 0
136000000 0.9910459323862512 -0.28059186026587113 -3.501660581895842e-05 -1.0002383605952328e-05 0 0 0 0
145000000 0.9831477057544661 -0.29512838315598244 2.781444440611537e-05 4.433746130215785e-06 0 0 0 0
154000000 0.9776487232667749 -0.3108539030195421 -3.9575558685935534e-05 -4.053318606612302e-05 0 0 0 0
163000000 0.9705598545242299 -0.32614030253129583 3.3580951020121857e-06 -1.0284023179955658e-05 0 0 0 0
172000000 0.9643938936150959 -0.34035570604719795 -1.0039876221229457e-05 5.08535523279677e-06 0 0 0 0
181000000 0.9580694371746292 -0.3535793759905188 2.3371315361442666e-05 1.453428310085564e-05 0 0 0 0
190000000 0.9509822576904984 -0.36959932825866454 3.0965274603070086e-05 5.782787788238163e-05 0 0 0 0
199000000 0.9440212514575892 -0.3850164742754059 1.2192417821268272e-05 1.943797058398743e-05 0 0 0 0
208000000 0.9361669093042143 -0.3986980472720218 -1.6871819971026176e-05 -3.4168836992862214e-05 0 0 0 0
217000000 0.928608950587277 -0.41549927152667676 1.608044935974146e-05 -4.465811126226458e-05 0 0 0 0
226000000 0.922266437300894 -0.42573710253221453 -3.1036624102661795e-05 3.1869073647413507e-06 0 0 0 0
235000000 0.9151180682391823 -0.4396109339383317 1.2209932503584236e-05 -1.0584195911119964e-05 0 0 0 0
244000000 0.9068438607158774 -0.45628469821600026 -6.569796952323415e-06 -5.1980207540342944e-05 0 0 0 0
253000000 0.8994020309184707 -0.46740977361738234 1.43064981692998e-06 -1.2712711083022876e-05 0 0 0 0
262000000 0.8912789333472358 -0.48241567520007184 3.5899809900453685e-05 2.260771624298393e-05 0 0 0 0
271000000 0.8824536273044268 -0.4960575557220993 -7.515581653251109e-05 1.5865278644065607e-05 0 0 0 0
280000000 0.8745083308854732 -0.5092102121510595 -4.980671951992752e-06 3.274123192086054e-05 0 0 0 0
289000000 0.8643896254078048 -0.5248024951466179 6.460193023943622e-05 2.9276265631337932e-05 0 0 0 0
298000000 0.8549003547631304 -0.5378177206897778 -1.0754604760190806e-05 -2.2644124917016786e-05 0 0 0 0
307000000 0.8468319570217294 -0.549850519315443 -1.7994965232482867e-05 -2.3201750088462175e-05 0 0 0 0
316000000 0.8370700782707947 -0.564002587475228 4.5609848386708924e-05 -2.8257729828565072e-05 0 0 0 0
325000000 0.8295789479749011 -0.5750014486353887 -4.90782043122026e-05 -2.46428393640742e-05 0 0 0 0
334000000 0.8194907932365633 -0.5889762298865355 -1.041514061177127e-05 5.2741243141031636e-05 0 0 0 0
343000000 0.8094525380244164 -0.6015345098327018 1.3149054432018142e-05 1.990182428553516e-05 0 0 0 0
352000000 0.8008600728478454 -0.6120058638595596 2.522499982601786e-05 -7.522069699582018e-05 0 0 0 0
361000000 0.790688391701109 -0.626788689765023 1.943079918083776e-05 1.542983070790096e-05 0 0 0 0
370000000 0.782196068070712 -0.6352880936354174 3.931661829846941e-05 5.171830558633005e-05 0 0 0 0
379000000 0.768593635755482 -0.6506146024629574 -1.3597102089715612e-05 -2.3122942889455203e-05 0 0 0 0
388000000 0.7580514227387374 -0.663036944475476 1.5438930442830056e-05 -5.341083268056971e-05 0 0 0 0
397000000 0.7481727887890313 -0.6744567552562559 -1.1633954090966937e-05 -5.500086692004201e-05 0 0 0 0
406000000 0.7369991725088797 -0.6856458226276149 -4.258151194387657e-05 5.262890760431507e-05 0 0 0 0
415000000 0.7238684804463501 -0.7011167916573499 -5.044791219807245e-05 2.3801217619437195e-05 0 0 0 0
424000000 0.7150483648336474 -0.7101477167322442 7.456601963510687e-06 -5.2950963968819934e-05 0 0 0 0
433000000 0.7032599469687281 -0.7210792597026565 3.065705729672933e-06 1.5262786981987926e-05 0 0 0 0
442000000 0.6915728231580383 -0.7330005012878013 -8.603659112197639e-05 -5.080056211669598e-06 0 0 0 0
451000000 0.6821534387481121 -0.7422089946292008 -8.144223741000746e-05 -6.741734664308978e-05 0 0 0 0
460000000 0.6713646736522129 -0.7529494191716963 -4.109401019328903e-05 2.9295103927677194e-05 0 0 0 0
469000000 0.6585113758600789 -0.7634868557629128 1.5440856202458865e-05 -1.4765207510335452e-06 0 0 0 0
478000000 0.6453784881506998 -0.775460758404886 2.9281211220215695e-05 6.0173820620290045e-05 0 0 0 0
487000000 0.6337319442997347 -0.7854045400852336 -7.769291495042754e-06 2.2999739908187743e-05 0 0 0 0
496000000 0.6166331337252163 -0.7993469561604938 -4.072806885888411e-05 5.412917084355255e-05 0 0 0 0
505000000 0.6062766622456387 -0.8087275268328586 -7.7311642171996e-06 -3.097031812664938e-05 0 0 0 0
514000000 0.5917663297133376 -0.8200613622919751 -9.17121434132886e-06 -4.6989440792990406e-05 0 0 0 0
523000000 0.5767256171011242 -0.8306762702287812 -1.95218363719102e-05 -1.449998130013129e-05 0 0 0 0
532000000 0.5617154951518725 -0.8413760530710076 2.2878588532708035e-05 -6.182965823659e-05 0 0 0 0
541000000 0.5522660782090575 -0.8492492590377794 7.651867786679095e-05 -5.594177588528079e-05 0 0 0 0
550000000 0.535432510631874 -0.8602729067292627 1.4938840601066954e-05 -1.5534403748308133e-05 0 0 0 0
559000000 0.5178288010151881 -0.8711279650203385 -5.480323954213631e-05 1.8496078315370733e-05 0 0 0 0
568000000 0.5025823256108577 -0.8822753165413902 -1.3003373983187948e-05 2.5844086489053738e-05 0 0 0 0
577000000 0.4915117079452554 -0.8881812460658104 -3.338295104015332e-05 8.778575021337879e-05 0 0 0 0
586000000 0.4765413160519585 -0.8968864077072707 -4.761274524397793e-05 2.2504963320492352e-05 0 0 0 0
595000000 0.4656450172435443 -0.9040130458072627 -3.571096393410654e-05 -1.6658278177023663e-06 0 0 0 0
604000000 0.4421097670327693 -0.9133620401797656 -3.4011640536573934e-06 -4.002810251860143e-05 0 0 0 0
613000000 0.42557602803197037 -0.9246297762919341 -7.995144858733783e-05 -5.5505219035199075e-05 0 0 0 0
622000000 0.4073905143790483 -0.9319065421252665 1.3919919078876984e-05 8.008847339482135e-05 0 0 0 0
631000000 0.3919892607042769 -0.9383995463468139 -1.2793470636870241e-05 6.081442554409709e-05 0 0 0 0
640000000 0.3742878487230084 -0.9452278586651357 -4.339886226605661e-05 5.909231322599164e-06 0 0 0 0
649000000 0.3539387535339091 -0.9553281267249187 -3.071445871527031e-05 6.1746185088251625e-06 0 0 0 0
658000000 0.3404703951805815 -0.9606211252524242 4.6937793495052286e-05 7.249765141875183e-06 0 0 0 0
667000000 0.3131332018405759 -0.9681552557890895 -5.6712190122001355e-05 5.533134671873833e-05 0 0 0 0
676000000 0.2936032132318271 -0.974460223237586 8.568636611524753e-06 5.1481068120792194e-05 0 0 0 0
685000000 0.28567942393113765 -0.9757726390142111 1.6739423947740527e-05 0.0001222375364395787 0 0 0 0
694000000 0.2599360424169633 -0.9805245021204387 -1.2515159467058705e-05 1.1204640813223834e-05 0 0 0 0
703000000 0.2424446137460093 -0.983962171701562 4.568369701521255e-05 4.5610879666862e-05 0 0 0 0
712000000 0.2207660983284973 -0.9903307623132452 3.5816490696252676e-06 3.9426013802189655e-05 0 0 0 0
721000000 0.2042332292750644 -0.9910773125312172 -5.7387307613926266e-05 2.8615969282758524e-05 0 0 0 0
730000000 0.17660860028119996 -0.9931556706467162 5.541982023833976e-05 1.419942593789624e-05 0 0 0 0
739000000 0.15969626641778037 -0.9956765770224534 1.74928666115554e-05 5.227846553483221e-05 0 0 0 0
748000000 0.13986559206819776 -0.9944691797509786 5.6077327489112006e-05 2.305772022634226e-05 0 0 0 0
757000000 0.11949075215818922 -0.995526319610519 7.48491254075957e-05 -2.1162701293904135e-06 0 0 0 0
766000000 0.10210788287025667 -0.9947268619772335 4.5194301641111484e-05 4.3774510804635655e-05 0 0 0 0
775000000 0.07901039016721818 -0.9951074201426715 3.073737136201492e-05 -6.50357219986141e-05 0 0 0 0
784000000 0.05134722088986854 -0.9919367420175541 9.857585580651539e-06 -6.151000776009754e-05 0 0 0 0
793000000 0.04359307552585072 -0.98637303564286 5.750134205748499e-05 -6.10845007574884e-05 0 0 0 0
802000000 0.012430050071360685 -0.9847766195998862 4.169755609240684e-05 -9.044100780326418e-06 0 0 0 0
811000000 0.0007751141161111151 -0.9826476840585188 8.503796494217715e-06 6.912365414046774e-05 0 0 0 0
820000000 -0.023428336820530807 -0.9773572507273254 5.9134662222359285e-05 -2.032264616976024e-05 0 0 0 0
829000000 -0.03535947342627678 -0.9723457943378081 9.304435700764733e-05 2.668222881084337e-05 0 0 0 0
838000000 -0.054561438425609225 -0.9667884080373228 7.424026778102379e-05 -5.0622183503247026e-05 0 0 0 0
847000000 -0.06660595486263167 -0.9628541791966427 4.1034718803984005e-06 4.3593531562174907e-05 0 0 0 0
856000000 -0.0947722433721984 -0.9541219471761555 6.953693255715599e-05 2.9967560096155554e-05 0 0 0 0
865000000 -0.10921334369188135 -0.9479158110792795 -1.926248002114025e-05 -2.772101489879763e-05 0 0 0 0
874000000 -0.12651907292695053 -0.9423513760300457 4.905292222819861e-06 -6.3237077818116e-05 0 0 0 0
883000000 -0.1394717368789965 -0.9344949562228377 2.217249944392474e-05 -5.759682086593871e-05 0 0 0 0
892000000 -0.15932207008534183 -0.9261186371523452 -5.0201200656266365e-06 -3.085293565467559e-05 0 0 0 0
901000000 -0.1716620466623018 -0.9196907628467802 7.864422297834273e-05 2.7028008639620028e-05 0 0 0 0
910000000 -0.18840709416441362 -0.9112040654410605 -1.2220255692706948e-05 -1.8180836702675183e-06 0 0 0 0
919000000 -0.20482046547285418 -0.9025977730928371 -1.9577099320993522e-06 5.193462329966644e-05 0 0 0 0
928000000 -0.22540792210577168 -0.8922070806155564 1.3585721683886196e-05 5.317968813783158e-05 0 0 0 0
937000000 -0.23316601238875384 -0.887582959337009 5.089592617182562e-05 -3.5316372185798117e-05 0 0 0 0
946000000 -0.24589318046012268 -0.8778594919441695 1.0219189892863015e-05 2.226366641800249e-05 0 0 0 0
955000000 -0.2566935340763314 -0.8692690150713975 -4.548464064746235e-05 5.479741032930921e-05 0 0 0 0
964000000 -0.2734047335295278 -0.8602745492074364 3.3830479758635576e-05 1.2309266365587907e-05 0 0 0 0
973000000 -0.285647338980876 -0.8500923499900107 2.5535834965641148e-05 -7.570351217702299e-06 0 0 0 0
982000000 -0.2969621680694608 -0.8434810235741971 -3.4869158263607095e-05 4.928511414537033e-05 0 0 0 0
991000000 -0.3071608375865809 -0.8345440374628726 4.0427150672319806e-05 -4.824405032300694e-05 0 0 0 0
1000000000 -0.31901311192646614 -0.8256161225095137 2.4799388369967426e-05 1.9854529335242132e-05 0 0 0 0
