# HZ S RI R 50
100000000 1.0125568105556846 -0.2187641634702829 -1.2094079501008548e-06 3.5438108411227886e-05 0 0 0 0
109000000 1.0081242824113563 -0.23367938885747855 -5.783954267865475e-05 -8.04812402234201e-05 0 0 0 0
118000000 1.0026849777089608 -0.24994644926254583 -4.675208401606734e-05 1.0151927457205731e-06 0 0 0 0
127000000 0.9968246857230212 -0.2651299267609559 4.074372214677634e-05 2.1405467843659327e-05 0 0 0 0
136000000 0.9915959382482195 -0.2802490310912701 1.7915579402890413e-05 -1.7027282435912912e-05 0 0 0 0
145000000 0.9834474915417329 -0.2953914689346886 -1.9233116779229802e-06 3.1973116233341955e-05 0 0 0 0
154000000 0.9770452087747062 -0.3108634718894101 -0.00011041840872543406 -1.299108953955605e-05 0 0 0 0
163000000 0.9710540749049443 -0.32555694126770063 1.6835744742864143e-05 1.4231535692024053e-06 0 0 0 0
172000000 0.9639609374425827 -0.34093474670345814 2.042315684322588e-05 2.3135865593161582e-06 0 0 0 0
181000000 0.9578179039662511 -0.3551485577064375 8.98414654786539e-06 9.830297431823761e-06 0 0 0 0
190000000 0.9508739614548204 -0.3706069499803744 -9.437766300310483e-06 -4.496723858061776e-05 0 0 0 0
199000000 0.9440827013466934 -0.38397357142626215 -6.839181703867022e-06 2.002526826510082e-06 0 0 0 0
208000000 0.9372352482897125 -0.39882745429217126 -4.7711065143637356e-05 5.830420808687714e-05 0 0 0 0
217000000 0.9302512638660732 -0.41209149413666213 -4.4923874974368834e-05 1.220745654152826e-05 0 0 0 0
226000000 0.9219610434746304 -0.4271138546716462 -2.4117192386612153e-06 1.1838094935002406e-05 0 0 0 0
235000000 0.9153576435376796 -0.44072411379389137 6.039149366320114e-05 -3.0395081413711137e-05 0 0 0 0
244000000 0.9075681572147064 -0.4534658655820065 -4.057884650133134e-06 -1.8246832231347e-05 0 0 0 0
253000000 0.8984975467065269 -0.4695411409896416 -5.005921821346329e-06 -5.47232307829094e-05 0 0 0 0
262000000 0.8903872603065488 -0.48290202662939913 -2.811641405078928e-05 1.2282207304485798e-05 0 0 0 0
271000000 0.881689000069799 -0.49713473985052675 3.27558399058741e-05 -8.808128871156254e-06 0 0 0 0
280000000 0.8740568697349508 -0.5086709444727159 -1.8998041683180623e-05 3.6456448689620693e-06 0 0 0 0
289000000 0.8642099058777314 -0.5238067121227233 -3.87351876893701e-05 -4.914365091789166e-05 0 0 0 0
298000000 0.8554572090369709 -0.5387778813234908 -2.3173924362259882e-05 2.8182494989388777e-05 0 0 0 0
307000000 0.8465357283957667 -0.550591927079009 -3.149639884246952e-06 -2.9003022180982752e-05 0 0 0 0
316000000 0.8384005921749381 -0.5609014970181793 4.0114078666193946e-07 -4.491704802478495e-05 0 0 0 0
325000000 0.8294171092900388 -0.5767948601336754 -4.038735821241803e-06 -1.6787969623179583e-06 0 0 0 0
334000000 0.8217643968900135 -0.5860891128725113 9.966528948886139e-05 1.6281638456144665e-06 0 0 0 0
343000000 0.8098750683786218 -0.6014842702292673 -7.285457227896306e-05 -3.676442946170062e-05 0 0 0 0
352000000 0.8014583047379823 -0.6116628643156427 3.6329955745164106e-05 -5.710024482182089e-06 0 0 0 0
361000000 0.7903027034851586 -0.6241220950598189 1.075882717464832e-05 -9.959709180325717e-06 0 0 0 0
370000000 0.7778968229199759 -0.6413662426320191 -3.287091126909868e-05 -2.1748287172094016e-05 0 0 0 0
379000000 0.7699487391188162 -0.6519103911327543 -3.4846129555308476e-05 4.5147540267145556e-05 0 0 0 0
388000000 0.759424586859896 -0.6609432689739162 2.3834700918666775e-05 -5.668536841856474e-05 0 0 0 0
397000000 0.7486210685271837 -0.6739603473720958 1.7351563549808233e-05 -1.7556322707489314e-05 0 0 0 0
406000000 0.7389946487892229 -0.6851387944636096 2.645468580730883e-05 -1.4905783208673532e-05 0 0 0 0
415000000 0.7271467935948787 -0.6983889192872351 7.71588753295127e-05 -2.199916910208611e-05 0 0 0 0
424000000 0.7153683871635481 -0.7088961976716938 9.77653156652278e-07 -2.361446025739842e-05 0 0 0 0
433000000 0.7035589832482727 -0.7210414076894438 2.0606131135448358e-05 -1.0698787339865881e-05 0 0 0 0
442000000 0.6946679683478308 -0.7306761067114695 2.0240464856020484e-05 -4.955640621588245e-06 0 0 0 0
451000000 0.6823815584102203 -0.7419096519716508 1.7861074027799807e-05 -6.647349467172902e-06 0 0 0 0
460000000 0.6705240204187469 -0.755826816306855 2.3263756414476628e-06 1.6253780201709125e-05 0 0 0 0
469000000 0.6547285984733446 -0.7677980286507032 -1.5972369131288984e-05 9.103208142177135e-06 0 0 0 0
478000000 0.6431819649222822 -0.7765116691832128 -2.1001379146377032e-05 -2.630902663395034e-06 0 0 0 0
487000000 0.6344886740140563 -0.7857791100372187 -1.0400212033423824e-05 -2.9935676233158304e-05 0 0 0 0
496000000 0.6195725093779723 -0.796974575209912 5.4670488939487235e-05 2.2023699577120262e-05 0 0 0 0
505000000 0.6026547627173068 -0.8102623318029571 -4.2948944832750906e-05 1.05380167446627e-05 0 0 0 0
514000000 0.5916622052290852 -0.8201448142264391 4.273322949654886e-05 -4.184287993339291e-05 0 0 0 0
523000000 0.5819791558219325 -0.8274850208681576 -2.6949493670509754e-05 4.558588995516343e-05 0 0 0 0
532000000 0.5642179000588002 -0.840015409967636 -4.8885133986974385e-05 7.345420011616576e-06 0 0 0 0
541000000 0.5515287485768444 -0.8500150184916726 3.0129305864497984e-05 -4.539464367905e-05 0 0 0 0
550000000 0.5392249527963705 -0.8593725356330083 4.118205523047583e-05 -4.7054076660647205e-05 0 0 0 0
559000000 0.5203677105892371 -0.8700075698910824 2.2517557247027684e-05 6.409514415960942e-05 0 0 0 0
568000000 0.5080152931663309 -0.8793352862060405 4.001845330283756e-05 4.009059538105281e-05 0 0 0 0
577000000 0.4885824727083626 -0.8892850757962999 7.364193933166467e-05 3.0638862062644034e-05 0 0 0 0
586000000 0.4742489454617947 -0.8998440741422852 -3.747266213009459e-05 -2.1806212488281085e-05 0 0 0 0
595000000 0.4577320140558121 -0.9065475845876142 2.1034554277954982e-06 5.1319934647620035e-05 0 0 0 0
604000000 0.4453843427012184 -0.9139028922769268 1.0939989945774504e-05 -1.1627376879126168e-05 0 0 0 0
613000000 0.4240026996329915 -0.9256859875634499 -2.8041928877268686e-05 3.501579350086115e-05 0 0 0 0
622000000 0.40521149958359454 -0.9328838487619451 1.2046548939463671e-05 -2.3153746854169312e-05 0 0 0 0
631000000 0.39446620569757496 -0.9373571741706618 1.7764922200703867e-05 -1.2714347079650392e-05 0 0 0 0
640000000 0.37527492497509835 -0.9450107010149974 -2.262303671014338e-05 -3.984979570355245e-05 0 0 0 0
649000000 0.36078267724866897 -0.9527131905714035 1.091160518777038e-05 -5.93370717906679e-05 0 0 0 0
658000000 0.3396368672768817 -0.958435136151724 -8.438608252178967e-06 1.624404414402164e-05 0 0 0 0
667000000 0.31625814176718126 -0.9667126430247241 -1.6658857064316756e-05 1.4177854303791964e-05 0 0 0 0
676000000 0.3049799719300155 -0.9687088040340306 1.4771759474192896e-05 6.87758700531905e-05 0 0 0 0
685000000 0.28539460359223556 -0.9759796563892104 -3.356209357510127e-05 2.787280697533494e-07 0 0 0 0
694000000 0.25988504576195043 -0.9808905436282801 5.143623602426475e-05 8.36693185745096e-05 0 0 0 0
703000000 0.24325989449377208 -0.9855196765439992 7.169965208056861e-05 -5.373492686973044e-05 0 0 0 0
712000000 0.21747725250984457 -0.989799886638112 3.919736754433158e-05 6.81600980948835e-05 0 0 0 0
721000000 0.20067345095928596 -0.9921226742521804 -1.1520091650761685e-05 -7.964213272007707e-06 0 0 0 0
730000000 0.18792877401420166 -0.9912654080510517 3.819746035639377e-05 6.685641269916283e-05 0 0 0 0
739000000 0.15826418149845295 -0.9951909079273618 8.603081149587644e-05 3.960565869452286e-05 0 0 0 0
748000000 0.13565491979472533 -0.9953970001596175 8.075623952837909e-05 3.129685469048873e-05 0 0 0 0
757000000 0.12093012145298458 -0.9939942977142687 9.997165714077659e-05 5.6857729691679646e-05 0 0 0 0
766000000 0.10558009900851145 -0.9935071375981029 8.236086988928131e-05 3.817735337897837e-05 0 0 0 0
775000000 0.08238919862976198 -0.9917786252072289 -6.840878700720234e-06 3.3103207861442615e-05 0 0 0 0
784000000 0.05995105459885935 -0.9913924588414281 7.137687284199638e-05 -7.067776316637818e-05 0 0 0 0
793000000 0.03688539223841345 -0.9891182444175791 -8.487042327290634e-06 6.192730835504559e-05 0 0 0 0
802000000 0.016983306076122147 -0.9851992060079733 0.0001422080228605591 1.1220369301816869e-05 0 0 0 0
811000000 0.0019248202991319846 -0.9805329450564277 5.210390994107424e-06 2.917632203531916e-05 0 0 0 0
820000000 -0.022363163298951976 -0.9769626051004698 6.528387418848989e-05 -3.377298033176286e-05 0 0 0 0
829000000 -0.045176538593195203 -0.9712324799277056 6.575396994102575e-05 -3.849729600274808e-06 0 0 0 0
838000000 -0.05925709383398116 -0.9658338433156393 1.2901061151665072e-05 -4.032250064693553e-05 0 0 0 0
847000000 -0.0730979968146522 -0.9612552747228262 -2.816941468371386e-05 6.99136454026182e-05 0 0 0 0
856000000 -0.0954033065236128 -0.9558368628085696 1.006244979856875e-05 -9.470128300586415e-05 0 0 0 0
865000000 -0.10746954497308228 -0.9466412345135689 2.4817428664006116e-05 -9.277965375228717e-05 0 0 0 0
874000000 -0.126463256095126 -0.9419049595587564 1.751911263606145e-05 4.931790476261294e-06 0 0 0 0
883000000 -0.1377274601791109 -0.9352561983649168 8.885669975218369e-05 -2.383229460849903e-05 0 0 0 0
892000000 -0.16133150623256343 -0.9260424307092172 -3.7521002098070126e-05 2.8174712152965666e-05 0 0 0 0
901000000 -0.17810104563171042 -0.9165974368458017 -2.5706453524326713e-05 4.746745860890014e-05 0 0 0 0
910000000 -0.19315852390883329 -0.9106941506895757 4.51660224398795e-05 5.7801965317753627e-05 0 0 0 0
919000000 -0.20147992434316153 -0.9010651546217963 -7.315401971582713e-05 -1.1526703382718294e-05 0 0 0 0
928000000 -0.2190896536979035 -0.8937872246952756 4.5443575717457145e-05 -6.740657619655863e-05 0 0 0 0
937000000 -0.22857978401365678 -0.8850838821919292 1.8100698206567154e-05 -4.001319199285887e-06 0 0 0 0
946000000 -0.24261030367925773 -0.8774519771830299 3.065264103432661e-05 -6.776400429348679e-05 0 0 0 0
955000000 -0.25376888156448 -0.8677535000307524 -8.797377210696693e-06 1.8326988036080385e-05 0 0 0 0
964000000 -0.26474054838884076 -0.8621986954851709 9.814619072686558e-05 -3.876949240131511e-05 0 0 0 0
973000000 -0.2833171905604414 -0.8513215008888119 -1.6583537545229558e-05 3.3222645940689406e-05 0 0 0 0
982000000 -0.2924692774559856 -0.8445968184180657 8.92513479853178e-05 4.6749376264418564e-05 0 0 0 0
991000000 -0.3009671279886191 -0.8376202686220924 -1.273516009287873e-05 -6.835248004651995e-05 0 0 0 0
1000000000 -0.3244088054894857 -0.8237140149367728 -0.00010418874872749159 0.00015617250087237862 0 0 0 0
