# HZ S RI R 50
100000000 1.0123043879213727 -0.2197763887805142 4.479005949566675e-05 -0.0001049591291621676 0 0 0 0
109000000 1.0073332263471735 -0.23518845869871624 3.4064941240783005e-05 5.27260966886341e-05 0 0 0 0
118000000 1.0021456711582466 -0.24992786063736563 4.5046638003855274e-05 -0.00010198612954321925 0 0 0 0
127000000 0.9967817319540541 -0.2648577271833919 4.233006532208216e-06 -7.335118646819398e-05 0 0 0 0
136000000 0.9916667844750188 -0.2801330329883675 8.415789554308786e-06 -4.955811600791729e-05 0 0 0 0
145000000 0.9829339143050586 -0.2960897357961718 -2.8341532190968918e-05 4.0700021939960916e-05 0 0 0 0
154000000 0.9767433488050262 -0.3112910777648558 -4.212894721864853e-05 -2.804303811536454e-05 0 0 0 0
163000000 0.9705576255879351 -0.32480972972931843 3.8458036549078193e-05 7.755175073027637e-06 0 0 0 0
172000000 0.9644023259986052 -0.34025093092487474 1.0327732304506986e-05 2.53631586288509e-05 0 0 0 0
181000000 0.9574706526028497 -0.356290011420798 -2.2139652893873625e-05 -7.47745770778262e-05 0 0 0 0
190000000 0.9519162207179445 -0.36906774814929055 1.5839097708281104e-05 -1.0328319477757337e-05 0 0 0 0
199000000 0.9439703574229201 -0.3846186310282441 7.478679623851492e-06 -3.350541462103663e-05 0 0 0 0
208000000 0.9370555968427416 -0.3970064225671826 -3.436828904192187e-05 5.083664829115359e-05 0 0 0 0
217000000 0.9299094492840017 -0.41231546792117374 6.628559849541698e-05 3.0899235897345753e-07 0 0 0 0
226000000 0.9230784757911632 -0.42542199326062724 1.523499152498074e-05 4.8008826157997216e-05 0 0 0 0
235000000 0.9157229613370078 -0.4391017102791376 4.970618545993019e-05 -4.810297829634923e-05 0 0 0 0
244000000 0.907075469088655 -0.4539562397166973 -7.938058993508078e-05 5.81695562259188e-05 0 0 0 0
253000000 0.8990589998310682 -0.468673970903025 -4.5247871410107297e-05 -3.251221999221509e-05 0 0 0 0
262000000 0.8907095780230053 -0.48227768100095075 1.5834402184447588e-05 -3.965029999481065e-05 0 0 0 0
271000000 0.8820141571740595 -0.49625654333620134 -6.0995327984913576e-05 -2.10391227985997e-05 0 0 0 0
280000000 0.8755285614481082 -0.506459317766121 -2.3955458824385505e-05 -1.3537240038600055e-05 0 0 0 0
289000000 0.8654899760457717 -0.5223236332486546 -2.7211855104075324e-05 -8.19339860033804e-06 0 0 0 0
298000000 0.8568505479410286 -0.535421962817413 5.655982389502533e-06 2.7513807612505635e-05 0 0 0 0
307000000 0.846736339444395 -0.5507319143188217 -2.4340925990470757e-07 -4.2607879567759766e-05 0 0 0 0
316000000 0.8403672967249419 -0.5605476380034962 -5.286130492427011e-06 1.950330255267177e-06 0 0 0 0
325000000 0.8289459528690053 -0.5758331193812188 -3.875181350048652e-06 2.0263886765519314e-05 0 0 0 0
334000000 0.8217381022695616 -0.5867069591999459 -2.2344670812543034e-05 2.7230245728952233e-05 0 0 0 0
343000000 0.8099648663476101 -0.5991630871470273 4.623091878629171e-06 3.3252140230229236e-05 0 0 0 0
352000000 0.8000251921067933 -0.6124718266623898 -2.9294970301993972e-05 5.4859271251924755e-05 0 0 0 0
361000000 0.7923698351404418 -0.6271298878771637 -5.560082209397239e-05 4.394669353390446e-05 0 0 0 0
370000000 0.7810019364886615 -0.6379761873173377 -5.740117088842681e-06 1.6656538284236128e-05 0 0 0 0
379000000 0.7708260408695731 -0.6480683244560252 -7.98237975066762e-06 -3.0693638984784016e-05 0 0 0 0
388000000 0.7597936666813421 -0.6604333689156324 -2.8627552045300546e-06 -3.864927137475263e-05 0 0 0 0
397000000 0.7481209306447059 -0.674705979591336 3.8471419050080604e-05 2.6409035241983455e-05 0 0 0 0
406000000 0.7369624734682646 -0.686545662418254 4.588997476817277e-05 1.9152907090487046e-05 0 0 0 0
415000000 0.7274253396362342 -0.6955811158408607 2.0212894821917883e-05 2.491578355625999e-05 0 0 0 0
424000000 0.7131139292725075 -0.7105085750576974 -9.137100980121334e-07 -1.263835375179604e-05 0 0 0 0
433000000 0.7063405018125635 -0.7193283231247631 1.2703176043193493e-05 3.0073919177044735e-05 0 0 0 0
442000000 0.6965425886045274 -0.729532989502249 -3.596623025513345e-05 -1.3050105970404649e-05 0 0 0 0
451000000 0.6799899309930261 -0.7436961766799227 -1.404283226487395e-05 -2.035817478948031e-05 0 0 0 0
460000000 0.6701551221844483 -0.7544576215504101 5.758132679274043e-05 -1.7725454778124177e-05 0 0 0 0
469000000 0.658500931069844 -0.764715853434808 8.931502087398265e-06 3.359005953059478e-05 0 0 0 0
478000000 0.6419142426269915 -0.7780521359010616 -2.1861025151285936e-06 4.45065537064626e-06 0 0 0 0
487000000 0.6313520957665439 -0.7877082606162311 4.272778576317081e-05 5.171455382313935e-05 0 0 0 0
496000000 0.6197142641936596 -0.7980937063287366 4.314710513103654e-05 8.442433533073614e-05 0 0 0 0
505000000 0.6070294605340779 -0.8084944712478286 -3.49226543495507e-05 3.529194067144428e-05 0 0 0 0
514000000 0.5917013518766402 -0.8195171101738191 -4.6207282229361924e-05 3.417732102436613e-05 0 0 0 0
523000000 0.5765081697246561 -0.8313361622394415 -2.193428518846043e-05 1.5474813973675173e-05 0 0 0 0
532000000 0.5664336608459468 -0.8396528135118426 -1.5005821844472148e-06 -2.173920267949446e-05 0 0 0 0
541000000 0.5527559246747773 -0.8490508989038673 -3.011573215290406e-05 4.884387517471761e-06 0 0 0 0
550000000 0.533335052364326 -0.8622323182312674 -7.753851630110307e-05 3.280822661920299e-05 0 0 0 0
559000000 0.521281713290459 -0.8683666134938546 -2.432753633419446e-05 -7.174815790113985e-06 0 0 0 0
568000000 0.5039162077601946 -0.8808137190809173 -2.9824652628794584e-05 3.160833945129612e-05 0 0 0 0
577000000 0.4921720855805035 -0.8895527349410226 1.9363122251902124e-05 2.1957583381297666e-05 0 0 0 0
586000000 0.47647808319725743 -0.898896614102077 -1.4175918220050752e-05 -4.954502834428201e-05 0 0 0 0
595000000 0.4600210114977477 -0.9058960793586428 -2.2402010152934317e-05 -2.6623492847469537e-05 0 0 0 0
604000000 0.44254492750873414 -0.9160215529883357 -5.904086785353029e-06 4.5086150533846545e-05 0 0 0 0
613000000 0.4311337531889383 -0.921258353880916 3.262235475311267e-05 1.7679944289641876e-05 0 0 0 0
622000000 0.4101850894521172 -0.9305004628065853 -2.111623917543688e-05 3.261470752211769e-05 0 0 0 0
631000000 0.39244124307112566 -0.9397354323215023 -1.8567225112733647e-05 3.192081106709376e-05 0 0 0 0
640000000 0.3723388292252133 -0.9472397949599635 3.950506810958995e-06 1.5768470800880552e-05 0 0 0 0
649000000 0.3586601901665454 -0.9517434728356313 -1.663626200277209e-05 4.1621635049678364e-05 0 0 0 0
658000000 0.33359784724296515 -0.9592346518243419 7.49645161393013e-05 -6.9029712699215885e-06 0 0 0 0
667000000 0.3166328028101406 -0.966729661090925 -3.20514301674558e-06 -5.30559811053426e-05 0 0 0 0
676000000 0.3024503879179173 -0.9710447290544995 4.903552661449161e-05 1.5546090229282728e-05 0 0 0 0
685000000 0.28090974224683185 -0.974271120579981 -1.172818053406903e-05 -2.1056746775920852e-05 0 0 0 0
694000000 0.2629519616795 -0.9801780013027087 1.23122186944576e-05 2.565200483807233e-05 0 0 0 0
703000000 0.2399916385475794 -0.984499299167324 3.553517488960959e-05 2.8786256007052527e-05 0 0 0 0
712000000 0.22270942115196576 -0.9870200238981546 1.5688878674019985e-06 1.0213872334150204e-05 0 0 0 0
721000000 0.19849008414073316 -0.991054553074146 -3.6395961245794625e-05 4.494259193182385e-05 0 0 0 0
730000000 0.17693977652731155 -0.9921317239114525 4.2844861369810736e-05 -5.031460087216149e-05 0 0 0 0
739000000 0.1586492618880184 -0.9954441314323417 3.783390231744789e-05 5.218882615107692e-05 0 0 0 0
748000000 0.13596545378253916 -0.9958685218237394 3.252459310077903e-05 -2.5274196105930335e-05 0 0 0 0
757000000 0.11962629264031366 -0.9954369264249986 -1.8346485062923974e-05 6.741788906106123e-05 0 0 0 0
766000000 0.09978626845247546 -0.9942232050215991 4.641194777300495e-05 9.674117047034499e-06 0 0 0 0
775000000 0.08253136944075154 -0.9916383722653181 9.155827304192534e-05 4.85839355243098e-05 0 0 0 0
784000000 0.05828161513867323 -0.991718285352006 6.994735867121095e-05 -4.213994580895751e-05 0 0 0 0
793000000 0.041788357474313656 -0.9881265594878743 8.005664962334522e-05 7.730151583815156e-05 0 0 0 0
802000000 0.022199920419887626 -0.985190633434533 6.435070940495082e-05 2.4193023194324784e-05 0 0 0 0
811000000 -0.0021883505392909404 -0.9796324966823741 9.028293181101919e-05 -1.2426896267378562e-05 0 0 0 0
820000000 -0.0253746956005529 -0.9764191636054697 4.290368969299442e-05 7.140639346479108e-05 0 0 0 0
829000000 -0.03432637426325417 -0.9721998776787467 1.020702712351895e-05 -1.7053819698047805e-05 0 0 0 0
838000000 -0.0595536310455554 -0.9660106542977358 1.5946942777968252e-05 -2.489496180743989e-05 0 0 0 0
847000000 -0.07234868970138973 -0.96134703711467 2.196135308019471e-06 3.610727883717969e-05 0 0 0 0
856000000 -0.0882729085857744 -0.9556965990898131 6.44022467875839e-05 1.4139526366093446e-05 0 0 0 0
865000000 -0.11359275829572611 -0.9456774643772567 6.783162367134412e-05 3.313956956492837e-05 0 0 0 0
874000000 -0.11939875107368844 -0.9414473946003775 -9.710949795441918e-06 7.214944808526879e-06 0 0 0 0
883000000 -0.1400380703011205 -0.935544271893374 -5.743763277086534e-05 -1.0067671513789179e-06 0 0 0 0
892000000 -0.15515401391312572 -0.9266371410486473 2.0231040685049584e-05 -9.226619048049512e-06 0 0 0 0
901000000 -0.1719084330858643 -0.9169799133829964 -1.8451002122826275e-05 3.469222433769648e-05 0 0 0 0
910000000 -0.19460830727124276 -0.9084414948900087 -1.0114860994263753e-05 3.2213416789773455e-05 0 0 0 0
919000000 -0.20278330609820847 -0.903808833694738 2.3263043532769085e-05 -2.90575495277221e-05 0 0 0 0
928000000 -0.2183282216288791 -0.8946690453491616 1.47368566627032e-05 2.2019641190785237e-05 0 0 0 0
937000000 -0.22687053916030325 -0.8870909164503535 4.7906273367094076e-05 9.766811903446212e-06 0 0 0 0
946000000 -0.2416269709064171 -0.8790928292628276 -1.3973035397079514e-05 4.852204317323237e-05 0 0 0 0
955000000 -0.26251764359090723 -0.8685528926990401 -3.5024174733022954e-05 -1.104033600763593e-05 0 0 0 0
964000000 -0.2682551973694328 -0.8608814651894 1.0797796651537715e-05 -3.3881741856711434e-05 0 0 0 0
973000000 -0.2795850119355755 -0.8511512409015156 2.3783615587366105e-05 1.0540598928433413e-05 0 0 0 0
982000000 -0.29611562577881223 -0.8437463310259778 2.7726150632604956e-05 6.007369000922658e-06 0 0 0 0
991000000 -0.3048542844910725 -0.834488513230406 -2.6583482255195077e-05 -2.0594940413730642e-05 0 0 0 0
1000000000 -0.32126930838209516 -0.8275591571939607 7.188076836042872e-05 -1.696953507976976e-05 0 0 0 0
