# HZ S RI R 50
100000000 1.0079555293853057 -0.21906501425398997 1.0497562390430495e-05 -6.299203979766745e-06 0 0 0 0
109000000 1.007690173435431 -0.23433238202108098 -2.4150010598989738e-05 1.0606109441535242e-05 0 0 0 0
118000000 1.0021519615020575 -0.24980477380359054 4.924333040074716e-05 4.123351075313418e-05 0 0 0 0
127000000 0.9970881020844415 -0.2649912602227266 -4.434745422866773e-05 -1.643304631639017e-05 0 0 0 0
136000000 0.9911117161363353 -0.2798927756678781 -4.7055916251978236e-05 1.273890395797534e-05 0 0 0 0
145000000 0.9830246298124823 -0.29601378399154904 -6.602990274387819e-05 -4.048714648959734e-05 0 0 0 0
154000000 0.9768772976044018 -0.3108102078035733 2.830081318910804e-07 2.57074058675407e-05 0 0 0 0
163000000 0.9706397693091584 -0.3261428237227047 -1.7959549327072137e-05 -2.6716883251403094e-05 0 0 0 0
172000000 0.9647142776366457 -0.3398633820486179 -1.9013030879470533e-05 1.562530222763842e-05 0 0 0 0
181000000 0.9573308057050205 -0.35538602131208763 5.714807188830513e-05 5.860280658466588e-05 0 0 0 0
190000000 0.9506478720161972 -0.36968310136492977 -2.9285208837947923e-05 -5.7716558107896765e-05 0 0 0 0
199000000 0.9439099977817264 -0.38350844333716694 -5.513642046568364e-05 1.236443569178775e-05 0 0 0 0
208000000 0.9374278514899418 -0.39742898800505927 -3.5554975733664004e-05 1.9960680917519457e-05 0 0 0 0
217000000 0.9295064649569509 -0.41288730747229924 2.3920569496267562e-05 -2.4480216547908988e-05 0 0 0 0
226000000 0.9218474076759543 -0.42697647743729644 -3.3726103315345996e-07 -1.6747575373641365e-05 0 0 0 0
235000000 0.9149781079784841 -0.4388556023681161 5.970715075243637e-06 -1.0693586331629676e-05 0 0 0 0
244000000 0.9068914598601171 -0.45466449675315124 -9.039566339628705e-06 7.183290226544508e-05 0 0 0 0
253000000 0.899493429677413 -0.4681436922041611 1.4425437829584584e-06 1.3418794357279811e-05 0 0 0 0
262000000 0.891288808804115 -0.48200356988843973 -1.779630644127235e-08 2.1225681862555345e-05 0 0 0 0
271000000 0.883754783723102 -0.4940612363344312 1.4306274914903616e-06 9.150013832045217e-06 0 0 0 0
280000000 0.8730372305723813 -0.5098800610341568 -3.669111960359554e-05 1.8958053249709547e-05 0 0 0 0
289000000 0.8669211661603599 -0.5210758716612325 2.86299114417908e-05 -2.766270277870154e-05 0 0 0 0
298000000 0.8558034882895282 -0.5363938570032812 -1.9508150303284274e-05 -3.3457204207230175e-05 0 0 0 0
307000000 0.8464276212244668 -0.5513799617484382 2.8762761738207928e-05 3.728922930685727e-05 0 0 0 0
316000000 0.8383404216979776 -0.5615049235856684 3.357631754600867e-05 2.1685690872705166e-06 0 0 0 0
325000000 0.8301942237148384 -0.5725380916188916 3.982923143161557e-05 1.4829969120000518e-05 0 0 0 0
334000000 0.8211015185051059 -0.5868439685520737 2.4783513678521895e-05 3.613889603965805e-05 0 0 0 0
343000000 0.8094277315065648 -0.6017587729895973 2.737394948439527e-05 8.412356591368512e-07 0 0 0 0
352000000 0.8005081688394858 -0.6134378009160433 -2.969235510152646e-05 1.1679572431399814e-05 0 0 0 0
361000000 0.7920794897941661 -0.6257417045355869 -1.0300040670583032e-05 -3.1048066452938636e-05 0 0 0 0
370000000 0.7796190542491158 -0.6375421892525883 -1.5131746543975193e-05 -3.361232843953539e-05 0 0 0 0
379000000 0.7726557332814669 -0.6468718308434973 -1.0375953086429168e-05 4.4079548955483036e-05 0 0 0 0
388000000 0.7598543096407367 -0.6611371621734936 -3.379281184775309e-05 -2.386067366165008e-05 0 0 0 0
397000000 0.7491501341046163 -0.6746372543645869 9.468097428619857e-06 -6.072580916820377e-06 0 0 0 0
406000000 0.738168087177994 -0.6857986268636891 -1.1791136460988926e-05 -3.284764619311554e-05 0 0 0 0
415000000 0.7297897823729825 -0.6952066424900063 -1.670946970739565e-05 3.194813556826367e-05 0 0 0 0
424000000 0.7177067009138376 -0.7064748995386355 1.933591345366328e-05 3.721095135158148e-05 0 0 0 0
433000000 0.7050080963408578 -0.7202198953379423 3.9006811068143656e-05 6.330888475444268e-05 0 0 0 0
442000000 0.6903856199015275 -0.7334224673625886 1.6309243870634386e-05 4.369868954097467e-05 0 0 0 0
451000000 0.6797881108706207 -0.7444355970161667 2.6075709065116654e-05 -8.788801514198834e-06 0 0 0 0
460000000 0.6695745540821954 -0.7550524204221504 -3.7898413459179364e-05 6.694526445653861e-06 0 0 0 0
469000000 0.6579546657390828 -0.7648994442333966 5.388974582193066e-06 5.139383412076967e-06 0 0 0 0
478000000 0.6456761038024016 -0.7759701141280935 2.752780024995944e-05 5.931765315394648e-05 0 0 0 0
487000000 0.633480224294392 -0.7859322620722649 2.874255175517954e-05 1.4637481534834883e-05 0 0 0 0
496000000 0.6189954543638376 -0.798778605019108 8.370462180929475e-06 2.034902550384943e-05 0 0 0 0
505000000 0.6079582879860528 -0.8078224548399783 2.893070218478348e-05 3.100616213557525e-05 0 0 0 0
514000000 0.5934448572569008 -0.8188344966934676 1.684870657977962e-05 -3.092210376523641e-05 0 0 0 0
523000000 0.5799057829794128 -0.8284070872846163 -5.609999588762129e-06 -2.8060824839200227e-05 0 0 0 0
532000000 0.5655419567057967 -0.8399030673054548 -2.9120810568127906e-05 -0.00010709718129448133 0 0 0 0
541000000 0.54929254034159 -0.850860957496971 4.897491391917253e-05 -8.653066427750128e-06 0 0 0 0
550000000 0.5364196628669641 -0.8583602979709786 -2.0932807789914588e-05 8.182527427100928e-05 0 0 0 0
559000000 0.521158997070139 -0.8693050165349285 -2.845885127940652e-06 -2.12077623213432e-05 0 0 0 0
568000000 0.5048537286752606 -0.8811063069203441 -2.282438418688448e-06 5.337888073880402e-05 0 0 0 0
577000000 0.49165868307554245 -0.8874192057196211 4.322726916041071e-05 -5.583712643442267e-07 0 0 0 0
586000000 0.476580120653069 -0.8972593490495259 -6.299514684672161e-05 5.1252934756191535e-05 0 0 0 0
595000000 0.4565607317920989 -0.9066641196265102 -8.052157394902514e-05 3.6800372643852326e-05 0 0 0 0
604000000 0.44173595206837685 -0.9160910634560312 -3.1752965765538765e-07 -2.9333704315823235e-05 0 0 0 0
613000000 0.4263694031722515 -0.9245097189969784 -2.5759711707118666e-05 2.427557648870705e-05 0 0 0 0
622000000 0.41170252278352104 -0.9290834094732137 3.1635092147521996e-06 -3.061175024206325e-05 0 0 0 0
631000000 0.3913139301556409 -0.9383675352112916 7.164932325700784e-05 5.0454165067166304e-05 0 0 0 0
640000000 0.37648239902767927 -0.9463977658247739 1.4721793206916127e-05 9.968863282401373e-06 0 0 0 0
649000000 0.3577210686456154 -0.9536242073459023 4.690696962070786e-05 9.291341049082096e-06 0 0 0 0
658000000 0.3358030159828857 -0.9609504611022152 1.2130053235070404e-05 -1.5370364723204675e-05 0 0 0 0
667000000 0.3186494826399605 -0.9662640715794935 -4.510083324738286e-05 5.608296512642695e-05 0 0 0 0
676000000 0.29639168022700535 -0.9710654017936735 4.927959302256711e-05 1.0892217868737555e-05 0 0 0 0
685000000 0.28273266126072794 -0.9750776262207019 4.143784668633965e-05 -1.9040827663622318e-05 0 0 0 0
694000000 0.2619825220996129 -0.9825586079696871 -5.165106253442936e-05 -9.32674016932293e-06 0 0 0 0
703000000 0.23963616654455686 -0.9835023916728516 3.2055210565326796e-05 9.360285649915499e-06 0 0 0 0
712000000 0.2190145219696138 -0.9878538828332407 4.800031556837272e-05 7.225437628049353e-05 0 0 0 0
721000000 0.19834511437771715 -0.9903633761543306 -4.3996630737517686e-05 -2.365758764246009e-05 0 0 0 0
730000000 0.17866089478235656 -0.9926161639798987 2.6894920038855634e-05 -7.779297074177779e-06 0 0 0 0
739000000 0.1581148973454635 -0.992981829886545 -5.956928195497274e-05 6.38924213521739e-05 0 0 0 0
748000000 0.13825370731259276 -0.9950957118875865 8.306292571481685e-05 -2.8886331375278805e-07 0 0 0 0
757000000 0.11805939640253414 -0.9962615535557399 7.087950205984286e-05 2.845415272315384e-05 0 0 0 0
766000000 0.09750792866845934 -0.9950001319847791 3.4269718122518096e-05 8.413539147582752e-05 0 0 0 0
775000000 0.08190603331841417 -0.9923845917282291 3.071234006829293e-06 4.899073270095997e-05 0 0 0 0
784000000 0.05414698459558972 -0.9923897828940484 -2.343750491923237e-06 1.0374900007486148e-05 0 0 0 0
793000000 0.04046977797698254 -0.9890244032877658 0.00020754540043842673 5.802031058575715e-05 0 0 0 0
802000000 0.0233692005024415 -0.9856749330762986 4.403342629730339e-05 -1.261180919071566e-05 0 0 0 0
811000000 -0.00539399102301039 -0.9814224580258235 4.688839057648162e-05 4.5142071281752625e-06 0 0 0 0
820000000 -0.025233239176694844 -0.9770162102280083 -5.104628583871645e-06 -6.0191459378816996e-05 0 0 0 0
829000000 -0.03342330719201974 -0.9719232955566941 -2.26795068356318e-06 -6.204858428973823e-05 0 0 0 0
838000000 -0.05766952986307542 -0.9675654634911123 2.0421153155389903e-05 -6.920713227230723e-05 0 0 0 0
847000000 -0.08490468275413648 -0.9591048039079071 4.707861543069313e-05 -9.407788906559251e-05 0 0 0 0
856000000 -0.09450108222653528 -0.9554439545946334 3.5449173133343846e-06 8.134985350641856e-05 0 0 0 0
865000000 -0.11195519819684353 -0.9465286965439359 2.4281694386241673e-05 -2.7114874867247357e-05 0 0 0 0
874000000 -0.13043605841086275 -0.9411135467672936 2.7458647561601442e-05 -4.252451359919558e-05 0 0 0 0
883000000 -0.14411359750940753 -0.9341488982582157 3.8895249787977614e-05 -1.6812929593049202e-05 0 0 0 0
892000000 -0.15445636841101976 -0.926635673038661 1.3245077020794262e-05 4.6753938921569655e-05 0 0 0 0
901000000 -0.17494092669568784 -0.9171801394171926 -1.9080124240199475e-05 6.731275271807553e-05 0 0 0 0
910000000 -0.18891089339448497 -0.9098258836100879 8.691545335693072e-06 -9.59805826179043e-07 0 0 0 0
919000000 -0.19641960811848466 -0.9044022056254358 -5.430725323250568e-06 -3.921919421827484e-05 0 0 0 0
928000000 -0.21912917904498652 -0.8947427180383359 2.4529764951759137e-05 2.6899922098125643e-05 0 0 0 0
937000000 -0.2256012942942239 -0.8851348854844655 -6.301094566798491e-06 3.706330938281076e-05 0 0 0 0
946000000 -0.2478522133938355 -0.8769750806495771 2.6968499006067587e-05 -4.445725636508742e-05 0 0 0 0
955000000 -0.256604141901908 -0.8699171823457542 4.027196601504372e-05 9.321579217539944e-05 0 0 0 0
964000000 -0.2714443883607482 -0.8597982493556823 3.4737889137265695e-05 -4.497456063180601e-05 0 0 0 0
973000000 -0.2818762941490871 -0.8529745136440066 -5.670233794394377e-05 1.6325904557620364e-06 0 0 0 0
982000000 -0.2898648628243977 -0.846132640864562 6.722647102280246e-05 -2.7292546427808138e-05 0 0 0 0
991000000 -0.30732015049393346 -0.8334473353476265 3.752533832752879e-05 -7.284072280529632e-05 0 0 0 0
1000000000 -0.3194499819595269 -0.8273537034326782 4.504541732022519e-05 -5.82352786196471e-05 0 0 0 0
