# HZ S RI R 50
100000000 1.0079318885756057 -0.21980760925833867 2.7717991522112132e-05 -4.4312811074669793e-05 0 0 0 0
109000000 1.0080388574790984 -0.23441766338528536 -2.695841216356651e-05 1.1597061401955973e-05 0 0 0 0
118000000 1.0027268048004723 -0.24948867380418516 8.585129442690113e-05 4.246018156988445e-05 0 0 0 0
127000000 0.9973439753407752 -0.2651298531516477 -6.116934219607204e-05 -6.782315928908648e-05 0 0 0 0
136000000 0.9913112010195421 -0.28130906805276096 -1.8752405791718e-05 1.3486669806651667e-05 0 0 0 0
145000000 0.9836148641865419 -0.2946519510865865 3.565319041303757e-05 2.802488781436025e-05 0 0 0 0
154000000 0.9768294544697115 -0.3106716926697914 2.7948622536058965e-05 1.2474697336072234e-06 0 0 0 0
163000000 0.9712731134818526 -0.32550804131199423 -2.09557849393229e-05 -8.506282686260303e-07 0 0 0 0
172000000 0.9643883163051539 -0.3406606474063296 8.891290041458812e-06 -4.501313521534234e-05 0 0 0 0
181000000 0.9581129831721553 -0.3548655993641843 4.56883009557549e-05 -4.6609650309091005e-06 0 0 0 0
190000000 0.9507148692218077 -0.36985240363595145 -2.9211160731549837e-05 -1.781129077799983e-05 0 0 0 0
199000000 0.9439257243455081 -0.38436207365940583 2.0016214649327117e-05 1.1862962436077114e-05 0 0 0 0
208000000 0.9379302912912055 -0.39657706245499474 -2.5147739490241097e-05 4.457944721487395e-05 0 0 0 0
217000000 0.929911571384179 -0.4135711360839381 -4.926836633085665e-06 -2.2197181821581823e-05 0 0 0 0
226000000 0.9225681632847483 -0.4265903931258581 6.230150365463765e-06 1.677567548187648e-05 0 0 0 0
235000000 0.9147382781244302 -0.44000379945615237 1.0761230407031998e-05 4.535030751992097e-06 0 0 0 0
244000000 0.9074986461248409 -0.4539354708702479 3.165620163410238e-06 3.0922802194213156e-05 0 0 0 0
253000000 0.8980906766688624 -0.46910215020812784 -2.272927921670567e-05 -2.4280018422047584e-05 0 0 0 0
262000000 0.890702611600642 -0.48306887568228635 4.6152099896613044e-05 -2.8108674607288508e-05 0 0 0 0
271000000 0.8828036816893402 -0.4945729471309972 -1.2726056862302918e-05 2.926378428831536e-05 0 0 0 0
280000000 0.8728607504829581 -0.510045928900384 2.218552863134931e-05 -7.93774959700946e-06 0 0 0 0
289000000 0.8656976961365832 -0.5211320620836286 -3.0285124507039863e-05 -2.659588771395683e-05 0 0 0 0
298000000 0.8571966815041293 -0.5350111723831701 2.5587205868579275e-05 1.0015756831990897e-05 0 0 0 0
307000000 0.8461310164036085 -0.5515930241066048 -3.090574396793262e-05 6.294672295908512e-05 0 0 0 0
316000000 0.8410046996663431 -0.5606340033801461 2.2723980658723354e-05 -3.769480370460683e-05 0 0 0 0
325000000 0.829807664632691 -0.5737994372447022 -8.068161681994258e-06 1.5819270532774726e-05 0 0 0 0
334000000 0.8193139933103788 -0.589046357429246 -1.1616851967883701e-05 -3.625423416931154e-05 0 0 0 0
343000000 0.8113560719867817 -0.5996706256289643 -2.5219385888944205e-05 4.820174858509919e-07 0 0 0 0
352000000 0.8003811753977705 -0.614021716575538 8.712203630248382e-06 -1.699584064688876e-05 0 0 0 0
361000000 0.7928631284924232 -0.6227629385016972 2.7423362926826922e-05 -1.8101753717746952e-05 0 0 0 0
370000000 0.7797015057852492 -0.6381250904184839 5.78043874934564e-05 3.10347735720329e-05 0 0 0 0
379000000 0.7720037983659666 -0.6473522857766573 -3.1316933409491966e-06 -2.2836137533374256e-05 0 0 0 0
388000000 0.7605402102443983 -0.6616904999670827 -3.178146435817999e-05 1.4304956470396885e-05 0 0 0 0
397000000 0.7498934037964168 -0.6737620454883555 6.015836066385282e-05 4.382808444851634e-05 0 0 0 0
406000000 0.7357043945283047 -0.687112777674047 1.5353014066169125e-05 1.832500306717842e-05 0 0 0 0
415000000 0.7277551563134697 -0.6973035414915426 -3.521171507519505e-05 -3.446501902791794e-05 0 0 0 0
424000000 0.7166439838847422 -0.7092922775598669 -2.6908431315874344e-05 -4.193298244256437e-05 0 0 0 0
433000000 0.7035356367301051 -0.7205889346429415 -0.00011677230443706014 4.2968457610492e-05 0 0 0 0
442000000 0.6926913334256352 -0.7325586678784158 -4.395519750467309e-05 -3.9171167859118805e-05 0 0 0 0
451000000 0.6811512684384039 -0.741461576182062 3.0789566786540756e-05 -5.781072677417238e-05 0 0 0 0
460000000 0.6663546518381347 -0.7562232791618502 4.306086402213942e-05 -3.16453095428038e-05 0 0 0 0
469000000 0.6570404329187588 -0.7663550268451313 -3.300768716950066e-05 1.0298834463450016e-05 0 0 0 0
478000000 0.643761620922346 -0.7774217423241381 3.6902965349072984e-05 -7.40127062419739e-05 0 0 0 0
487000000 0.6360828260721721 -0.7846739634605466 4.4833753577901844e-05 4.71056330285572e-05 0 0 0 0
496000000 0.6163561497616796 -0.7997978221115811 4.44989664535254e-05 -8.441409039333421e-06 0 0 0 0
505000000 0.6036839918409029 -0.8104368725153387 6.643247500106573e-05 3.3918413664366056e-05 0 0 0 0
514000000 0.592260274751819 -0.8198332488371612 -5.585767043122265e-05 7.818034577970562e-06 0 0 0 0
523000000 0.5771467892470473 -0.83111308689097 6.616425686111945e-05 -2.113676925029723e-05 0 0 0 0
532000000 0.5623373357447392 -0.8420469574343683 -1.4873562475076737e-05 -7.373593432249148e-05 0 0 0 0
541000000 0.5543541152839182 -0.84831478601926 -2.2186211491940593e-05 1.8672059459985265e-05 0 0 0 0
550000000 0.5372791908966805 -0.8602507878024603 5.4702632867314495e-05 -0.00011747030978281787 0 0 0 0
559000000 0.5186031779547772 -0.8720231705894511 -2.956269801247701e-05 8.034718995893757e-05 0 0 0 0
568000000 0.5066993741085485 -0.8782065144309864 -7.496316860317227e-06 -8.859586055158453e-05 0 0 0 0
577000000 0.4921314363871597 -0.8877463470165255 -3.976457171428695e-05 8.831044428872711e-06 0 0 0 0
586000000 0.47352918305187897 -0.8989310488522907 4.2989177271560154e-05 5.802172652163145e-05 0 0 0 0
595000000 0.46133122033506574 -0.905623832665062 3.245267484252603e-05 4.120372899389724e-05 0 0 0 0
604000000 0.44883191119515264 -0.9121082682301086 2.8073375929755377e-05 1.029453023683754e-05 0 0 0 0
613000000 0.42995374645959766 -0.9224131090077633 3.883164497093182e-05 -5.846322216122042e-06 0 0 0 0
622000000 0.4050435833296848 -0.9321437125539137 -2.584765137592419e-05 3.289965107274965e-05 0 0 0 0
631000000 0.39340337415395354 -0.9385456091624514 3.132500001547159e-05 -2.392211514895812e-05 0 0 0 0
640000000 0.37298923829874286 -0.9472976107812493 -3.662522894125799e-05 4.047470636329417e-05 0 0 0 0
649000000 0.356354897479049 -0.9529747483975577 -4.757888831484097e-05 -9.14345408479861e-06 0 0 0 0
658000000 0.3393612853213833 -0.9579147501807578 -3.242980822409357e-05 7.424238471351408e-05 0 0 0 0
667000000 0.32334727608316594 -0.9636303647804683 1.66592345656121e-05 3.8705402231374526e-05 0 0 0 0
676000000 0.29748005759196267 -0.9731538231557735 -2.5800098557784228e-05 1.53717389563596e-05 0 0 0 0
685000000 0.27953823921896787 -0.9776217624418112 -1.908995682624483e-05 7.458765610941416e-05 0 0 0 0
694000000 0.26594570301067516 -0.9814781182077063 2.867677692660673e-05 8.622595895730069e-05 0 0 0 0
703000000 0.23928221217938583 -0.9842261504137689 8.464299988449819e-05 7.745547748660947e-05 0 0 0 0
712000000 0.21801259401063994 -0.9891158244448779 -5.5732654657796066e-05 -1.1937351198693986e-05 0 0 0 0
721000000 0.19895611932837803 -0.989927065998984 1.7337927884083794e-05 5.0733166856907106e-05 0 0 0 0
730000000 0.17536997256600056 -0.9925314051680708 4.033823678260616e-05 3.5747523327573356e-05 0 0 0 0
739000000 0.15356623820529047 -0.9958423529841826 1.5540163563063278e-05 2.596635262736071e-05 0 0 0 0
748000000 0.13934157858568297 -0.996674339021322 1.0961040437906378e-05 7.475252894509483e-05 0 0 0 0
757000000 0.11456660337532665 -0.9951135993706878 5.026724080301757e-05 2.657978951296563e-07 0 0 0 0
766000000 0.10342482674658059 -0.9938777208195647 3.9720500744876525e-05 5.692088451513641e-05 0 0 0 0
775000000 0.08059588414049415 -0.9931195719416223 1.8429386973512678e-05 6.544315884521917e-05 0 0 0 0
784000000 0.05582756080184081 -0.9918735377683929 7.968849080969712e-05 -1.5832904397036214e-05 0 0 0 0
793000000 0.04340730823235142 -0.987543262963769 0.00013010182586466025 3.136597943156604e-05 0 0 0 0
802000000 0.015717242411564802 -0.9862517005453983 5.407920753045984e-05 -6.508028241502518e-05 0 0 0 0
811000000 -0.0020439139611813065 -0.9817776363055161 0.00010762425380477854 -4.0163283485314916e-05 0 0 0 0
820000000 -0.02096246779465105 -0.9769203294544724 0.00012201267118994573 -2.2759348339218859e-07 0 0 0 0
829000000 -0.039496562894159974 -0.9733061049227175 4.216911575929415e-05 -6.257497471480267e-05 0 0 0 0
838000000 -0.05528506626088469 -0.9673606533779334 -5.1201887132374966e-05 -2.504124308452248e-05 0 0 0 0
847000000 -0.07103950017355028 -0.962256646909473 2.0586879301830515e-05 -1.0986487745948059e-05 0 0 0 0
856000000 -0.089355222429886 -0.9565132710727297 3.3859991779815035e-05 4.959316051494125e-06 0 0 0 0
865000000 -0.10833154998226083 -0.9497832452268048 -4.03152717473115e-05 5.557289453911485e-05 0 0 0 0
874000000 -0.12430749155044037 -0.9430955819925048 2.1850359324532476e-05 2.6963981098738623e-05 0 0 0 0
883000000 -0.1417534730031508 -0.9362943954947859 -1.0081499439483616e-05 -8.790591561783691e-06 0 0 0 0
892000000 -0.1566783790078328 -0.9256167362632082 9.044911491024405e-07 5.1697794374092584e-05 0 0 0 0
901000000 -0.16698677691285724 -0.919603187844765 1.72284978419902e-05 -3.562074592458652e-05 0 0 0 0
910000000 -0.19251757038057776 -0.9113829266242841 2.9342535685595394e-05 -4.193399682720504e-05 0 0 0 0
919000000 -0.20130700090526885 -0.9022352225704167 5.230934290559591e-06 -7.699281206769117e-06 0 0 0 0
928000000 -0.21531447692298333 -0.8937979896846459 -3.002186034392832e-05 -5.188396132852577e-06 0 0 0 0
937000000 -0.23059251156285782 -0.8868608827905127 5.157099951988142e-05 5.399451597298759e-05 0 0 0 0
946000000 -0.2471587359116932 -0.8763132945078047 -4.9699291985064246e-05 -2.720951190469599e-05 0 0 0 0
955000000 -0.2609148999634216 -0.868228200349256 4.558645256405164e-05 -2.9493077805480324e-05 0 0 0 0
964000000 -0.27223402635645183 -0.8589561177139148 6.37038818561347e-05 2.954584958806861e-06 0 0 0 0
973000000 -0.282003233862279 -0.8528320737065104 6.863721449865423e-05 -2.1625887253747673e-05 0 0 0 0
982000000 -0.29406780523628445 -0.8450837456738902 3.794249584513699e-05 -7.163107249746573e-05 0 0 0 0
991000000 -0.3046171691944605 -0.8356722983542568 -8.894066534779483e-05 1.9002225446697686e-05 0 0 0 0
1000000000 -0.3193178995846586 -0.8255091111949524 6.489567903144248e-05 -6.604544312622127e-06 0 0 0 0
