# HZ S RI R 50
100000000 1.0129202981476375 -0.21887498418906837 -2.9237640634961785e-05 -5.047309304999646e-05 0 0 0 0
109000000 1.007893130625214 -0.23461078258205312 -3.328849339961958e-05 8.644992124211596e-07 0 0 0 0
118000000 1.0024382254341628 -0.24934305327545034 -1.311208171481435e-05 1.2660019316330878e-06 0 0 0 0
127000000 0.9973215955135807 -0.26507173819714624 -3.278218703209575e-05 -1.360370502242233e-05 0 0 0 0
136000000 0.9911142767375473 -0.2802855699816544 -8.034733343114116e-05 -2.883237927216868e-05 0 0 0 0
145000000 0.9827370040689086 -0.2958403972178379 1.806448449006159e-05 4.294111874093538e-05 0 0 0 0
154000000 0.9768145442139455 -0.3117511370497667 -3.914637832203779e-05 5.7249026880480264e-05 0 0 0 0
163000000 0.9713253524360583 -0.3255399420840543 2.655655083560571e-05 -3.656860965576677e-05 0 0 0 0
172000000 0.9650988091697608 -0.3397325905284454 4.249293045927174e-06 -8.652183387634791e-06 0 0 0 0
181000000 0.9571164571075357 -0.35608917698091636 -2.603978880572698e-05 3.9484268163754626e-05 0 0 0 0
190000000 0.9506634712754072 -0.3703603010194619 3.098294038827135e-05 -1.4046852464068235e-05 0 0 0 0
199000000 0.9437430405260319 -0.383582851224094 -2.5533745712125653e-05 -2.253754646924564e-05 0 0 0 0
208000000 0.9372418373963293 -0.39744426241764064 2.13614336455704e-05 3.1185812299785284e-05 0 0 0 0
217000000 0.9295657440053141 -0.4119068019532092 9.865062609332186e-06 1.313653586093706e-05 0 0 0 0
226000000 0.9214060214884943 -0.42742094697193167 -5.328306743213822e-05 5.801098178168972e-05 0 0 0 0
235000000 0.915352755906835 -0.4407890398735248 8.738746246807727e-06 6.832779841107721e-06 0 0 0 0
244000000 0.9070464300775622 -0.455801197473163 3.967478806138325e-06 5.799051512769044e-06 0 0 0 0
253000000 0.8991097995983233 -0.4683540480450097 -6.792072312574386e-05 -1.1205194755771757e-05 0 0 0 0
262000000 0.891078266223361 -0.4813312776080274 -8.095430916893062e-05 -7.133943863035743e-05 0 0 0 0
271000000 0.8825402084450323 -0.49614432489924 1.0186649991075432e-05 -1.4319282658374947e-05 0 0 0 0
280000000 0.8729787447795453 -0.5102471926530612 8.360557780359946e-06 3.922716480330074e-05 0 0 0 0
289000000 0.8655016153973099 -0.5234495543356009 6.467845764000396e-05 -7.634901934560424e-05 0 0 0 0
298000000 0.8575381161353977 -0.535045010161917 4.902334149159381e-06 2.046069230540216e-05 0 0 0 0
307000000 0.8473567634685604 -0.5495036676519327 2.23003475407501e-05 3.500074036076685e-05 0 0 0 0
316000000 0.8410227852239532 -0.5597799635186077 -5.8668605837304364e-05 1.9595536845232095e-05 0 0 0 0
325000000 0.8294478242653869 -0.5734696647787548 5.354290120960113e-05 2.7601496522330584e-05 0 0 0 0
334000000 0.8200440259656022 -0.5866637047270399 3.2528933938433647e-05 2.161293821663507e-05 0 0 0 0
343000000 0.81064261385019 -0.6003496042363928 -2.5641253975827376e-05 1.408470326140268e-05 0 0 0 0
352000000 0.8006556806325813 -0.6129831743781934 -1.7198517522260764e-06 2.7194415473438685e-06 0 0 0 0
361000000 0.7928013314230783 -0.6227998989843955 -3.182824706218956e-05 -4.3060250442169774e-05 0 0 0 0
370000000 0.7827287339998924 -0.6356787515272302 -2.376584256736104e-05 -3.395860547954139e-05 0 0 0 0
379000000 0.7711595308826105 -0.6492171829232757 1.4441010269715914e-05 -3.7228498850814345e-05 0 0 0 0
388000000 0.7573220580390416 -0.6631051349596977 8.139697988091041e-05 4.650559217469453e-05 0 0 0 0
397000000 0.7495216066498718 -0.6732928927709513 2.6680971129209365e-05 9.637004936699435e-06 0 0 0 0
406000000 0.7381680241365614 -0.6847595345152703 1.941912107233335e-05 7.646570507771651e-07 0 0 0 0
415000000 0.7274149892519611 -0.6968534611691758 2.0029923900135044e-05 1.698442687370127e-07 0 0 0 0
424000000 0.7172895311173653 -0.7072700487635863 5.794043669892343e-05 -8.809442020334528e-05 0 0 0 0
433000000 0.7022846046723159 -0.7228905129379019 2.199357856222308e-06 1.8273450535892162e-05 0 0 0 0
442000000 0.6945298673840135 -0.7307204799175806 1.5789516166702883e-05 -6.59042025090171e-06 0 0 0 0
451000000 0.6822949125502359 -0.7421889664771556 -0.00010119761147925704 -1.7412623363853997e-05 0 0 0 0
460000000 0.6697499211870946 -0.756561886319297 -3.5523930642859304e-05 4.446845833368254e-05 0 0 0 0
469000000 0.6579038600913406 -0.7649389166400583 5.945067074223895e-05 -3.6071294843642496e-05 0 0 0 0
478000000 0.6464360563149042 -0.7746844214739831 4.109912628281789e-05 2.8601048390059384e-05 0 0 0 0
487000000 0.6313978226059414 -0.7885762106844378 5.498348627630326e-05 7.809825099328317e-06 0 0 0 0
496000000 0.6202618822646244 -0.7969369630894576 6.1341921676196306e-06 3.84062732805147e-05 0 0 0 0
505000000 0.6067314934269471 -0.8086284402777729 -4.267158211275924e-05 3.9970514264472144e-05 0 0 0 0
514000000 0.5908872089924223 -0.8200343491426147 5.7329014531236104e-05 -6.696226871016868e-06 0 0 0 0
523000000 0.5784747136034702 -0.8300905441621992 9.4632468694413e-06 3.2057558447417e-05 0 0 0 0
532000000 0.5685773066365477 -0.8383344294430808 4.209231638729193e-05 -4.1709028040243674e-05 0 0 0 0
541000000 0.5517157899123423 -0.849549812409951 3.7972685983851076e-06 -2.9275248286325253e-05 0 0 0 0
550000000 0.5323876278724395 -0.863754621483323 8.741018734024293e-05 -3.7693840974096235e-05 0 0 0 0
559000000 0.5191022723215608 -0.8712460640308812 2.7272584304856695e-05 -2.2473710898663545e-06 0 0 0 0
568000000 0.5093981532319517 -0.879117933843423 1.9984630600455863e-05 -1.7022592198894486e-05 0 0 0 0
577000000 0.4922015753235144 -0.8879208332909061 4.3242044374539034e-05 1.8418110867840274e-05 0 0 0 0
586000000 0.4761281323312368 -0.8963846690002334 -1.5930522306364142e-05 9.501349265198857e-06 0 0 0 0
595000000 0.45535344640114284 -0.9063600356361905 -2.461815405207742e-05 -2.179851809688092e-05 0 0 0 0
604000000 0.44194972416996314 -0.9173799021712316 2.6167445373648645e-05 5.4595013689412595e-05 0 0 0 0
613000000 0.42490870239782497 -0.9265691719855509 -2.7860349957954475e-05 -1.5562172022520128e-05 0 0 0 0
622000000 0.40616904874089427 -0.9333014575810495 1.441272942514269e-05 -2.1194533452744745e-06 0 0 0 0
631000000 0.3901348938173309 -0.940098775837968 1.9136308351095184e-05 -7.303659580130453e-05 0 0 0 0
640000000 0.3737403444212501 -0.9470160243300839 -5.7999836602192726e-05 -8.023385517896691e-05 0 0 0 0
649000000 0.3514053326836987 -0.9551300366296315 2.9697785092952712e-05 -3.2165825095716164e-05 0 0 0 0
658000000 0.3415955543309866 -0.9594773513121059 -7.90128445046964e-05 -2.4079865248871708e-06 0 0 0 0
667000000 0.3206098272520322 -0.9656012019080331 9.720939482618823e-05 -8.660881016999829e-05 0 0 0 0
676000000 0.2985076888746223 -0.9723391157889958 2.6870973944634616e-05 -2.0455924390448108e-05 0 0 0 0
685000000 0.2820932354797974 -0.9773638113272247 -7.598948433141432e-05 -1.7212734560010136e-05 0 0 0 0
694000000 0.2592966644068751 -0.9805137661682356 -3.4555127845189496e-05 2.450019055919497e-05 0 0 0 0
703000000 0.24430107925375508 -0.9840250750490035 2.5146121168144507e-05 3.533960037828766e-05 0 0 0 0
712000000 0.22415642231938 -0.9871484917930923 -3.722647981983043e-06 1.0459402160020211e-05 0 0 0 0
721000000 0.19853873039150538 -0.9948430009315942 6.456824092765782e-05 5.9282939448541575e-05 0 0 0 0
730000000 0.1783144776732576 -0.993065042383067 2.4424680928709775e-05 -3.8794187866309845e-05 0 0 0 0
739000000 0.16049795584182872 -0.9926967619250715 5.740565940476371e-05 3.517968612423956e-05 0 0 0 0
748000000 0.1363072843644551 -0.9946634165214101 3.893538733534449e-05 4.6723107912721686e-05 0 0 0 0
757000000 0.13053156140009273 -0.9935094057364006 7.730369908807737e-05 4.150431067769077e-05 0 0 0 0
766000000 0.0949742022717894 -0.9939984664876126 3.2712411569909366e-05 2.3253177728176898e-05 0 0 0 0
775000000 0.0809182604593038 -0.9946431991087132 4.6081564201936835e-06 -2.9362821446221714e-05 0 0 0 0
784000000 0.052755265762668035 -0.9917562654011425 9.060654106479729e-05 -2.0864312097091686e-05 0 0 0 0
793000000 0.04364901011099236 -0.9892502364365452 5.1906676213371404e-05 1.079311422632855e-05 0 0 0 0
802000000 0.025063268271782898 -0.9852795094781244 -6.262186424739458e-06 1.5433469842129784e-05 0 0 0 0
811000000 0.0037338033843719418 -0.9824442184823806 4.347994888098731e-05 -3.193845444736332e-05 0 0 0 0
820000000 -0.018758000151433855 -0.9776675445295335 3.320032360579977e-05 -4.7849844227248874e-05 0 0 0 0
829000000 -0.04096064833671601 -0.9726688509372908 1.2964492875138092e-05 -6.628606816777e-05 0 0 0 0
838000000 -0.05514505982739095 -0.9661668799997934 4.779269035641063e-05 1.8186068344932742e-05 0 0 0 0
847000000 -0.07347479259653998 -0.9600792948681165 0.00013928109623923468 -1.1413041186960596e-05 0 0 0 0
856000000 -0.09218879452420735 -0.955979832127689 -1.1461241448421865e-06 -4.693351165589877e-05 0 0 0 0
865000000 -0.11246898769229696 -0.9473901075617739 0.00012113216798376979 -2.4610579204411023e-05 0 0 0 0
874000000 -0.12238216993823248 -0.9430192625750741 -4.546478492406144e-05 1.297154284976377e-05 0 0 0 0
883000000 -0.14302520247642966 -0.9345924085908802 -1.995030224254071e-05 -6.962464291283839e-05 0 0 0 0
892000000 -0.15542439026622049 -0.9276152966523783 6.175417817542688e-05 1.5200793892570602e-05 0 0 0 0
901000000 -0.17466746901725108 -0.9186375033762381 5.3097308197565853e-05 1.5771979535351037e-05 0 0 0 0
910000000 -0.18606118189348272 -0.9086386247489978 3.095076738269842e-05 2.843502278364465e-06 0 0 0 0
919000000 -0.20449856915653986 -0.9005837376286698 1.8192711042006823e-05 1.045737893120104e-05 0 0 0 0
928000000 -0.21949161668560685 -0.8930326712503217 -4.53468128601718e-05 -1.98744304582085e-05 0 0 0 0
937000000 -0.22541238915380743 -0.8868956294009167 1.5825963354025904e-05 8.304163537257995e-05 0 0 0 0
946000000 -0.2434180181107165 -0.8801802096999063 -1.7193542920119103e-05 -6.845833773622262e-05 0 0 0 0
955000000 -0.2558614946164289 -0.8698669078409977 -3.7839417766540344e-05 4.924513830714063e-06 0 0 0 0
964000000 -0.2741354247862597 -0.8596697892974174 4.6058406182896486e-05 5.820121184298352e-05 0 0 0 0
973000000 -0.2824032886716957 -0.8516869788023477 -4.038010693529275e-06 -2.8927899594827497e-05 0 0 0 0
982000000 -0.291883334210709 -0.8446341951311928 6.274938528001798e-06 -2.861988741455662e-05 0 0 0 0
991000000 -0.30551581441289505 -0.8361801985027891 1.8166416453526956e-05 7.338500130188903e-06 0 0 0 0
1000000000 -0.31584820028671445 -0.8281894612542942 1.842669844128736e-05 -4.981174892658659e-05 0 0 0 0
