# HZ S RI R 50
100000000 1.0153550186540994 -0.2191897096690355 1.844252883547675e-05 3.076428034630814e-05 0 0 0 0
109000000 1.0078882801072115 -0.23515069193636265 1.1785820169506437e-05 1.7141643660232885e-05 0 0 0 0
118000000 1.0024185236291472 -0.2495543009922167 7.102997705157624e-05 1.0479254983038196e-06 0 0 0 0
127000000 0.9972569562009205 -0.26466144668097774 2.1903740764704795e-05 6.669874964695995e-06 0 0 0 0
136000000 0.9914231409508446 -0.2801732984803797 2.647640232595327e-05 8.773226695945697e-06 0 0 0 0
145000000 0.9831128279281823 -0.2952712755307143 4.7478417113080866e-05 3.939251216970587e-05 0 0 0 0
154000000 0.9764661180727432 -0.31095911408284005 1.7565889346764742e-05 -3.7339012487128543e-06 0 0 0 0
163000000 0.9702036689764147 -0.3251864013033799 -4.095412615231682e-06 -1.3825271296560987e-05 0 0 0 0
172000000 0.9646744482703353 -0.3400668219485536 -5.017954527867971e-05 1.3406310684818609e-05 0 0 0 0
181000000 0.9572250978712544 -0.355731874073818 9.281611206881788e-07 -2.585920828716382e-05 0 0 0 0
190000000 0.9512485135818528 -0.36995208461518864 9.011763660553401e-05 -3.293750591644932e-05 0 0 0 0
199000000 0.9440450929068581 -0.3841385559794626 -2.9866117122804936e-05 -2.1433663827481357e-05 0 0 0 0
208000000 0.9373034862827082 -0.3979455414895292 1.2116291425762757e-05 3.538121225303783e-05 0 0 0 0
217000000 0.929060553393087 -0.41438248737610006 -1.6218778784822427e-05 6.873313441451581e-06 0 0 0 0
226000000 0.9212809355650834 -0.42743198771599006 -2.8421140208076118e-05 1.1762104685608603e-05 0 0 0 0
235000000 0.9150740582962261 -0.4410881214785975 -3.2989197093837255e-05 3.137012873991946e-05 0 0 0 0
244000000 0.9087068179523209 -0.4524033255971044 -3.7059113484192515e-05 4.878806629334661e-05 0 0 0 0
253000000 0.8986270364166077 -0.4689069108451232 -3.636421496053599e-05 6.606330097363726e-05 0 0 0 0
262000000 0.8925589911083283 -0.4805132583664028 2.875156126787978e-05 -1.4492984119032476e-05 0 0 0 0
271000000 0.8826153926798538 -0.49525471880574107 -2.1628062929924032e-05 1.993265456611226e-06 0 0 0 0
280000000 0.8737596627042752 -0.5094339385272203 -5.73301481762906e-06 -3.475823332711392e-05 0 0 0 0
289000000 0.8657895849365363 -0.5225513314034349 -3.860676727411344e-05 8.223034049054262e-06 0 0 0 0
298000000 0.8555713408733683 -0.5378422525991579 -8.184365801178924e-06 -6.0975388853352585e-05 0 0 0 0
307000000 0.8483719243330827 -0.5484763198578211 4.715461500230764e-05 1.8974696604412508e-05 0 0 0 0
316000000 0.8384555680517963 -0.5626980108815708 1.5946563312748562e-05 -5.684389784884031e-06 0 0 0 0
325000000 0.8293361892417621 -0.5740338557639669 -1.6622275170786287e-06 -3.6061767033687467e-05 0 0 0 0
334000000 0.8211480476851996 -0.5870529323596073 -3.597277536048913e-05 2.7064795764665175e-05 0 0 0 0
343000000 0.8107824516456693 -0.6003017260568383 2.2912362782313532e-05 -7.02953114001433e-05 0 0 0 0
352000000 0.8002724986332569 -0.6136283909867748 4.0498570173348305e-05 2.0584379936213087e-05 0 0 0 0
361000000 0.792137809738932 -0.6234048749996642 7.47615405107146e-05 -5.093945438555931e-06 0 0 0 0
370000000 0.7810919383384388 -0.6372944934951924 6.0081661881278785e-05 -9.946348560742436e-06 0 0 0 0
379000000 0.7694066435404892 -0.649857328605307 5.749066972913932e-06 -3.677181596418495e-05 0 0 0 0
388000000 0.7612296865013375 -0.658916107980458 7.961573879620707e-06 -1.1499984221898175e-05 0 0 0 0
397000000 0.7467677992905264 -0.6760922267058885 -3.449220328427405e-06 5.1606408175120494e-05 0 0 0 0
406000000 0.7368990488036281 -0.6868337382665741 2.072064918854618e-05 -1.2194399308042957e-05 0 0 0 0
415000000 0.727817177898581 -0.6969314850245991 -6.909025838830543e-05 -2.0152249406722494e-05 0 0 0 0
424000000 0.7179307326916813 -0.7059982773879074 2.850393375889391e-05 -1.8083209266007412e-05 0 0 0 0
433000000 0.7031411797611025 -0.7217491573129878 -1.4831599826675037e-05 2.4449572869521737e-05 0 0 0 0
442000000 0.6934721677492311 -0.73099321604161 4.577621079515106e-05 3.1694920600838554e-05 0 0 0 0
451000000 0.6799605741839416 -0.7443486207354221 -2.1663498004568928e-05 -1.29101151303562e-05 0 0 0 0
460000000 0.6669342098434635 -0.7536549377867792 -3.014196232954462e-05 -1.7276423983038492e-05 0 0 0 0
469000000 0.6569680229981062 -0.7657621686313887 -1.4440041594726341e-05 -8.791761123681824e-06 0 0 0 0
478000000 0.6426990957390691 -0.7778466591834315 1.034628297415281e-05 -2.839188186185448e-05 0 0 0 0
487000000 0.6364273094844274 -0.7836496239606924 1.2886086015590546e-05 1.7053959973054087e-05 0 0 0 0
496000000 0.6197089444237858 -0.7981221598261761 6.596794801546529e-06 -2.2597189349956003e-05 0 0 0 0
505000000 0.6071107567376219 -0.8078422830378423 -1.1006455013083787e-05 -5.803359590002353e-05 0 0 0 0
514000000 0.5947220347748613 -0.8178730981672028 6.625423391785472e-05 -8.087903038437898e-05 0 0 0 0
523000000 0.5800251329168786 -0.8289270993738624 5.143876738147493e-06 -1.6868673250813015e-05 0 0 0 0
532000000 0.5633845857087826 -0.8411599545777586 9.550681873403e-06 7.505873342378033e-06 0 0 0 0
541000000 0.5510325544778294 -0.8494783719431176 -7.08011553937237e-05 4.221539025138889e-06 0 0 0 0
550000000 0.5391580557214439 -0.8585728737692264 -2.2542327375913486e-05 1.4546546599168487e-05 0 0 0 0
559000000 0.51866257607938 -0.8682966798677969 9.278856610466498e-06 3.161629093853284e-05 0 0 0 0
568000000 0.506990318246039 -0.879331914457112 5.908717312312575e-05 1.4950438301048416e-06 0 0 0 0
577000000 0.49091026897655815 -0.8889519339795625 3.97666284085055e-05 4.1229223878337345e-05 0 0 0 0
586000000 0.4722876335446474 -0.8983797846528001 1.0690020674184936e-05 -3.3946818387936225e-05 0 0 0 0
595000000 0.46403480830032584 -0.9037709334762888 3.398101247566312e-05 2.6209841077446482e-05 0 0 0 0
604000000 0.4473406269611431 -0.9125004110116149 -1.0997265486060715e-05 2.605686723078186e-05 0 0 0 0
613000000 0.43083485523834136 -0.9215305150738735 -9.583595317129407e-06 -3.2171339347428413e-05 0 0 0 0
622000000 0.40896553945973524 -0.9320649399478304 2.438066341676013e-05 -2.1514746167654947e-05 0 0 0 0
631000000 0.3948480682389829 -0.9378693832004491 -1.6996998411115133e-05 -1.520776486735124e-05 0 0 0 0
640000000 0.37352292906744483 -0.9476680904949677 -7.382588602057733e-05 4.706144026537143e-05 0 0 0 0
649000000 0.36033740884887827 -0.9504675538597616 2.431165495476343e-05 -6.9776883159186405e-06 0 0 0 0
658000000 0.33817272233344037 -0.9584597053089499 -3.674655048550753e-05 8.099980974578384e-05 0 0 0 0
667000000 0.31419522885909085 -0.9672194761759086 -4.769730318562992e-05 8.913346226210014e-05 0 0 0 0
676000000 0.30005231230867624 -0.9729846682564016 2.4403323144871342e-05 6.935426827599059e-05 0 0 0 0
685000000 0.2808773050684536 -0.9759183918755666 6.963431783124253e-05 5.056632538282766e-05 0 0 0 0
694000000 0.2574440716363617 -0.9828995719680147 1.4103019836595037e-05 5.565234184635398e-05 0 0 0 0
703000000 0.24710314010904572 -0.9830603957423932 -2.2539795755759682e-05 1.2023828223647455e-05 0 0 0 0
712000000 0.2194359742659425 -0.9890563765421765 -1.3132299347896239e-05 -7.882273595570484e-07 0 0 0 0
721000000 0.2053956558928354 -0.9871139101851003 1.4129240642079668e-05 8.448907771561184e-06 0 0 0 0
730000000 0.17314174527700535 -0.9941675895743247 -2.698631978700331e-06 -1.799408148584258e-05 0 0 0 0
739000000 0.1627004892471182 -0.9943602484454874 4.336423151168064e-05 -1.3890716507120914e-05 0 0 0 0
748000000 0.1333151923569826 -0.995738835141305 5.1943751149637316e-05 7.14427537420255e-05 0 0 0 0
757000000 0.11948087030077224 -0.9935641888485524 -2.964676375645769e-06 4.120053084619172e-05 0 0 0 0
766000000 0.09318485327113063 -0.995751535490704 8.903469917093766e-05 -1.4512135368896932e-05 0 0 0 0
775000000 0.07757071427142814 -0.9931939721377031 4.1530145628197087e-05 -3.202968482683099e-05 0 0 0 0
784000000 0.054020839142660225 -0.9904433435111594 4.863517727203302e-05 -1.2675164852125269e-05 0 0 0 0
793000000 0.0339018417764038 -0.98940325502898 0.00012271585848352154 4.333587532835965e-05 0 0 0 0
802000000 0.016519128190002137 -0.9849817548021141 4.109742885533607e-05 -8.017849626184237e-05 0 0 0 0
811000000 0.00589188162269083 -0.9798050861658045 4.1505613567882763e-05 -0.00012541480377688502 0 0 0 0
820000000 -0.02148425700777346 -0.9779375473671145 -7.883452440632789e-06 -9.62893875525361e-06 0 0 0 0
829000000 -0.0394978001738919 -0.9720559117327696 3.024747244920514e-05 -3.927463382637441e-05 0 0 0 0
838000000 -0.062138676605052574 -0.9659599880352697 3.516240449986649e-06 -6.7015647795763455e-06 0 0 0 0
847000000 -0.07282785481436015 -0.962307832514491 2.9973954246290173e-05 -3.0134097230110227e-05 0 0 0 0
856000000 -0.09713827807605563 -0.9530704566798625 2.5942561140295e-05 -3.8990007840609636e-05 0 0 0 0
865000000 -0.1127258340270414 -0.9470297195044887 -8.28599647483893e-06 -2.7087477150370677e-05 0 0 0 0
874000000 -0.13364413587252733 -0.9398011195216828 -4.062291388566934e-05 1.2362739793656427e-05 0 0 0 0
883000000 -0.1330936239800092 -0.9352595726738032 -1.9070451211404313e-06 1.553686789614844e-05 0 0 0 0
892000000 -0.16042289600253007 -0.9257723870523006 5.324513118349595e-06 1.6880842177447505e-05 0 0 0 0
901000000 -0.17660441292481527 -0.9182773460932405 2.0655087463962645e-05 1.810645729254794e-05 0 0 0 0
910000000 -0.19591270688373022 -0.9099997012512852 -7.612856015323318e-06 7.288335686366458e-05 0 0 0 0
919000000 -0.20376371309282415 -0.9015345114785338 2.9895496204665052e-05 8.91170513898038e-05 0 0 0 0
928000000 -0.21792353285703003 -0.8937890623147824 7.683896614004196e-05 -1.9366233786680164e-05 0 0 0 0
937000000 -0.2336786619727386 -0.8856656380294549 7.325979067168642e-05 -2.3236450391333874e-05 0 0 0 0
946000000 -0.24397323491202705 -0.8794788196482526 -5.473646161857357e-05 -3.4507136750178476e-05 0 0 0 0
955000000 -0.2538864862814276 -0.8688301663613761 2.6895948179003546e-05 -3.742693414437346e-05 0 0 0 0
964000000 -0.2708961041001999 -0.8612413172987267 4.961475664567023e-05 2.0486251056807403e-05 0 0 0 0
973000000 -0.2846561402189247 -0.8519854377993339 7.2462966202870235e-06 2.0962264393010607e-06 0 0 0 0
982000000 -0.3039623385499413 -0.8397901212433653 -6.623421289809685e-05 4.7979313108971736e-05 0 0 0 0
991000000 -0.3052342923368872 -0.8357521853162752 -1.500098991134385e-05 3.670392690376228e-05 0 0 0 0
1000000000 -0.3218727213047682 -0.8241151519727513 -5.176188172694667e-05 6.569288759668724e-05 0 0 0 0
