# HZ S RI R 50
100000000 1.008198922611889 -0.21984648713808047 -5.382733637473866e-05 -1.4157668193142602e-05 0 0 0 0
109000000 1.0072008925154181 -0.23442056046357906 -5.809502552340229e-06 -6.945187565308201e-05 0 0 0 0
118000000 1.0021408846825797 -0.24996347041021105 6.138341822255254e-05 -2.156743631054993e-05 0 0 0 0
127000000 0.9966055795033617 -0.2648732891395651 -9.757021904069616e-05 5.640185790298844e-05 0 0 0 0
136000000 0.9912654539181139 -0.2805395017961882 -6.931223067102566e-05 -6.894722408553592e-05 0 0 0 0
145000000 0.983243282629576 -0.29592903244241275 -1.56525372814052e-06 -2.1478183052745742e-05 0 0 0 0
154000000 0.9772120247175227 -0.31056353054358043 -4.418857587800528e-05 2.8213986309384825e-05 0 0 0 0
163000000 0.9707436927936829 -0.3262409923114266 -1.1293531486394065e-05 -7.869072980850777e-06 0 0 0 0
172000000 0.9638550752011044 -0.3404760647054677 5.866151217549738e-07 2.6479598904473075e-05 0 0 0 0
181000000 0.957708436305068 -0.35464633537240103 2.2138717326934123e-05 1.6518714515223802e-05 0 0 0 0
190000000 0.9512782947170169 -0.369485687974976 3.737398678821501e-05 3.123132049572085e-05 0 0 0 0
199000000 0.9443401662747494 -0.3836037665901656 -3.175000804563197e-06 -3.818258852616624e-05 0 0 0 0
208000000 0.9364503725004955 -0.3993486129619624 -3.378220426297201e-05 1.0444112073321608e-06 0 0 0 0
217000000 0.9285808780478063 -0.41363710086718436 2.566338862434436e-05 2.4981890774838152e-05 0 0 0 0
226000000 0.9212163266366092 -0.4281265585498429 -1.9031541406503608e-05 3.9066552300888314e-05 0 0 0 0
235000000 0.9147623831809999 -0.44160874525643323 4.593631549251193e-05 -5.1223916952466966e-05 0 0 0 0
244000000 0.9067368728510099 -0.4538550710476342 -4.6568442384510716e-05 1.5861650365877712e-05 0 0 0 0
253000000 0.8998908079624701 -0.4677056204050995 1.5701781593362298e-05 1.9920842399301796e-05 0 0 0 0
262000000 0.892372140025718 -0.4796647711452136 1.2493095967573238e-06 3.78596926344719e-05 0 0 0 0
271000000 0.8819503854595268 -0.495881780554774 7.732444165667601e-05 3.950550682662238e-07 0 0 0 0
280000000 0.8743502165425135 -0.5094978933715381 -2.8828638503050354e-05 -6.52203289390087e-06 0 0 0 0
289000000 0.8665663379252738 -0.5219588683461979 -1.1233956091397236e-05 5.835548538880028e-05 0 0 0 0
298000000 0.8575461857242836 -0.5341856608976957 1.0990597737645102e-06 -3.162282079793449e-05 0 0 0 0
307000000 0.8494694760906384 -0.546995428982586 6.7933537703480686e-06 -4.441535097853537e-05 0 0 0 0
316000000 0.8388329748459334 -0.5618063605243963 5.3227753348131285e-06 -7.486861429429616e-06 0 0 0 0
325000000 0.8278440470701529 -0.5758012988506587 2.7458334205140698e-05 -9.261635906773786e-05 0 0 0 0
334000000 0.8199091516326624 -0.5883194669548414 -5.094069877124529e-05 3.547811357074621e-05 0 0 0 0
343000000 0.812001594622196 -0.5990260003488747 1.0987472945521654e-05 1.8463426437082646e-05 0 0 0 0
352000000 0.8014549147058578 -0.6127725123151015 3.013255627084255e-06 4.915995135180271e-05 0 0 0 0
361000000 0.7906262332866515 -0.626517767102151 -4.583594264217706e-05 1.3004419070293207e-05 0 0 0 0
370000000 0.7798207375407563 -0.6385710371195574 -5.421682406191979e-05 -6.870436057140555e-05 0 0 0 0
379000000 0.7702576171042789 -0.6489901752292266 -3.4409336387143484e-05 -7.509530639009802e-05 0 0 0 0
388000000 0.759901243107384 -0.6634188714324565 1.7292707405884216e-05 -1.298555360846315e-05 0 0 0 0
397000000 0.7500061628813772 -0.6733365719510194 4.577574805503188e-06 1.0131003757957397e-05 0 0 0 0
406000000 0.7376170621906277 -0.6862946237948676 -5.490995102605258e-05 2.038601728960554e-06 0 0 0 0
415000000 0.7274395193570831 -0.6967832678861602 1.2182456209037738e-05 1.6894425196441625e-05 0 0 0 0
424000000 0.7164489331511036 -0.7078130780705104 -1.859442231911723e-05 -2.2006742502126937e-05 0 0 0 0
433000000 0.706590788763587 -0.719131202716809 -2.4524341336067654e-05 2.650741849527544e-05 0 0 0 0
442000000 0.6934932216643622 -0.7330119113976376 5.741885467884779e-05 4.254119089036538e-05 0 0 0 0
451000000 0.6808177540387371 -0.7443488700898041 3.830262797707728e-05 5.217511193978638e-05 0 0 0 0
460000000 0.6719336518303328 -0.7556343834682516 -3.744872975111732e-05 -1.855496379281957e-05 0 0 0 0
469000000 0.6583457027984936 -0.7643411693246136 -5.595145769656985e-05 -1.734836425493595e-05 0 0 0 0
478000000 0.6469249351295392 -0.7750816627506959 -2.4320754408744616e-05 -4.482766138548472e-05 0 0 0 0
487000000 0.6353749376681642 -0.7851637104006172 -6.575193639396872e-07 1.3824455991068704e-05 0 0 0 0
496000000 0.6210939366737853 -0.7957495243700117 2.292063280433083e-05 -1.836891351378448e-05 0 0 0 0
505000000 0.6054956522060909 -0.8092173206774552 -3.494315379412365e-05 -3.885033394210794e-08 0 0 0 0
514000000 0.5922874202135934 -0.8189614012555853 -2.4632323266774332e-05 -1.809641872713136e-05 0 0 0 0
523000000 0.5768583734803011 -0.8317727861168428 -6.142950084854415e-06 -2.655845245884847e-05 0 0 0 0
532000000 0.5666100334686419 -0.8383365039940814 -4.058687322428185e-05 3.992879100383962e-05 0 0 0 0
541000000 0.5519780822551065 -0.8498838659033561 -6.31344193739758e-05 -5.906258799644446e-05 0 0 0 0
550000000 0.5359722046002747 -0.8592318290148138 -7.620950183061211e-05 -2.771177603794541e-05 0 0 0 0
559000000 0.5229215769340633 -0.8683438013356489 -9.202841450618935e-05 5.5171754712629656e-05 0 0 0 0
568000000 0.5041106853788134 -0.8791756531565128 2.1842356372229424e-05 -1.9832242308493012e-05 0 0 0 0
577000000 0.4936228862912713 -0.8863587575364225 -3.141010749913111e-05 2.109997405920072e-05 0 0 0 0
586000000 0.4735269524869243 -0.8976774286151675 2.281576231314312e-05 -9.971332231465068e-05 0 0 0 0
595000000 0.46108195424315934 -0.905583213664563 3.908024437232608e-05 -7.248672187902418e-05 0 0 0 0
604000000 0.4429337826479792 -0.9151396161131298 3.178339226637341e-05 -4.5816707083333145e-05 0 0 0 0
613000000 0.4217888165451989 -0.9235112513894161 3.167014762092309e-05 1.1505500931097127e-05 0 0 0 0
622000000 0.41203839747552284 -0.9319848192970596 -3.668314775632814e-05 -4.47584851317433e-05 0 0 0 0
631000000 0.3908570770127102 -0.9403224155715605 -1.4447450331858817e-05 -2.9296508203570442e-05 0 0 0 0
640000000 0.3725006312328723 -0.9453453879534767 -4.000768583568417e-05 -3.4253076583759264e-05 0 0 0 0
649000000 0.3597294594054097 -0.9527034700641954 4.342182594064422e-05 -2.2565445225022484e-05 0 0 0 0
658000000 0.3377033992272037 -0.960967115058861 3.572200532866736e-05 1.7949111507204187e-05 0 0 0 0
667000000 0.31928118381474124 -0.9647997239014126 -9.156110388774095e-08 -1.879299094485936e-05 0 0 0 0
676000000 0.3022784693313362 -0.9719912110241732 -3.1325779146168132e-06 -1.9619823334315615e-05 0 0 0 0
685000000 0.283839939887554 -0.9763547868077099 -5.081354312841937e-05 4.708339163371204e-05 0 0 0 0
694000000 0.2646063317699609 -0.9798504178992588 -1.7258624573369612e-05 2.6172813255450724e-05 0 0 0 0
703000000 0.24334847344364052 -0.9838964083150432 -3.841527905446103e-05 2.4343535735211128e-05 0 0 0 0
712000000 0.2316471437191414 -0.9859725389333192 -4.110379804075995e-06 5.29871576776709e-05 0 0 0 0
721000000 0.20120384784490908 -0.9930071677796573 -6.808684629798919e-06 6.674067978073106e-05 0 0 0 0
730000000 0.1797131882171684 -0.9949088166243322 1.8238688176689066e-05 -2.8347003792240696e-05 0 0 0 0
739000000 0.15929527478332584 -0.9967950051332887 5.4014749916517815e-05 -1.2177161000076529e-05 0 0 0 0
748000000 0.13955674301048604 -0.993739082374593 6.552793572741986e-05 7.07223740364713e-05 0 0 0 0
757000000 0.12460843331735429 -0.9948699695480168 2.2938646048897396e-05 1.4576042136395248e-05 0 0 0 0
766000000 0.10184476887330031 -0.9943949256982828 3.850386289621114e-05 -2.3449570813760525e-05 0 0 0 0
775000000 0.07872806535292073 -0.9935074042805588 -1.0895960658046205e-05 4.551769764532329e-05 0 0 0 0
784000000 0.05371570182623129 -0.9903640135579796 4.202174809986453e-05 4.002763672470412e-05 0 0 0 0
793000000 0.04028109904345359 -0.9888483148215118 7.257784664278391e-05 1.26782702014123e-06 0 0 0 0
802000000 0.02200654508983143 -0.9846399638501558 1.2334086182167518e-05 5.268432488066546e-05 0 0 0 0
811000000 0.0012742542865343005 -0.9808086038292616 7.531598733897861e-05 2.997102246372417e-05 0 0 0 0
820000000 -0.02615544580683752 -0.9768202894880955 5.470239857217051e-05 1.4711769807745552e-05 0 0 0 0
829000000 -0.034431862302297556 -0.9718825536031152 8.000796756474573e-05 -2.2822946659951057e-05 0 0 0 0
838000000 -0.05451222169732568 -0.9666448417800576 6.146534292968664e-05 -8.803743930719546e-06 0 0 0 0
847000000 -0.07856110089587871 -0.9594923254262241 -1.3368111557699276e-05 -6.343774779234493e-06 0 0 0 0
856000000 -0.09250219077808983 -0.9552048057389051 2.4225062092506242e-05 -1.2255664660046138e-05 0 0 0 0
865000000 -0.10739254758119096 -0.9465067667500132 8.046427818836138e-05 9.840473242223826e-06 0 0 0 0
874000000 -0.12680816220204558 -0.942090119312785 1.9102493982316204e-05 -2.0290728322096633e-05 0 0 0 0
883000000 -0.14030502381905563 -0.9327725986108064 7.125208193744065e-05 -2.388375733188508e-06 0 0 0 0
892000000 -0.16424168189332264 -0.924904837475965 4.880849731368107e-05 -3.882051081899612e-05 0 0 0 0
901000000 -0.17238539201452127 -0.9181230067168054 5.3594106230841014e-05 -1.6004516452234824e-05 0 0 0 0
910000000 -0.19029531683743686 -0.910983082105883 -3.3447203628419224e-07 -7.1712373770128245e-06 0 0 0 0
919000000 -0.20318486108576808 -0.9029957092940551 4.2117515033399484e-05 -1.1181993790392838e-05 0 0 0 0
928000000 -0.21839369828459135 -0.8940586392198611 -7.3834462737615215e-06 2.6579130297072455e-05 0 0 0 0
937000000 -0.23140965830504803 -0.886942795123455 -2.48851327093304e-05 1.8045694775395318e-05 0 0 0 0
946000000 -0.2513573552039433 -0.8757334774449748 2.373178263027163e-06 1.3479157156141839e-05 0 0 0 0
955000000 -0.2582027403883644 -0.8698842364722803 -2.3803744772236114e-05 -7.797120658849179e-05 0 0 0 0
964000000 -0.2739283554421957 -0.8606890667198983 -1.6751015696896846e-05 -2.3069767573950627e-05 0 0 0 0
973000000 -0.28498259836804857 -0.8508461890957514 3.4635381904015434e-05 4.149008624380835e-05 0 0 0 0
982000000 -0.2943489821527805 -0.8452194837033912 9.709093028840864e-07 -9.579109666027784e-05 0 0 0 0
991000000 -0.30290735011436853 -0.8356660825131248 0.0001237579480939688 -4.305932631266189e-05 0 0 0 0
1000000000 -0.32107887391172857 -0.8262455760168989 -3.202956308979244e-05 7.111301837843493e-05 0 0 0 0
