# HZ S RI R 50
100000000 1.0152582633574967 -0.2196012641003794 8.973587716229303e-06 7.68607617714876e-05 0 0 0 0
109000000 1.0071868851912444 -0.2353882518106009 -3.3466787818267126e-05 -1.439820358794192e-06 0 0 0 0
118000000 1.0021841419501596 -0.25021876447618363 1.745964575273998e-05 -5.8530313377434e-05 0 0 0 0
127000000 0.9970872970607144 -0.2647205159795855 1.299917230568304e-05 5.491133734765232e-05 0 0 0 0
136000000 0.9910015096895183 -0.28076263121250195 5.858457877934106e-06 -2.9390755862256034e-05 0 0 0 0
145000000 0.9829620343926598 -0.2963305897727952 7.327247488156843e-06 2.6313627338543584e-05 0 0 0 0
154000000 0.9771418027235933 -0.3103015631296836 -6.9083211136530194e-06 6.365981237590886e-05 0 0 0 0
163000000 0.9708639176796172 -0.3251166280192533 1.6747623686276566e-06 2.089064507015387e-05 0 0 0 0
172000000 0.9643515650952141 -0.34059638432771416 -3.939081102838582e-06 3.6075830681609344e-05 0 0 0 0
181000000 0.9583358174772868 -0.35404087670437484 8.17856077491615e-05 5.137559801277692e-05 0 0 0 0
190000000 0.9516063445037468 -0.3690459979732399 1.6275381933077127e-05 3.433962491584254e-05 0 0 0 0
199000000 0.9436535975930609 -0.38415021913918185 8.754050058368543e-05 4.636374446074653e-05 0 0 0 0
208000000 0.9371145963890516 -0.39892374022368754 -1.3755214353855574e-05 5.157283738245146e-05 0 0 0 0
217000000 0.9289436356567091 -0.41266384245063154 3.6217743826905217e-05 1.137528027798639e-05 0 0 0 0
226000000 0.922648294866691 -0.4258284434637741 3.5333102327296114e-05 -3.574058725100873e-05 0 0 0 0
235000000 0.9150802230598516 -0.43879645417868085 1.5646071462220817e-05 -5.014569631319728e-05 0 0 0 0
244000000 0.9063913628157784 -0.4551852629567151 5.7686675603668275e-06 6.907028326205367e-06 0 0 0 0
253000000 0.8994706505864994 -0.46625767557628844 2.5693651602028766e-05 7.979907429387237e-06 0 0 0 0
262000000 0.8912182939090478 -0.4817400147119804 -1.5604862032779883e-05 7.469611106927911e-06 0 0 0 0
271000000 0.8825074840193825 -0.4960344174124228 2.202844185236449e-05 -1.7561413662229325e-05 0 0 0 0
280000000 0.8735240339736341 -0.5085504740891988 5.464875900648302e-05 2.3227741907605754e-05 0 0 0 0
289000000 0.864784954811255 -0.5249319595832667 3.0328424935455172e-05 -2.649806937667739e-06 0 0 0 0
298000000 0.857020558194628 -0.5360718014858364 5.553915373150609e-06 1.6823863591378626e-05 0 0 0 0
307000000 0.8479254743310838 -0.5496989465838927 -3.670364788052303e-05 1.0181361584461304e-05 0 0 0 0
316000000 0.8379319170108241 -0.5629569390494058 1.0605744757664252e-05 -1.1472618747694741e-06 0 0 0 0
325000000 0.8300385618564131 -0.5745037787911836 2.596702220481039e-05 -9.160622730695198e-06 0 0 0 0
334000000 0.8188746518862623 -0.5880903680410005 2.188091644131016e-06 -4.0227461693419796e-05 0 0 0 0
343000000 0.8120163622771773 -0.5978875274358509 -3.2996434713234065e-05 -1.2883252060364394e-05 0 0 0 0
352000000 0.8002267701474556 -0.6137046014677926 -4.7609729759439656e-05 3.6509558179805686e-05 0 0 0 0
361000000 0.7905759926703775 -0.6253080749967171 2.9266406788333518e-05 -1.5732910159263255e-05 0 0 0 0
370000000 0.7824546352485245 -0.6358647287162231 4.0038319670957584e-05 -3.020466541721421e-05 0 0 0 0
379000000 0.7702974990252617 -0.649472332016159 -3.295794053215155e-05 -1.2075874108052511e-05 0 0 0 0
388000000 0.7607273026610097 -0.6600009349742332 -4.523519392515651e-06 -4.7955483146409474e-05 0 0 0 0
397000000 0.7500355200586195 -0.671900302034188 -1.309604404424263e-05 9.137014410600721e-06 0 0 0 0
406000000 0.7376744895355567 -0.6861930633031338 6.270227450040789e-06 -1.3639389069685331e-05 0 0 0 0
415000000 0.7266935234034833 -0.6983576173707755 -5.479852791094499e-05 5.18069709468643e-05 0 0 0 0
424000000 0.7161106189632257 -0.7097364526087204 -6.62890529130459e-05 -2.1166981672708736e-05 0 0 0 0
433000000 0.7038018619349837 -0.7198566219931157 3.497868629013954e-05 1.640399803386559e-05 0 0 0 0
442000000 0.6940350922486948 -0.7315174945985038 2.386008639567614e-05 2.8460199908680435e-05 0 0 0 0
451000000 0.6808307256644708 -0.7416583562499136 6.24598634962088e-05 8.86179127068156e-05 0 0 0 0
460000000 0.668956200661522 -0.755034175025596 -1.3411233235925772e-05 -1.2725305432888541e-05 0 0 0 0
469000000 0.6562234656523676 -0.7666609281901697 2.4590396055472598e-05 -6.297513816589742e-05 0 0 0 0
478000000 0.6435007128719465 -0.7772838822359063 -1.3796181207962416e-06 -7.223357852623447e-05 0 0 0 0
487000000 0.6309291049180514 -0.7875271842809642 -2.718863009850725e-07 2.9122836185321834e-05 0 0 0 0
496000000 0.6221593239108548 -0.7961240449890341 1.2623033910972892e-05 -1.442176285416432e-05 0 0 0 0
505000000 0.6033371065643516 -0.8111641281111491 -4.179746015442458e-05 -2.61590514728993e-05 0 0 0 0
514000000 0.5891097328247809 -0.8224304030535271 6.195894988577112e-05 5.7132669823681304e-05 0 0 0 0
523000000 0.5810566476257072 -0.8279568844082364 -5.1574308166473837e-05 4.137490750819835e-05 0 0 0 0
532000000 0.5660590034205101 -0.8403256967422689 -5.361861396308379e-05 -5.6315818667132585e-05 0 0 0 0
541000000 0.5536003888087572 -0.8483161269363896 8.726300171771654e-06 -1.6414912055291743e-05 0 0 0 0
550000000 0.5334547276342396 -0.8600850401610773 3.735241324432689e-05 2.1729121454617212e-05 0 0 0 0
559000000 0.5194505796465835 -0.8706079430041722 -6.276064226759058e-05 3.0228221070080217e-05 0 0 0 0
568000000 0.5052350970736906 -0.8795324974087514 -1.1770906055606132e-05 4.9984257523144046e-05 0 0 0 0
577000000 0.49151634293605667 -0.8881227232582368 2.515599583908878e-05 -5.842832660807534e-06 0 0 0 0
586000000 0.4774211702166819 -0.8976282748983538 5.6472307228335014e-05 3.60661005868073e-05 0 0 0 0
595000000 0.45860593483895057 -0.9066817941862447 -2.3195922613981334e-06 3.337807938301582e-05 0 0 0 0
604000000 0.44356168847807936 -0.9134368713855424 2.0723295752498512e-05 3.215785866053979e-05 0 0 0 0
613000000 0.42338441645598185 -0.9245783793094802 -2.1749437086369974e-05 -2.6038620226082353e-05 0 0 0 0
622000000 0.4071874036592119 -0.9320839319954838 7.263576267901021e-07 3.793111149905772e-05 0 0 0 0
631000000 0.39502007223392943 -0.9384826372555422 -4.266181308471838e-05 6.169361433344754e-05 0 0 0 0
640000000 0.37002208384418633 -0.9498925156797667 -1.3611914438757247e-05 2.2361381856484768e-05 0 0 0 0
649000000 0.35407775443810374 -0.9539539021722203 4.5744557944788604e-05 1.1304717892593628e-05 0 0 0 0
658000000 0.33683067063941297 -0.9607241453587707 -5.080007058148285e-05 -3.517273100433398e-05 0 0 0 0
667000000 0.3181877372999843 -0.9656148904536478 -1.1371665831781398e-05 9.521245275781839e-05 0 0 0 0
676000000 0.29661368844074165 -0.9727425531002037 7.888262722452317e-07 2.438638532103826e-05 0 0 0 0
685000000 0.2802277803968112 -0.9777143300570983 -1.0810267391076459e-05 6.830446623879821e-05 0 0 0 0
694000000 0.25863276789238493 -0.9804166798870826 -3.544757494241153e-05 5.568576092812567e-05 0 0 0 0
703000000 0.2425881629950961 -0.9842879347992607 -3.2027131831079754e-05 3.8645674662931655e-05 0 0 0 0
712000000 0.21932829236669396 -0.9894280411838148 7.782068336977022e-06 1.9964366613305432e-05 0 0 0 0
721000000 0.20819742647117795 -0.9884251137085495 2.4199429616720467e-05 8.215173456567061e-05 0 0 0 0
730000000 0.17964811015180776 -0.9923047586338222 4.329563339910182e-05 8.21524206838616e-05 0 0 0 0
739000000 0.15783919606694533 -0.9947050644503761 -6.457860821829128e-06 4.0438842452755534e-05 0 0 0 0
748000000 0.14060755910958525 -0.9938549893994966 4.6826787861250085e-05 8.034487720687862e-05 0 0 0 0
757000000 0.1262369034134695 -0.9959519450684179 3.1901418779423863e-06 4.025080227192216e-05 0 0 0 0
766000000 0.09708119572873053 -0.9938350090107397 0.00014520908853757062 -4.277348011852595e-06 0 0 0 0
775000000 0.07700215534432364 -0.9924403087803526 7.037687301665982e-05 3.2532565355696752e-06 0 0 0 0
784000000 0.053964997729362946 -0.9905007644138241 0.00011846396215528899 1.6268712961502598e-05 0 0 0 0
793000000 0.03840131885113209 -0.9882188530822976 8.448319214412843e-05 -3.1131181182048426e-05 0 0 0 0
802000000 0.02335881233859132 -0.9842136703367802 0.00014292808366615214 -1.9002754704805905e-05 0 0 0 0
811000000 0.005732192890437517 -0.9826984113312057 0.00010140635048139443 -3.44412500301369e-05 0 0 0 0
820000000 -0.018726610703690513 -0.9778403297703023 8.908489278807886e-05 3.8683250599773126e-05 0 0 0 0
829000000 -0.035534835814449085 -0.9713104222384539 4.608979914874243e-05 -7.329561089962918e-05 0 0 0 0
838000000 -0.05550264280283171 -0.9675063092772737 -9.26161727099255e-06 -4.7647499394060914e-05 0 0 0 0
847000000 -0.07840889901074495 -0.9599460144912669 -2.9329806938241697e-05 6.609684423568277e-06 0 0 0 0
856000000 -0.09199196676862847 -0.9568403813397578 2.0869662975836677e-05 -5.9680580481349536e-05 0 0 0 0
865000000 -0.11177664198344264 -0.9493882581570626 -3.645846505153066e-05 -4.416310959479132e-05 0 0 0 0
874000000 -0.12575965258702143 -0.9404911477893938 -4.260839784726935e-05 -6.425452599438252e-05 0 0 0 0
883000000 -0.1381941787701249 -0.9349993379764004 -5.206120782124753e-06 -2.1157344910446525e-05 0 0 0 0
892000000 -0.15372165527837287 -0.9277430410715747 -3.0612626324777797e-06 3.915177710929141e-05 0 0 0 0
901000000 -0.17429836791181638 -0.9183716195575016 -2.0332337745558024e-05 -7.756867935120359e-06 0 0 0 0
910000000 -0.1970878743301943 -0.9083755947989238 4.9691576454390646e-05 1.8364167793258196e-05 0 0 0 0
919000000 -0.20878198207925466 -0.9017558548497755 -4.128083335067195e-05 1.352493466794421e-05 0 0 0 0
928000000 -0.2126006500173172 -0.8951206381535265 2.8965506241708077e-05 -5.952401578354434e-06 0 0 0 0
937000000 -0.23951704397989013 -0.8858197385949478 -2.3330844833614692e-05 5.192299606479775e-05 0 0 0 0
946000000 -0.24402946484961188 -0.8772118986345961 3.07082335897138e-05 -9.0528529602671e-05 0 0 0 0
955000000 -0.2545080582360576 -0.8681267074829286 -1.7980527800910115e-05 4.626860875826837e-05 0 0 0 0
964000000 -0.27350262220784055 -0.8592857211816982 -2.6862435882438892e-05 -3.599588798783565e-05 0 0 0 0
973000000 -0.2792369342477914 -0.8515793922581453 1.2913782553778646e-06 9.073272361164803e-05 0 0 0 0
982000000 -0.2950565400296955 -0.8425036874510565 -3.5770396070135515e-05 1.0173524162628599e-05 0 0 0 0
991000000 -0.30679887303485454 -0.8363087258400577 2.546890982795137e-05 1.054792034084079e-05 0 0 0 0
1000000000 -0.3171680139771259 -0.8273303344791514 -1.1222396993946113e-05 2.9367732787111117e-05 0 0 0 0
