# HZ S RI R 50
100000000 1.01271435656755 -0.21947103126777565 -4.9887491374555654e-05 -7.546204290288086e-05 0 0 0 0
109000000 1.0078133359864014 -0.23436109092171792 -1.990580050926615e-05 4.4053618124155417e-05 0 0 0 0
118000000 1.002267615979712 -0.2506121034922795 -1.6767219970221127e-06 4.035479768873424e-05 0 0 0 0
127000000 0.9963462420791612 -0.265002422594903 -2.7763721255435258e-05 -4.1790415696712e-07 0 0 0 0
136000000 0.9914713155486391 -0.2803017411024295 1.0509512996530648e-07 -2.3029477518617807e-05 0 0 0 0
145000000 0.9834317339079336 -0.29607544054829343 -2.299637320212733e-05 2.2013486720718237e-06 0 0 0 0
154000000 0.9776145627234095 -0.30943602998835673 -1.8170509279134364e-05 2.7309682896781565e-05 0 0 0 0
163000000 0.9704811159674926 -0.32654456702837276 1.9122615834837804e-05 -6.266109695333792e-05 0 0 0 0
172000000 0.9641293525853658 -0.3403025772079357 -4.456407383223317e-05 6.059069145047467e-06 0 0 0 0
181000000 0.9581584096887322 -0.3548658974650942 2.084525231828776e-08 -3.651149798488645e-05 0 0 0 0
190000000 0.9514399901016533 -0.3680902036080353 2.3161445367994942e-05 -3.129211882011351e-05 0 0 0 0
199000000 0.9442352666445076 -0.38376419425209796 -2.850497400400514e-05 -2.068571982181952e-05 0 0 0 0
208000000 0.9369992610258321 -0.3962138968821465 5.094943740669457e-05 7.381451077663807e-07 0 0 0 0
217000000 0.9296104113217485 -0.41248813997388495 -7.361733874886965e-06 -1.2580586773812854e-05 0 0 0 0
226000000 0.9220155767132566 -0.4260555626349147 1.9996296735069326e-05 3.722858972046261e-05 0 0 0 0
235000000 0.9150659032962699 -0.4400937765269306 2.5611525685708924e-05 -3.71185903951929e-05 0 0 0 0
244000000 0.9080388012975699 -0.4525667382871221 -4.752635556055108e-07 -1.4200541031862523e-05 0 0 0 0
253000000 0.8985202887975208 -0.4696119126534379 2.7734352882576027e-05 -4.302956734639286e-05 0 0 0 0
262000000 0.8902855153274053 -0.4821840185008554 -2.6823058240313793e-06 -1.8189070261003155e-06 0 0 0 0
271000000 0.8826901391692319 -0.4945582266171033 7.0205257547854596e-06 6.7195629029484324e-06 0 0 0 0
280000000 0.8729366635907628 -0.5109997889785821 3.373944415478267e-05 -3.5810242016565863e-05 0 0 0 0
289000000 0.8655785534195023 -0.5221860611239828 2.3709150510184976e-05 -2.1560747909703345e-06 0 0 0 0
298000000 0.8561351631261908 -0.5356531841941367 8.22682083937249e-06 -8.950890285109078e-06 0 0 0 0
307000000 0.8479744699261275 -0.5488660314650153 3.190191047430947e-05 -5.736664881546411e-06 0 0 0 0
316000000 0.8379990824176488 -0.5629562527040538 3.327927813563309e-05 7.164795170835172e-06 0 0 0 0
325000000 0.8299226733748094 -0.5754149923393439 4.617260690257798e-05 -8.148422221011253e-08 0 0 0 0
334000000 0.8190133810924164 -0.5871883686383924 -5.269894591651072e-06 -8.952085572711242e-06 0 0 0 0
343000000 0.8098555810773111 -0.6018732488967485 -6.776143322418931e-05 8.293329458574078e-06 0 0 0 0
352000000 0.800572508225811 -0.6144331320080291 2.143821528150776e-06 9.999981786824909e-06 0 0 0 0
361000000 0.7909044700429225 -0.6262337866998825 -1.6610827099306614e-05 2.1407121950586294e-05 0 0 0 0
370000000 0.781698752292879 -0.6376219212268396 6.132386300908857e-05 -8.15409249942065e-06 0 0 0 0
379000000 0.7708320347420156 -0.6488966709094325 2.8265176445813162e-05 6.749689304100136e-05 0 0 0 0
388000000 0.7590539237939972 -0.6612984859447949 -1.3609620715860186e-05 -3.307067644739358e-05 0 0 0 0
397000000 0.7482119308759583 -0.6754164085965269 8.521185806755416e-06 -6.46063343433499e-05 0 0 0 0
406000000 0.7389560403103093 -0.685050750850052 -3.6761480322520846e-06 5.1437358293656025e-05 0 0 0 0
415000000 0.725580954120085 -0.6984126396249127 -4.6382803632730234e-06 -3.011158922929728e-05 0 0 0 0
424000000 0.7143424986450657 -0.7114144416293401 2.2995976850324377e-05 -9.637842834983906e-06 0 0 0 0
433000000 0.7044661439858175 -0.7204897191762585 -2.572590774138923e-05 -3.8987752449859925e-05 0 0 0 0
442000000 0.6921765585930629 -0.7327182817001289 -2.4620409440072434e-05 -4.037775891350716e-05 0 0 0 0
451000000 0.6803319756870899 -0.7442058445098965 1.3278853893327564e-05 3.818733146746486e-05 0 0 0 0
460000000 0.6698742619836797 -0.7546687690820748 8.005509659037095e-05 3.580650223309321e-05 0 0 0 0
469000000 0.6569782408188392 -0.7657549063569087 5.828266439193566e-05 6.643624569962743e-05 0 0 0 0
478000000 0.6431188773215379 -0.7785845878054304 -2.0989502157629194e-05 1.052208791442882e-05 0 0 0 0
487000000 0.6333892599574963 -0.7881748907611787 -0.00010652838905851634 -3.525461887652116e-05 0 0 0 0
496000000 0.6224309784619283 -0.7969488767856373 3.3817566314569153e-06 -2.2688017149130345e-05 0 0 0 0
505000000 0.6081781738753531 -0.8069368781845018 6.6904072210527864e-06 1.870131331021332e-05 0 0 0 0
514000000 0.595451105826965 -0.8164264881467365 5.6431184460727884e-05 -1.5915155403017734e-05 0 0 0 0
523000000 0.5798706375449965 -0.8285891959665971 7.318948190721434e-05 1.146988709249738e-05 0 0 0 0
532000000 0.5655291071969345 -0.8398794154676793 -2.742509482382508e-05 1.935552089757747e-05 0 0 0 0
541000000 0.5507777451577823 -0.8486153546954557 2.1692827440459386e-05 -3.673525906645527e-05 0 0 0 0
550000000 0.5365008550308009 -0.8596038025482379 1.8505803802497744e-05 -1.2948024483048261e-05 0 0 0 0
559000000 0.5183948426873841 -0.8714941317078739 -2.5272270228533545e-05 -6.074159975943549e-05 0 0 0 0
568000000 0.5052992327882152 -0.8801772445628845 -3.920806583863987e-05 -2.382742394832313e-05 0 0 0 0
577000000 0.491853521879585 -0.8887124903260655 -2.8456296619361292e-05 8.252272306194859e-06 0 0 0 0
586000000 0.4722410148949911 -0.8989776991704392 -9.787809574469023e-06 4.1271539613195305e-05 0 0 0 0
595000000 0.46157168438825225 -0.9047501850907297 -1.0372338649454997e-06 1.2354993013655586e-05 0 0 0 0
604000000 0.4414278745064731 -0.9152260183797778 7.529288645260294e-06 -7.278530100074976e-05 0 0 0 0
613000000 0.4283492034501745 -0.9211434063668656 2.3217266828160642e-05 -4.76693688290538e-06 0 0 0 0
622000000 0.41493257364228275 -0.9304315881785732 5.944359102756415e-05 8.612878374122406e-05 0 0 0 0
631000000 0.3955331974449011 -0.9375686998827353 -2.3048125588054645e-05 9.836059810697958e-06 0 0 0 0
640000000 0.37176746358184104 -0.9463523293659541 1.751695826172363e-05 2.696241662761463e-06 0 0 0 0
649000000 0.3510324307860266 -0.9553627426403275 4.781629349020333e-05 7.219120273309575e-05 0 0 0 0
658000000 0.33821112764541095 -0.9589262346304809 5.74901197983791e-05 9.818281610774366e-05 0 0 0 0
667000000 0.31722150745446726 -0.9662787072754745 4.943228218688751e-05 -2.0339171686365035e-05 0 0 0 0
676000000 0.30603974990495664 -0.9687335353460315 4.715777187726017e-05 -3.8837108204992554e-05 0 0 0 0
685000000 0.285793986522525 -0.9752039824409808 -6.832289223402976e-05 9.286769060535536e-05 0 0 0 0
694000000 0.25891707628724353 -0.9820743271648601 1.45793609099688e-05 -3.464681889602907e-05 0 0 0 0
703000000 0.2360852602271793 -0.9836360370971425 0.0001009706908528804 0.00010595025865367614 0 0 0 0
712000000 0.22641223409960734 -0.9872894445512175 5.9805555497497516e-05 -5.850575271238883e-06 0 0 0 0
721000000 0.20627070734917868 -0.9884044020784286 7.887023569562623e-05 3.537380414208996e-05 0 0 0 0
730000000 0.17812993531160823 -0.9940574430020714 8.2578256532859e-05 -2.653554899874083e-05 0 0 0 0
739000000 0.15558000147308948 -0.9957234432283579 -3.67251752262963e-05 -3.715702952972654e-05 0 0 0 0
748000000 0.1419140244436833 -0.99557227461908 2.5650968671654055e-05 7.42087397823046e-05 0 0 0 0
757000000 0.11858169114093893 -0.9940744422294185 2.5863991107585047e-05 8.926364698032437e-05 0 0 0 0
766000000 0.09141063039240299 -0.9970422516595294 3.138164177919215e-05 3.365838088230415e-05 0 0 0 0
775000000 0.07913092464155255 -0.9956207510311288 4.776942215232596e-05 -1.1529822546368187e-05 0 0 0 0
784000000 0.05506023358190941 -0.9904155855186662 7.195607439389212e-05 8.664853315796426e-07 0 0 0 0
793000000 0.03704447595959846 -0.9887028659071838 2.846869306262612e-06 3.523812093086241e-05 0 0 0 0
802000000 0.01914262244880456 -0.983799045774639 0.00010717666900697824 8.403896063750166e-05 0 0 0 0
811000000 -0.0018365060522887988 -0.9823992897024738 8.618505758970022e-05 3.2381107353295035e-06 0 0 0 0
820000000 -0.02431929108986269 -0.9771866585328064 2.3440727807046935e-05 6.701028266563071e-05 0 0 0 0
829000000 -0.035484025918218066 -0.9720990619345486 2.749206027980766e-05 -2.501259098093983e-05 0 0 0 0
838000000 -0.06790036554807617 -0.9664354098928638 -4.4346562100808484e-05 -5.833122074728462e-07 0 0 0 0
847000000 -0.07704829399317742 -0.9616442599036632 8.202054611235871e-05 -4.661229844860801e-05 0 0 0 0
856000000 -0.09274316677743638 -0.9536674708366505 0.00011625488345364431 -8.704104403960915e-05 0 0 0 0
865000000 -0.10611354627328133 -0.9483048170978335 -6.426029578926125e-05 -2.0225539235338497e-05 0 0 0 0
874000000 -0.12209394193840023 -0.941752364400662 5.189234447325999e-05 -1.1224238076088604e-07 0 0 0 0
883000000 -0.1455350011916771 -0.935157621136734 6.5355632897949335e-06 3.829698959495288e-05 0 0 0 0
892000000 -0.16381104304109698 -0.9266236601835502 7.777411457093316e-05 0.00011430937796713706 0 0 0 0
901000000 -0.17414979160610614 -0.9183433880455114 -9.749860519645906e-06 -2.035584988492683e-07 0 0 0 0
910000000 -0.18548560828894375 -0.9110792288049504 -3.869415047774352e-05 -6.567717570478987e-06 0 0 0 0
919000000 -0.19975428258293987 -0.9068566434684578 -2.173922749749214e-06 3.722688659084354e-05 0 0 0 0
928000000 -0.21756795290183517 -0.8933306378269478 -4.414947789873798e-05 -1.553095315791395e-05 0 0 0 0
937000000 -0.224938177920606 -0.8885665334215342 -1.9317135431742574e-05 4.948102978042284e-05 0 0 0 0
946000000 -0.2444269847407373 -0.8771063266928142 -4.5710810382450063e-05 -5.1730332417614507e-05 0 0 0 0
955000000 -0.25370040075611244 -0.8693219086260078 5.741125661630502e-05 5.961725353301935e-05 0 0 0 0
964000000 -0.2696737481329848 -0.8604359619463383 -4.5472447709152474e-05 -2.865612468700118e-05 0 0 0 0
973000000 -0.2889494377697804 -0.8485602553464104 -8.420864724321542e-05 4.79568281538998e-05 0 0 0 0
982000000 -0.30152429596907426 -0.8413043590684415 -9.403942294367395e-06 -1.7415384175217675e-05 0 0 0 0
991000000 -0.3072642562338928 -0.8363729449498635 1.4639727682691593e-05 -1.3107603191839728e-05 0 0 0 0
1000000000 -0.319688144390986 -0.8261593967335914 -6.485918105609205e-05 3.6597926244428144e-05 0 0 0 0
