# HZ S RI R 50
100000000 1.0071699472158129 -0.2189225613667496 -1.0751145246457442e-05 -4.190299369098642e-06 0 0 0 0
109000000 1.0075481049292936 -0.23494924581662854 -3.774893400453474e-05 5.970140784536209e-05 0 0 0 0
118000000 1.0022466152512466 -0.25029527473070834 -6.813851393407096e-06 -7.545570855460388e-05 0 0 0 0
127000000 0.996913044105589 -0.26547620657862747 -7.445629295357672e-06 -2.1363488780127004e-05 0 0 0 0
136000000 0.991258866945286 -0.280236667671125 3.3654716433241515e-05 2.115764497898313e-05 0 0 0 0
145000000 0.9825402981973483 -0.29570458523503235 1.7814491781997187e-05 1.1240404957896774e-06 0 0 0 0
154000000 0.9765053712821181 -0.3103870692110854 3.7904787757927794e-06 -2.998179168916763e-05 0 0 0 0
163000000 0.9704092410244117 -0.3267104416655259 -1.887600430657415e-05 2.1765902465127262e-05 0 0 0 0
172000000 0.9641646102848891 -0.34034214275502483 -1.0922680095333879e-06 5.124188649720496e-06 0 0 0 0
181000000 0.9578607595043823 -0.3553219652950041 4.729215334519255e-05 6.544638361188375e-05 0 0 0 0
190000000 0.9507025611539669 -0.3693183498955853 1.934315331503556e-05 -9.717694948285235e-06 0 0 0 0
199000000 0.9442541340113239 -0.3842127045593653 2.46865718090337e-05 -4.524432349628225e-05 0 0 0 0
208000000 0.9372876659537173 -0.3975475817630999 1.008765757884375e-05 3.6231281491944126e-05 0 0 0 0
217000000 0.930032555574035 -0.41293119476183265 8.319096894774747e-05 -2.3023777103739197e-05 0 0 0 0
226000000 0.9221321524963206 -0.42681973191861916 1.9226362241870403e-05 -5.006562874862662e-05 0 0 0 0
235000000 0.9149792640286174 -0.44096985483773377 2.139121584398369e-05 4.698728048085821e-05 0 0 0 0
244000000 0.9075511902243498 -0.45292795990920665 8.350654282357996e-06 8.787550886616703e-06 0 0 0 0
253000000 0.8981304219308416 -0.46952411924003434 -4.19371764867023e-05 -2.6101613192782625e-05 0 0 0 0
262000000 0.8909956787091844 -0.48072581148664345 -3.884531685196627e-05 -3.555056283294435e-06 0 0 0 0
271000000 0.8824907779198695 -0.4964242833175493 -1.2282928474988713e-05 -6.440610202961058e-05 0 0 0 0
280000000 0.8736640356152635 -0.5081886021399754 -3.604268783892219e-05 5.486034953243841e-05 0 0 0 0
289000000 0.8664992886048674 -0.521913554892741 5.331878127485239e-06 4.349914845931461e-05 0 0 0 0
298000000 0.8568161722877838 -0.5347385779866682 -3.7412355207954874e-05 3.0862413129137827e-06 0 0 0 0
307000000 0.8470889322728722 -0.5509327101860214 3.8064091372956016e-05 -2.900927527434969e-05 0 0 0 0
316000000 0.8401491015277703 -0.5598344510895921 -2.211826684726382e-06 1.022297623562162e-05 0 0 0 0
325000000 0.830646940456138 -0.5748753050555497 1.2480591431269314e-07 -2.7739127815537583e-06 0 0 0 0
334000000 0.8213755793716397 -0.5841591674431309 -1.7058818265836465e-05 -3.7370082118068574e-05 0 0 0 0
343000000 0.8113322782423403 -0.6005755904834726 -1.406695619645545e-05 2.744511624896342e-06 0 0 0 0
352000000 0.7982040884370164 -0.6161087835035272 -6.658478088472491e-05 8.982549527708375e-06 0 0 0 0
361000000 0.7924166984665004 -0.6240466044852069 1.8889905352048408e-05 1.631984596249642e-05 0 0 0 0
370000000 0.7808024542146998 -0.6370096131508448 -2.1761245597125276e-05 4.065686002415155e-05 0 0 0 0
379000000 0.769461211021389 -0.6494379789361509 2.382959763920395e-05 -7.698263067824291e-05 0 0 0 0
388000000 0.756658328263059 -0.6635407961165335 -2.274032649922627e-05 -1.8365304361882365e-05 0 0 0 0
397000000 0.7496994283901649 -0.674406666800876 -1.0578779649178448e-05 -7.94927809513057e-05 0 0 0 0
406000000 0.736612975175336 -0.6867342985123881 -4.9675899084384655e-05 -3.73661371182451e-05 0 0 0 0
415000000 0.7265325569556774 -0.6984033438698598 -1.3839652002955213e-05 -3.1497297334317466e-05 0 0 0 0
424000000 0.7178764791460026 -0.7076653312074348 1.4267833848818978e-06 -2.0347890221040937e-05 0 0 0 0
433000000 0.7028195149827204 -0.721976536523715 5.295761956961272e-05 3.663743372186566e-05 0 0 0 0
442000000 0.6925161777144682 -0.7333451732811544 -2.4647776392223854e-05 -4.1749861104609936e-05 0 0 0 0
451000000 0.6815596766942098 -0.7436623490469679 2.7817278357235687e-05 1.6900987935871803e-05 0 0 0 0
460000000 0.671836739013833 -0.7520382129630506 -1.6138622775581315e-05 1.939053323137048e-05 0 0 0 0
469000000 0.6553397547960662 -0.766427635052805 -2.1183191533725194e-05 2.3286431783266636e-05 0 0 0 0
478000000 0.6451106292522235 -0.7771518534646498 -2.2624638590989017e-07 1.6862009031104686e-05 0 0 0 0
487000000 0.6333567754434971 -0.7858437181371177 -3.5712486086315546e-05 1.3988952541930782e-05 0 0 0 0
496000000 0.618423306395537 -0.7988040796679298 4.46685434520067e-05 3.396186378614322e-05 0 0 0 0
505000000 0.6051581386861595 -0.8091278912219998 7.828285941365672e-06 3.8962619235453235e-05 0 0 0 0
514000000 0.5947911640571102 -0.8176451956311404 2.2489028719647213e-05 2.160899773825664e-05 0 0 0 0
523000000 0.5772219251028499 -0.8303088879228789 7.892157950206551e-05 9.109311079047921e-06 0 0 0 0
532000000 0.5645680574296705 -0.8400962457212456 -7.806854696558696e-05 -1.9466186677793716e-05 0 0 0 0
541000000 0.5489183584948287 -0.8512680267611858 -4.505720615485507e-05 2.3207433802685996e-05 0 0 0 0
550000000 0.5367677738882921 -0.860117158072803 1.511980445118139e-05 -2.8708844048286e-05 0 0 0 0
559000000 0.5186013931731944 -0.8713651534417869 1.820508902114012e-05 9.437163687843595e-06 0 0 0 0
568000000 0.5053430508978138 -0.8803866677365986 -2.8278564578402342e-05 -2.64524710968606e-05 0 0 0 0
577000000 0.49448867248195844 -0.8866698305233005 5.4054872598432904e-05 6.0095984488417505e-05 0 0 0 0
586000000 0.4754961799673408 -0.8981010533380874 3.411340549729447e-05 4.004219083175114e-05 0 0 0 0
595000000 0.4578108458054523 -0.9060010711799762 -3.083092194621068e-05 -4.4776922429389395e-05 0 0 0 0
604000000 0.44548264780273006 -0.9158518541234545 -4.055783281899167e-05 -5.2773300331626984e-05 0 0 0 0
613000000 0.4276858400201542 -0.9231732844267797 1.198903722750404e-05 -7.935253329296811e-06 0 0 0 0
622000000 0.4119644586217172 -0.9307208465864336 3.5254458138273674e-05 6.527382195510436e-06 0 0 0 0
631000000 0.3930342771582294 -0.93845473475232 2.0852965093428218e-05 -2.9566661858335866e-05 0 0 0 0
640000000 0.3786022280176679 -0.9450622599815668 -3.4739921933615795e-05 -4.143155772067535e-05 0 0 0 0
649000000 0.3545736414219946 -0.95334510700285 -3.514254210764777e-05 3.640253043593564e-05 0 0 0 0
658000000 0.33840818536475276 -0.9588655469869857 2.4054140933431517e-05 -1.788102379206261e-05 0 0 0 0
667000000 0.31819746352178807 -0.9677452784625175 -9.6766045804077e-06 1.554049374428444e-05 0 0 0 0
676000000 0.29816959892120837 -0.9718403588514455 -1.3559198082258178e-05 1.921188494451543e-05 0 0 0 0
685000000 0.28401516366617063 -0.9757775133992236 1.3323453539061295e-05 1.1568638748251864e-05 0 0 0 0
694000000 0.2574840912908055 -0.9835024450258333 -7.862041820413222e-07 2.040568321348515e-05 0 0 0 0
703000000 0.24459601821474955 -0.9841024335627676 5.2261763197269e-05 6.900272100472022e-05 0 0 0 0
712000000 0.22759972167745526 -0.9867239064711779 -7.360704660679352e-07 8.20715613324083e-05 0 0 0 0
721000000 0.19895725270541922 -0.9933342602943971 6.297279142314298e-06 -2.013114630852727e-05 0 0 0 0
730000000 0.18019776646559388 -0.99410028227178 2.340565498643051e-05 0.00011755500599059213 0 0 0 0
739000000 0.16119342327324163 -0.9936636388125781 5.469511114175364e-05 -9.27660642957811e-06 0 0 0 0
748000000 0.13800244201504822 -0.9970058680782333 3.245949662372407e-05 7.526274716152048e-05 0 0 0 0
757000000 0.12288310089882162 -0.9944601923096791 -8.638875152814546e-05 6.34489187485468e-05 0 0 0 0
766000000 0.10090974831379776 -0.9946443073262501 6.431131862480051e-05 7.736693862859493e-06 0 0 0 0
775000000 0.07881856836445873 -0.9942841726949211 6.632780120483668e-05 1.0929576326947256e-05 0 0 0 0
784000000 0.05716010612808401 -0.9926390412834672 1.726472132681551e-05 2.867965822431929e-05 0 0 0 0
793000000 0.037600197779020884 -0.9887712363007073 0.00010804004930622294 -1.969421555253591e-05 0 0 0 0
802000000 0.01905291767053354 -0.9853623450877969 6.083319574384461e-05 3.129676500803993e-05 0 0 0 0
811000000 0.0001186773169353932 -0.9814924182602353 5.429565567681907e-05 -0.00011514486370187804 0 0 0 0
820000000 -0.01764828217090764 -0.9773990531129064 2.806217878083336e-05 4.045564893889281e-05 0 0 0 0
829000000 -0.04612433190638259 -0.9711071264278732 2.510377995497553e-05 2.4370382902756274e-06 0 0 0 0
838000000 -0.053924245884462145 -0.9677349264650597 -6.103100552374909e-05 3.7694051459827414e-06 0 0 0 0
847000000 -0.0741677489027246 -0.9610817051317389 1.3336629251335736e-05 -7.821730711652905e-05 0 0 0 0
856000000 -0.09352794531163568 -0.9566299235052117 1.9918441727148428e-05 7.868287751406257e-05 0 0 0 0
865000000 -0.11049872003607694 -0.9499452829283497 7.390636057281035e-05 3.450292901193425e-05 0 0 0 0
874000000 -0.12312394772983128 -0.9422278158778181 -9.180428494059432e-05 7.784701917230377e-06 0 0 0 0
883000000 -0.15062946092223944 -0.9318171403030863 -6.616695118881404e-06 -3.351259343030723e-05 0 0 0 0
892000000 -0.15746985829166185 -0.9266642992310044 2.351732271372072e-05 9.326658886556407e-05 0 0 0 0
901000000 -0.1731550320474624 -0.9202396894531485 5.7973292193779855e-05 -5.312786954386092e-06 0 0 0 0
910000000 -0.1935471243845447 -0.9100584225422887 5.330704148866914e-05 3.573318831050181e-05 0 0 0 0
919000000 -0.20162874352444848 -0.903781710178142 3.91085415140264e-05 3.6331785835068778e-06 0 0 0 0
928000000 -0.21577233757390407 -0.8941739137238812 4.279119640018164e-05 4.8312937383111976e-05 0 0 0 0
937000000 -0.22985648058780023 -0.8867638856906974 1.1082103696021283e-05 2.9623912157124246e-07 0 0 0 0
946000000 -0.23579189697459543 -0.8793856090506985 -5.276723731131254e-06 -1.1853642721108633e-05 0 0 0 0
955000000 -0.25490236837645647 -0.8694695138837218 6.038500392145368e-05 -1.4810409827747043e-05 0 0 0 0
964000000 -0.27190077696488346 -0.8593484779551241 6.483584860700861e-05 -1.4961249007153397e-05 0 0 0 0
973000000 -0.27847405263070624 -0.8540963715436606 0.00011762562294793582 -4.633804777190973e-06 0 0 0 0
982000000 -0.29407537593827676 -0.8440864023784838 1.576399158402029e-05 8.331115260806647e-05 0 0 0 0
991000000 -0.304352349442884 -0.8348286950178855 7.18818933414445e-05 7.46650877042237e-07 0 0 0 0
1000000000 -0.317549061998458 -0.8271945430905693 -4.3576138784618195e-05 5.6916105402967396e-05 0 0 0 0
