# HZ S RI R 50
100000000 1.0122934559036154 -0.2189226835034276 -2.5444964698877838e-05 -5.162411721357226e-05 0 0 0 0
109000000 1.0076979520946456 -0.2342769244663242 -6.43161916256975e-06 -5.025862137013257e-05 0 0 0 0
118000000 1.0025163966940558 -0.24968561163844138 9.597587413664471e-06 2.557985489142136e-05 0 0 0 0
127000000 0.99618849846621 -0.2658483198427382 3.457106384921724e-05 -3.3299005033952124e-05 0 0 0 0
136000000 0.9912967625201342 -0.280173780116821 -3.326975960825601e-05 1.1909152366712848e-05 0 0 0 0
145000000 0.9829535951570519 -0.2953996752967801 6.595938417887801e-06 1.9270323812328158e-05 0 0 0 0
154000000 0.976731054815969 -0.3119395700888782 2.391374888097924e-06 1.7448497664579434e-05 0 0 0 0
163000000 0.9705667980834148 -0.3267009511747631 2.961550861105698e-05 2.906160009763067e-05 0 0 0 0
172000000 0.9639084978427325 -0.3413295701673948 2.252938591341991e-06 2.6687008211634193e-05 0 0 0 0
181000000 0.9587095782455292 -0.35488285562520544 6.777938121100494e-06 -1.53366109067525e-05 0 0 0 0
190000000 0.9509456933738598 -0.36906365532560265 -2.8163827876124758e-05 -5.2267605117550495e-05 0 0 0 0
199000000 0.9438472303902614 -0.3844260579764808 1.139154434572146e-05 4.654588036280699e-06 0 0 0 0
208000000 0.9366441174330854 -0.3985591694710581 4.068399485605159e-05 -2.6842302182031982e-05 0 0 0 0
217000000 0.9294823980090607 -0.4123707750153462 4.423698434898112e-05 -6.572271288123249e-06 0 0 0 0
226000000 0.9228242804196263 -0.4258750224342248 3.5948548317554397e-06 3.6104952773939096e-05 0 0 0 0
235000000 0.9148673554230714 -0.4403036465925267 -3.175638554787221e-05 -1.420349125672355e-05 0 0 0 0
244000000 0.9064640949615392 -0.4546784921545022 -6.430877808794036e-05 -1.8072360224063603e-05 0 0 0 0
253000000 0.8987096170469814 -0.46855778402421216 -9.191390749458034e-06 -4.105058533846281e-05 0 0 0 0
262000000 0.8908379061823897 -0.4817040839207282 1.800426511733942e-05 8.059192633516472e-06 0 0 0 0
271000000 0.8827714143312099 -0.49665488484524206 2.0579735476056143e-05 1.4747122561350745e-05 0 0 0 0
280000000 0.8742769904823765 -0.5094229225978287 -6.779949752611379e-05 -2.371603606050749e-06 0 0 0 0
289000000 0.8639890317476534 -0.5228954457819238 3.8187031845710975e-07 -9.600124711124153e-06 0 0 0 0
298000000 0.8569368758142889 -0.5354977235056255 2.1038160769544752e-05 3.607144161075724e-05 0 0 0 0
307000000 0.8471891884157838 -0.5490583594737745 -1.8244703315217633e-05 -8.949426949618387e-05 0 0 0 0
316000000 0.8392296823138553 -0.5626693081220556 -4.919456344926027e-05 -3.23692734598412e-05 0 0 0 0
325000000 0.8287709456339091 -0.5756284264876226 2.1915595603135214e-06 -1.2236013332718258e-05 0 0 0 0
334000000 0.8200861359576925 -0.588331814996468 3.305612186445439e-05 9.157876434202865e-06 0 0 0 0
343000000 0.8079928852383693 -0.6030786080319399 9.121601118223843e-07 8.612388559159352e-05 0 0 0 0
352000000 0.7992969038636805 -0.6140377902923088 9.371731927229746e-06 -3.597961152031344e-05 0 0 0 0
361000000 0.791422670234974 -0.6256057469881872 -1.8020957140912898e-06 8.686837793247077e-05 0 0 0 0
370000000 0.7813357793017078 -0.6365204214143899 -1.1483309004028992e-06 -8.741701256267134e-06 0 0 0 0
379000000 0.769611316283731 -0.6492234831505034 -4.076232353989509e-06 2.287254766508313e-05 0 0 0 0
388000000 0.7569372461363959 -0.6644419539719003 1.2337018259630226e-05 1.3308400773895989e-05 0 0 0 0
397000000 0.7478814789652731 -0.6739399708285743 4.2171992432109196e-05 3.868470740924074e-05 0 0 0 0
406000000 0.7382478634376765 -0.6856630751842685 3.1237539534332385e-05 6.896626022552949e-06 0 0 0 0
415000000 0.7249693190786849 -0.6977937229187071 -1.9963240559166406e-05 -5.8928825594767046e-05 0 0 0 0
424000000 0.7195907906173458 -0.7048071797868619 -2.252250210511377e-05 6.991862896159365e-06 0 0 0 0
433000000 0.7075262117970947 -0.7178475675763063 1.3022808462695825e-05 4.686833289769062e-05 0 0 0 0
442000000 0.6938745743814481 -0.7319521662998153 -6.321679883638993e-05 -1.9618525443538778e-05 0 0 0 0
451000000 0.6804293025086141 -0.7439161061776574 3.916173290076426e-06 3.347035906501985e-05 0 0 0 0
460000000 0.6711068656149725 -0.7551895629813248 1.7423845115879583e-05 6.929243045568991e-06 0 0 0 0
469000000 0.6579563138642884 -0.764927526046239 -2.201287171313004e-05 9.803117984487515e-06 0 0 0 0
478000000 0.6439039319673368 -0.776946423737051 -3.9967007024863315e-05 6.734942709725499e-05 0 0 0 0
487000000 0.6326181031833074 -0.7870813606078846 -1.791705168820987e-05 -1.3835184110884442e-05 0 0 0 0
496000000 0.6212063996977094 -0.7967448491441137 -4.302341691620473e-05 1.4345356991847627e-05 0 0 0 0
505000000 0.6081847196408809 -0.8073932298338485 -3.3654247874007615e-05 7.5523865217842174e-06 0 0 0 0
514000000 0.5909389861184202 -0.8210477567428148 4.442676686201113e-05 8.115828824718263e-06 0 0 0 0
523000000 0.5767316647088031 -0.8305413722736816 -9.787092429174826e-06 1.2378556178587765e-06 0 0 0 0
532000000 0.5666396798688191 -0.8384524690453502 -4.431835111277504e-05 -6.788185016403731e-05 0 0 0 0
541000000 0.5487668591797709 -0.8515373350122842 -6.769502069492962e-05 -4.29185287088548e-05 0 0 0 0
550000000 0.5358323426041033 -0.8604071915145134 -9.614814467263488e-05 -1.4076567786917187e-05 0 0 0 0
559000000 0.5207285460100942 -0.8695895752122411 4.756678568789246e-05 2.5413985741857784e-05 0 0 0 0
568000000 0.503106596231631 -0.8807171579535322 -2.1920896867228165e-05 5.588409304826802e-05 0 0 0 0
577000000 0.49121477999225194 -0.8879606110448988 4.468079572756482e-05 -5.292960553689597e-05 0 0 0 0
586000000 0.4764873769746323 -0.8968326245874569 3.25691218780597e-05 -0.00013053167195329414 0 0 0 0
595000000 0.457134395139192 -0.9067891909005431 -7.359196273525802e-05 1.616259528187534e-06 0 0 0 0
604000000 0.4364595939650352 -0.917110559681017 3.736249827160083e-05 -4.653595546370542e-05 0 0 0 0
613000000 0.42442257203488176 -0.9241900321215868 -6.360737378524556e-05 -0.00013538964235040879 0 0 0 0
622000000 0.40848350232160147 -0.9324574011449005 3.600702670764403e-05 -2.1788053358187106e-05 0 0 0 0
631000000 0.3909595078564271 -0.94026056231623 -5.27994107942697e-06 1.8013455729254398e-05 0 0 0 0
640000000 0.36804865407856224 -0.9496061147544955 4.8333397062083604e-05 3.216091446487054e-05 0 0 0 0
649000000 0.3594541315248109 -0.9533319202806861 -1.2473138307438977e-05 2.2670857006505378e-05 0 0 0 0
658000000 0.3404073115345292 -0.9602750375223739 5.063911593582167e-05 -2.7006827310863942e-05 0 0 0 0
667000000 0.3188380229242183 -0.9651041589330821 -1.5108459936768152e-06 2.615222207091812e-05 0 0 0 0
676000000 0.3029835186392569 -0.9702981865889946 1.3602712237486587e-05 2.591402414213947e-05 0 0 0 0
685000000 0.2838869470746278 -0.9757663213850236 2.0709528803130507e-05 1.1925404331149247e-05 0 0 0 0
694000000 0.25761773781404945 -0.9827120260564719 4.074710818386642e-05 1.7649385584936397e-06 0 0 0 0
703000000 0.24008928514522304 -0.9846024708316213 -3.177417140558348e-05 -6.684637927189688e-05 0 0 0 0
712000000 0.2203954479360215 -0.9891546360952695 8.429592730694529e-05 4.436929221331999e-05 0 0 0 0
721000000 0.20962491748107237 -0.9910254761827475 -4.340230206958671e-05 4.336601895254924e-05 0 0 0 0
730000000 0.1806518603051229 -0.9943414683958421 2.0175684432857997e-05 -1.1084495594997228e-05 0 0 0 0
739000000 0.16037331920145625 -0.9953211662096481 -4.824592075296118e-06 3.887147624619251e-05 0 0 0 0
748000000 0.13705429232055294 -0.994495374319435 5.558298518632993e-05 8.936984930204489e-05 0 0 0 0
757000000 0.11475692720094295 -0.9942684728867124 8.028185540317722e-05 6.927002115861812e-05 0 0 0 0
766000000 0.09406915184649954 -0.9952272021583652 4.5060246645945515e-05 3.2639656344336184e-05 0 0 0 0
775000000 0.07454490423573432 -0.9928668282645609 8.454679409037523e-05 -2.2560781649961547e-05 0 0 0 0
784000000 0.05362051603673281 -0.9912477040750747 -1.261448544976162e-05 8.391641330422291e-06 0 0 0 0
793000000 0.03619050423065915 -0.9883916060738649 9.860485330649714e-05 -8.894211871010796e-05 0 0 0 0
802000000 0.014197058618341266 -0.9846345722956925 7.721963481741966e-06 -2.0554290249654925e-05 0 0 0 0
811000000 -0.001388452901686983 -0.9802899371606216 0.00011421504200041654 2.930860556284506e-06 0 0 0 0
820000000 -0.01953304706838462 -0.9761453908476643 5.132016525458002e-05 -2.3625584352964117e-05 0 0 0 0
829000000 -0.047157376660573035 -0.9709569002373402 2.8339916066294504e-05 -7.19875172016703e-05 0 0 0 0
838000000 -0.05230450917481907 -0.9669598831239492 7.583744642217818e-05 6.023198548713478e-05 0 0 0 0
847000000 -0.07594273086613812 -0.960536401364002 5.024509932841189e-06 -8.93674655078363e-06 0 0 0 0
856000000 -0.09243726514733824 -0.9553054937258872 2.1369341532537896e-05 -1.980610088022557e-05 0 0 0 0
865000000 -0.11309534621095917 -0.9457886474501865 -2.033578891264302e-06 -3.124658904444894e-06 0 0 0 0
874000000 -0.12588336098535283 -0.9416304713969057 3.787819182939085e-05 -4.256437227580387e-05 0 0 0 0
883000000 -0.14908863105106485 -0.9331464688934462 2.4983658367299162e-05 -6.015794979828111e-05 0 0 0 0
892000000 -0.15528945374197686 -0.9259162461560553 3.3046630790370426e-05 -1.78154630891328e-05 0 0 0 0
901000000 -0.17321182038476585 -0.9186189442978215 -4.6504019053677073e-05 -1.1061086023348434e-05 0 0 0 0
910000000 -0.19093606566072205 -0.9106333542942179 -7.678417463689832e-06 1.475718683701839e-05 0 0 0 0
919000000 -0.2048336953551695 -0.9027258211094219 -7.614075795824346e-05 -2.6898443057888462e-05 0 0 0 0
928000000 -0.21494924545232305 -0.8945346392725905 -5.151873017492796e-05 5.462303294467464e-05 0 0 0 0
937000000 -0.233979491298666 -0.8851416628635561 1.310148545666773e-05 -4.509360221984305e-05 0 0 0 0
946000000 -0.24273033448436934 -0.8785117312624341 1.8326383281362822e-05 4.628795324736763e-05 0 0 0 0
955000000 -0.25757798317560143 -0.8702805282301876 2.2374197979273322e-05 -1.2784456384213961e-05 0 0 0 0
964000000 -0.26968616740351653 -0.8618301637382743 3.269713717886609e-05 1.4114053892988002e-05 0 0 0 0
973000000 -0.28489740805635744 -0.8525843877799012 2.650481766609828e-05 -2.7094121759756566e-05 0 0 0 0
982000000 -0.2962219607192964 -0.8440451311140396 6.109654464115212e-05 -3.2068890338817136e-05 0 0 0 0
991000000 -0.3048194689988829 -0.8358802303346906 -6.376209270051602e-06 6.587709641802925e-05 0 0 0 0
1000000000 -0.3222920163893077 -0.8258868341056385 0.00012532238971331067 -4.7233922146392706e-05 0 0 0 0
