# HZ S RI R 50
100000000 1.0069756857186514 -0.21935675485535006 2.0321155159174924e-05 3.784005940261429e-05 0 0 0 0
109000000 1.0076046018069023 -0.23460268964633327 -8.760181434978084e-06 2.849097330603196e-05 0 0 0 0
118000000 1.0026567829676902 -0.24980066324886532 6.739256950421698e-07 -1.3662247226399455e-06 0 0 0 0
127000000 0.9965303570411067 -0.2651809752143107 -2.5287720993774026e-05 -0.00013618368446824882 0 0 0 0
136000000 0.9914472833969924 -0.2801680472305306 2.1816152521840636e-05 -4.730343327479721e-06 0 0 0 0
145000000 0.9826173130567921 -0.2954431583250879 1.9906632485931344e-05 2.509628222178353e-05 0 0 0 0
154000000 0.9768270961432355 -0.3111736000679158 1.5008860429549952e-05 -5.296997485937373e-05 0 0 0 0
163000000 0.9703743539336378 -0.32615563854010393 2.222097701548709e-05 -8.798111981205784e-07 0 0 0 0
172000000 0.9646351255708472 -0.34021228778934015 9.798333506956903e-05 -1.2593938624890914e-05 0 0 0 0
181000000 0.9577197772789667 -0.35526590598319424 -4.0869969136762916e-06 1.4190774045063144e-05 0 0 0 0
190000000 0.9501285370857834 -0.3707315335853488 -6.916992796508343e-07 1.5028125017311537e-05 0 0 0 0
199000000 0.9436434067327683 -0.3844947755056433 1.9457456204740455e-06 2.0169263172347704e-05 0 0 0 0
208000000 0.9361212897881712 -0.39987666653722187 2.7620545751127646e-05 -4.751110130269198e-05 0 0 0 0
217000000 0.929822919229144 -0.412533764210146 -1.270682083249625e-05 1.3711331210426994e-05 0 0 0 0
226000000 0.9217757986267969 -0.4272583807552957 5.3028413043065314e-05 1.2302308374435029e-05 0 0 0 0
235000000 0.9149838754914259 -0.43878346222133063 -5.2430165507329383e-05 6.221558037594217e-05 0 0 0 0
244000000 0.9067121367679385 -0.454089475549648 -2.526541182966453e-05 -2.8503332392151514e-05 0 0 0 0
253000000 0.8987112072960289 -0.46890157593192483 -3.403443096043209e-05 5.762535476734027e-05 0 0 0 0
262000000 0.8908756209047912 -0.4818942871889138 1.94386730893417e-05 6.307121182919146e-06 0 0 0 0
271000000 0.8823159454523389 -0.49718684605802427 -2.0108540383742468e-05 -6.093998327087135e-05 0 0 0 0
280000000 0.8733223434142273 -0.509334842417688 -2.5399636293854427e-05 1.1920302933283043e-05 0 0 0 0
289000000 0.8657539892159529 -0.5219565012274123 -3.7051791919929225e-05 1.664175204334411e-05 0 0 0 0
298000000 0.8564320815145318 -0.535966174778772 1.7174719769403376e-05 -2.3451830070855895e-05 0 0 0 0
307000000 0.8478858467229898 -0.5477293103324877 -1.4749859571532193e-05 -7.477087380959954e-06 0 0 0 0
316000000 0.8390090283537431 -0.5616234236692037 2.1934974003981636e-05 3.119664441354452e-06 0 0 0 0
325000000 0.8280417099734212 -0.5772837062211291 2.7419828647792788e-05 -5.729469553761743e-05 0 0 0 0
334000000 0.8191765789310722 -0.5891297182256391 5.1832035869953744e-05 8.874094911867657e-06 0 0 0 0
343000000 0.8102560608953878 -0.6016758956100431 -3.104673385403395e-05 2.840210115488644e-05 0 0 0 0
352000000 0.7997290782417469 -0.6122386971583943 6.018211932916971e-06 1.3225442237310124e-05 0 0 0 0
361000000 0.7916316538495032 -0.6265482808847271 -1.1333357968508883e-05 1.5743288439558853e-05 0 0 0 0
370000000 0.7797943348046564 -0.6381568513436222 7.918424997381988e-06 -5.4749219567590835e-05 0 0 0 0
379000000 0.7715235037105961 -0.6483690370482977 -3.041422326823463e-05 -1.019016594896373e-06 0 0 0 0
388000000 0.7576725965964237 -0.6632108509423671 3.9122070827556035e-05 -2.190920651480991e-06 0 0 0 0
397000000 0.7498159670481999 -0.6733010895456145 2.5371471936917854e-05 -4.0900979934315406e-05 0 0 0 0
406000000 0.7380259932324449 -0.6856527686821421 5.249141361567039e-05 -7.139259883511007e-06 0 0 0 0
415000000 0.7255324155916487 -0.6989225302692825 2.1034512376037024e-05 -1.3861765508248258e-05 0 0 0 0
424000000 0.7154527082470098 -0.7104635175689491 4.0748278591731e-06 9.08771899176741e-06 0 0 0 0
433000000 0.7033060206175522 -0.7212827996861557 2.8773768752827e-05 3.438912577139032e-05 0 0 0 0
442000000 0.6943861793362343 -0.7317705229099031 -3.621656949978993e-05 3.879234807885314e-05 0 0 0 0
451000000 0.6817296045494333 -0.7420445174635724 2.8499732162532387e-05 3.216734058044983e-05 0 0 0 0
460000000 0.6710823789247436 -0.7522397015025342 7.146626798001472e-06 1.7255529012535207e-05 0 0 0 0
469000000 0.6556140080534575 -0.7662279355187193 2.7832715374809287e-05 8.135236267961368e-06 0 0 0 0
478000000 0.6488695765937387 -0.7726693307235297 5.492399826462645e-05 -3.40782907007966e-05 0 0 0 0
487000000 0.629628824410128 -0.7883930603030668 -7.506140025016018e-05 -1.925128114143915e-05 0 0 0 0
496000000 0.6180704818661424 -0.7993992227477802 -1.3139378481993495e-05 5.901061215788932e-06 0 0 0 0
505000000 0.6058484690280828 -0.8091592523622898 -4.161483826599539e-05 -3.555532400832812e-05 0 0 0 0
514000000 0.591906254745513 -0.819719106624847 -1.9541711450377647e-05 -6.436498106953083e-05 0 0 0 0
523000000 0.5741826635313156 -0.8327724951468662 -4.820425239623052e-05 -6.094903094681643e-06 0 0 0 0
532000000 0.5624941960764681 -0.8429357064505887 -9.93716546441167e-06 -1.2622161131037866e-05 0 0 0 0
541000000 0.5508058717184 -0.8501554819759551 -3.553579141075274e-05 -1.5251985313403052e-05 0 0 0 0
550000000 0.5354974118508252 -0.8602163276300098 -4.918189352560918e-05 1.2905954740238095e-05 0 0 0 0
559000000 0.5235044719443938 -0.8675098308902617 -1.148992201169796e-05 -3.13514945027804e-05 0 0 0 0
568000000 0.5024826905101382 -0.8798280914590719 3.869681528908315e-05 -7.855913861124619e-06 0 0 0 0
577000000 0.49130527961582743 -0.887438511243084 1.9939004451023846e-05 9.157968092362269e-05 0 0 0 0
586000000 0.47391960877078665 -0.899952938046771 8.365708951345505e-05 7.314459913223684e-05 0 0 0 0
595000000 0.46245811526560815 -0.905056250873994 -2.3119667651995854e-05 4.782650728137629e-05 0 0 0 0
604000000 0.4434248078740826 -0.9156651565394561 8.065023267134049e-06 -2.566201071905791e-05 0 0 0 0
613000000 0.4202822411172716 -0.9253077313231528 -3.7594267559419258e-06 -3.5337293342393274e-05 0 0 0 0
622000000 0.4051500772163945 -0.9342896185231254 5.402089701463202e-05 -4.264052545458857e-05 0 0 0 0
631000000 0.3895754105253353 -0.9403658516706143 5.8964667422757435e-05 2.151395505626326e-06 0 0 0 0
640000000 0.3768533731840358 -0.9473725243861538 4.922006721860014e-05 -2.680837197553892e-06 0 0 0 0
649000000 0.353111985294421 -0.9540290456059454 1.429869848064239e-05 -1.8598270552530843e-05 0 0 0 0
658000000 0.33596192667374597 -0.9605934180780615 -1.9848626117016978e-05 -8.968107546100626e-06 0 0 0 0
667000000 0.31532123375866367 -0.9659900587234681 -2.4707312197343965e-05 7.3830728736179705e-06 0 0 0 0
676000000 0.2957818521390076 -0.9724032433616524 7.652508753012262e-06 2.3006018154242876e-05 0 0 0 0
685000000 0.28239677642203037 -0.976296276396397 -5.0144556581835416e-05 -2.1001133182021314e-05 0 0 0 0
694000000 0.26411468309879366 -0.9813741181851652 -3.496714612667201e-05 7.0540804090563e-05 0 0 0 0
703000000 0.24513218233685716 -0.9832514073541103 -8.291453307098815e-05 3.572543814310271e-05 0 0 0 0
712000000 0.21365420448702205 -0.9894205423421274 -2.146182003236772e-05 5.875595464451086e-06 0 0 0 0
721000000 0.1990023938324994 -0.9896953044707463 2.446341238333455e-05 5.353068427135772e-05 0 0 0 0
730000000 0.17961575024576681 -0.9927330246353218 1.1219806065711505e-05 1.591190385131869e-05 0 0 0 0
739000000 0.16009553983035446 -0.9948399608522162 5.280209590971482e-06 0.00012999058362720298 0 0 0 0
748000000 0.1445954031015332 -0.9947736302860085 4.73588173055973e-05 -4.085171998372576e-05 0 0 0 0
757000000 0.11956077568085229 -0.994834008506528 3.6879883230865246e-05 4.655369081224686e-05 0 0 0 0
766000000 0.10566078331904759 -0.9944824872266425 3.886438554676318e-05 1.764485253408003e-06 0 0 0 0
775000000 0.07694076464903771 -0.9918959437177488 8.696679158474143e-05 -0.00010360051165007177 0 0 0 0
784000000 0.05408760707429683 -0.9913441140435337 7.206661654381071e-05 -7.754607437258489e-05 0 0 0 0
793000000 0.045228301885343665 -0.9874020431120678 -5.215700982753654e-06 3.904916956136647e-05 0 0 0 0
802000000 0.019202498215857917 -0.9860697875382032 -6.249955334873621e-06 1.2348331392089486e-05 0 0 0 0
811000000 0.0007116097087740475 -0.9823595136719689 9.860679395031264e-05 3.49411631478491e-05 0 0 0 0
820000000 -0.016318487890186317 -0.9771965374315553 7.262024168597055e-05 -3.4946579733887815e-05 0 0 0 0
829000000 -0.03268210890358129 -0.973187362491663 1.5742990081023303e-05 -1.6541832291680622e-05 0 0 0 0
838000000 -0.053866252783726754 -0.9675244186162375 3.0757232330649155e-05 -6.756115167748983e-06 0 0 0 0
847000000 -0.07461723116910318 -0.9637103425017114 9.011222370791684e-05 0.00011897013050914827 0 0 0 0
856000000 -0.09851041325869593 -0.9541329197398463 -1.9639362357705795e-05 3.883001316114699e-05 0 0 0 0
865000000 -0.11308121556479177 -0.9466475846725554 5.779421883048084e-05 3.078787567177669e-05 0 0 0 0
874000000 -0.12681129197874877 -0.9426406418224921 -4.992371699534184e-05 3.3096674258889384e-06 0 0 0 0
883000000 -0.13980236520634887 -0.9336029486106449 -3.69357291659407e-05 -1.6619441116096756e-05 0 0 0 0
892000000 -0.16014581936379163 -0.9258959613588559 2.021336274498674e-05 -7.969456501112764e-06 0 0 0 0
901000000 -0.17402957951685885 -0.9176402185351145 3.497531752134913e-05 2.0376513722220473e-05 0 0 0 0
910000000 -0.18637264775241252 -0.9136683951889856 -2.863301080200531e-05 -4.541942244452048e-05 0 0 0 0
919000000 -0.2036540619852467 -0.903865214814013 -1.8739637178371346e-05 2.028704297273503e-06 0 0 0 0
928000000 -0.21600914508398633 -0.8938076688883507 3.111859500735906e-05 4.5396807301750484e-05 0 0 0 0
937000000 -0.2336973421013438 -0.8859173567452671 -9.716333264483103e-06 4.145703775289144e-05 0 0 0 0
946000000 -0.25072613354666806 -0.876038460809611 5.801494025791915e-05 2.54758961945589e-05 0 0 0 0
955000000 -0.25896695497736244 -0.8675516209685143 2.106684300237265e-05 -2.3352175659682542e-05 0 0 0 0
964000000 -0.2729204853521355 -0.8608707189520831 2.1724215400311917e-05 -5.4818881016948236e-06 0 0 0 0
973000000 -0.28551011434090756 -0.8523206254892212 3.0330562076806427e-05 -1.537330414361529e-05 0 0 0 0
982000000 -0.2991576329733855 -0.8420770932327479 2.5627506120721556e-05 -1.0112660977309636e-05 0 0 0 0
991000000 -0.3143519861016205 -0.8331091136076211 3.88438572746211e-05 -7.209311455576794e-07 0 0 0 0
1000000000 -0.31186814604769486 -0.8269613833262067 -1.4946942745866707e-05 0.00010588529557897873 0 0 0 0
