# HZ S RI R 50
100000000 1.008538453528053 -0.21950029643239807 -2.554357396201138e-05 -4.8859833151971785e-05 0 0 0 0
109000000 1.0077619811517875 -0.23471280280273757 -3.03992081847487e-05 -1.6751595092546376e-05 0 0 0 0
118000000 1.002551598006665 -0.2497336588031402 4.97641126677653e-05 -3.5543073431268e-05 0 0 0 0
127000000 0.9970949117467889 -0.26516957261237234 4.879422949389434e-05 3.200245509778179e-05 0 0 0 0
136000000 0.9913688794536348 -0.2802045531555941 -3.2261481883709925e-05 -7.981854173027045e-05 0 0 0 0
145000000 0.9833216406286558 -0.29442090454577574 -1.5742370992063168e-06 2.2730365041201623e-05 0 0 0 0
154000000 0.977492520957473 -0.31095117806183115 4.2504447851792264e-05 -4.358851660208814e-06 0 0 0 0
163000000 0.9709274960029396 -0.3251366715466325 -3.670924367320936e-05 3.654480075304253e-05 0 0 0 0
172000000 0.9643054093190454 -0.3400525587998599 -1.6413123111281982e-05 -1.0240571726910594e-05 0 0 0 0
181000000 0.9579936591739362 -0.3539836936162575 2.4080905807031798e-05 6.999271699398896e-05 0 0 0 0
190000000 0.9510982718346598 -0.3695930933670874 -8.447403934664933e-06 1.9094389710451664e-05 0 0 0 0
199000000 0.9446000724326963 -0.3825973348829529 -1.2098895563756571e-05 1.0910684015792802e-05 0 0 0 0
208000000 0.9368966045385612 -0.3981706022796995 -1.7932065381457035e-06 5.940519428935289e-06 0 0 0 0
217000000 0.9284788094039201 -0.41394565441698805 -2.6632540634775878e-05 -2.96887714111844e-05 0 0 0 0
226000000 0.9225957655131218 -0.425894225459788 -5.5925059598009305e-05 1.182720534690881e-05 0 0 0 0
235000000 0.9152666727228735 -0.44024013065511747 9.233354262742213e-06 5.214531139217009e-05 0 0 0 0
244000000 0.906679089208843 -0.45501423038579936 3.839557547881503e-05 -2.9590891954056706e-05 0 0 0 0
253000000 0.8983514653278906 -0.4699943328570663 4.515889961989683e-06 6.912949292662347e-06 0 0 0 0
262000000 0.8898569410566874 -0.48375666512415794 -1.90535733960251e-05 -1.702028764525772e-05 0 0 0 0
271000000 0.8834083862908357 -0.49466857614874343 -3.791594522183411e-05 6.199310078959078e-06 0 0 0 0
280000000 0.8751836437942481 -0.5076079128961488 1.556569870752605e-05 2.0155740827409596e-05 0 0 0 0
289000000 0.865846224595427 -0.5232435153613114 -6.50125325833162e-06 -3.0355727411262413e-06 0 0 0 0
298000000 0.8572372544208984 -0.5357210932525583 9.347580841218343e-06 -3.890625465173439e-05 0 0 0 0
307000000 0.8490976731476849 -0.5481319615731626 1.5513859068803357e-05 -4.201400936610456e-05 0 0 0 0
316000000 0.8395721452504387 -0.5617414883985752 3.224461706781733e-05 -5.395900796448653e-05 0 0 0 0
325000000 0.8292507510237388 -0.5754993558376016 1.5545379768301697e-05 2.008874091192675e-05 0 0 0 0
334000000 0.820693125710827 -0.5861994422548462 -6.54590166104795e-05 -4.3977640236189384e-05 0 0 0 0
343000000 0.8100178536024842 -0.6002542558996296 -0.0001056412183052702 6.700317147606739e-06 0 0 0 0
352000000 0.8021757128261874 -0.611308369121181 -3.88104939446369e-05 1.271019456592936e-05 0 0 0 0
361000000 0.7928375427266362 -0.6231629310481044 1.8416200403209596e-05 1.4501964798412235e-05 0 0 0 0
370000000 0.7803764359679554 -0.6374520330547169 -2.6567703713141922e-05 5.5805618608053154e-05 0 0 0 0
379000000 0.7696401313510483 -0.6510913709853304 7.876840545867847e-06 4.7862818387351576e-05 0 0 0 0
388000000 0.7609355398999169 -0.6600729898962722 4.3295914439635434e-05 -7.197247579955447e-05 0 0 0 0
397000000 0.7505003835568124 -0.6736120541144953 1.427068866675054e-05 -1.150813157962876e-05 0 0 0 0
406000000 0.740002262653343 -0.6836967630532316 5.753040355498162e-06 -1.6329404545095594e-06 0 0 0 0
415000000 0.7279704111808692 -0.6970511197386294 -1.703851063060204e-05 4.312757605872248e-05 0 0 0 0
424000000 0.7157370587157932 -0.7087645830967668 -8.491200748407127e-05 -4.241277537629768e-05 0 0 0 0
433000000 0.7064376895903556 -0.7196392703595195 6.637814710208174e-06 -8.835960699920721e-06 0 0 0 0
442000000 0.6942717258438663 -0.731086178222931 3.199228189556582e-05 -6.623370434971045e-07 0 0 0 0
451000000 0.6807214131529385 -0.7437192322428581 -8.336198476420785e-05 4.018795517761967e-05 0 0 0 0
460000000 0.6708533772726529 -0.7524742675272482 -1.4815325053201301e-05 -4.22091614229603e-05 0 0 0 0
469000000 0.6547182027564993 -0.7664453222499605 2.3593217989756063e-06 1.8263381644858167e-05 0 0 0 0
478000000 0.6458869057424919 -0.7757580879891749 -8.392348094156973e-05 -4.319695301365607e-05 0 0 0 0
487000000 0.630480187614775 -0.7886986840449004 -4.050268606114365e-05 8.206911398540946e-06 0 0 0 0
496000000 0.6183252311391804 -0.7984871215642145 -8.485290039347678e-06 -6.439204066371069e-06 0 0 0 0
505000000 0.6041904941434023 -0.8090081869075255 -3.6933195981925316e-05 -6.074498577343891e-06 0 0 0 0
514000000 0.59338471615157 -0.818682260246387 4.230678439099028e-05 4.374539261780495e-05 0 0 0 0
523000000 0.5787719123610817 -0.8305013832354562 -3.182567074400012e-06 -7.410928414164227e-06 0 0 0 0
532000000 0.5687323726660632 -0.8383837056147154 -4.0441610643143626e-07 2.946739174303525e-05 0 0 0 0
541000000 0.5507137539338931 -0.8508883559738668 -5.514523137456638e-05 1.4360594934785279e-05 0 0 0 0
550000000 0.5359687721371406 -0.8597060376258077 5.9383385521848613e-05 9.217682183166552e-06 0 0 0 0
559000000 0.5232127740702686 -0.8692884757977198 8.81645231960323e-05 -5.648821062711167e-05 0 0 0 0
568000000 0.5047838873363156 -0.8821131081848019 -1.6498042473727457e-05 2.4564031426542443e-05 0 0 0 0
577000000 0.48987273535666326 -0.8884036155874085 -1.1693622256834673e-05 -7.923567413662225e-05 0 0 0 0
586000000 0.4762443436755542 -0.8963975374204713 4.806570690943854e-05 7.697129414774867e-06 0 0 0 0
595000000 0.45718909407661523 -0.9078192826261868 -6.159449546317742e-05 3.7737493704941066e-05 0 0 0 0
604000000 0.44348908498236506 -0.9154495465385373 5.0287049751630145e-05 3.150918208504327e-05 0 0 0 0
613000000 0.4241815585217849 -0.9248834188132626 -9.660129667777113e-06 -3.2393808382821904e-05 0 0 0 0
622000000 0.4108584975461692 -0.931376769470228 9.667951466502138e-06 5.833095707374798e-05 0 0 0 0
631000000 0.39171642752061325 -0.9398116922074338 -4.197189377498651e-05 6.911859197867051e-05 0 0 0 0
640000000 0.37446717058951995 -0.9475093752583417 -4.444605204134748e-05 8.367070940922937e-06 0 0 0 0
649000000 0.356527158610383 -0.9538078070112622 -1.1817956338927e-05 -3.401028020161812e-05 0 0 0 0
658000000 0.335563756296534 -0.9617289315710904 -3.069926721099683e-05 5.1463080117706054e-05 0 0 0 0
667000000 0.31770814223374155 -0.9651415947483272 9.708828366614967e-09 2.3155435753059803e-05 0 0 0 0
676000000 0.30187046653073696 -0.9711192928505517 4.2745699899029356e-05 2.55152729709713e-05 0 0 0 0
685000000 0.2831580353252183 -0.975185898210492 -7.087361013368637e-06 1.624026185879751e-05 0 0 0 0
694000000 0.26098494405151024 -0.9795813360238007 2.0055278314571297e-06 5.627110447296387e-05 0 0 0 0
703000000 0.2373625539081514 -0.986735714514633 2.09481666872141e-05 2.8426751429343636e-05 0 0 0 0
712000000 0.22845112065167272 -0.9875466246178849 -2.60591265471785e-05 1.3903121316667853e-05 0 0 0 0
721000000 0.2016733368757042 -0.995044721587735 3.8200001871879476e-05 8.780831487293919e-05 0 0 0 0
730000000 0.17966714570978032 -0.9939324855347655 5.1898368079534134e-05 5.935191126362492e-06 0 0 0 0
739000000 0.156135954922884 -0.9947311636730394 4.067264462392692e-06 5.781139878182819e-05 0 0 0 0
748000000 0.1419440194400147 -0.9949887334810419 -3.247965033822622e-05 -1.778290273982231e-05 0 0 0 0
757000000 0.11782831783752044 -0.9955264194233705 5.043989369625552e-05 4.834651034100319e-05 0 0 0 0
766000000 0.09999308970983835 -0.9943604252201909 -2.2969562143197097e-05 6.466024279162435e-05 0 0 0 0
775000000 0.07811923752654627 -0.9936560945430215 1.8036088544042945e-05 6.16453055895097e-05 0 0 0 0
784000000 0.05528282110092291 -0.9909780630765501 6.53729799188413e-05 5.9965264467976916e-05 0 0 0 0
793000000 0.036114354603229454 -0.9888786324826758 9.327555052961276e-05 -2.1638935505890912e-05 0 0 0 0
802000000 0.0179535952848664 -0.986993415812289 8.653372557549953e-06 -7.656881028647786e-05 0 0 0 0
811000000 0.000589027334440741 -0.9803194839366474 0.00011757737883038387 -2.8759746347789615e-05 0 0 0 0
820000000 -0.020320037530944243 -0.9778610290480166 3.490058400376341e-05 -5.065154354351988e-05 0 0 0 0
829000000 -0.03658890170563915 -0.970555573891892 1.516734460473689e-05 -3.2810971090170346e-05 0 0 0 0
838000000 -0.04874542222386812 -0.9659099183657696 5.3230847135872576e-05 2.6532736376654494e-05 0 0 0 0
847000000 -0.07171357796082221 -0.9620362219774575 2.5968677821601262e-05 -6.327795921680196e-05 0 0 0 0
856000000 -0.09570593942767452 -0.9538677414750851 9.747429971950977e-05 1.0034125621661364e-05 0 0 0 0
865000000 -0.10541957619742756 -0.9469879915348757 -2.8690986842201873e-05 -5.36536781555456e-05 0 0 0 0
874000000 -0.11916068151113232 -0.9408946449704476 2.472945450280637e-05 2.599030410700595e-05 0 0 0 0
883000000 -0.13611373337345137 -0.9350641640837734 2.556424478851622e-05 -4.126544178037687e-05 0 0 0 0
892000000 -0.15920913323333435 -0.9261600855484157 0.00010326652713575133 -1.1408495998404862e-05 0 0 0 0
901000000 -0.17316476039163872 -0.9194602858568816 0.0001209218279137741 -2.6410828390321684e-05 0 0 0 0
910000000 -0.18127811445155775 -0.9119805049322146 6.639759169737782e-05 -1.632655908521163e-05 0 0 0 0
919000000 -0.20692402312427371 -0.9022056558439522 -7.223043514352807e-05 -3.815990532892436e-05 0 0 0 0
928000000 -0.2195985857362141 -0.8953205521727122 3.907668691956948e-05 -4.184565047166159e-05 0 0 0 0
937000000 -0.22536888669535857 -0.887040356754203 -4.160920138872503e-06 -4.940276027529466e-06 0 0 0 0
946000000 -0.24639579258364216 -0.8786533463713669 -4.234347441349176e-05 0.00010213551455858076 0 0 0 0
955000000 -0.2607773579191404 -0.8697368565864321 4.213364222187242e-05 -3.863003533678494e-05 0 0 0 0
964000000 -0.27096229390945487 -0.862344882404954 -1.7046592726137187e-05 4.553159268872755e-05 0 0 0 0
973000000 -0.2829854831290919 -0.8535687327670801 -1.5760042601697315e-06 -1.1508837796066741e-05 0 0 0 0
982000000 -0.295117359548519 -0.8428208866365561 -2.7028452064535646e-05 3.9717556878595035e-05 0 0 0 0
991000000 -0.31159646130623814 -0.8325696448632015 -5.362771368742076e-06 -2.528981606376774e-05 0 0 0 0
1000000000 -0.31962782595203587 -0.8276703783757515 1.525278898774841e-06 1.6506039548118236e-05 0 0 0 0
