# HZ S RI R 50
100000000 1.008352484007405 -0.21784172835085605 -6.610685586356592e-05 -5.033688907310892e-05 0 0 0 0
109000000 1.0077773105983867 -0.23446165475594 4.3499947835678405e-05 -9.893235507373018e-05 0 0 0 0
118000000 1.002529244430051 -0.24934128418961982 -8.930092869627514e-05 -1.881321621887029e-05 0 0 0 0
127000000 0.9973744244214547 -0.2641925821303022 -1.78347593630444e-05 -4.138633783240177e-05 0 0 0 0
136000000 0.9915562007834923 -0.28028854224706407 -6.573714667424146e-05 -1.118009675125212e-05 0 0 0 0
145000000 0.9836754779197754 -0.29505052740018567 7.17335271386191e-06 -2.547510733165486e-05 0 0 0 0
154000000 0.9771091026783278 -0.3098248636785821 5.989500818797287e-06 -1.2537499981895978e-05 0 0 0 0
163000000 0.9707106363985751 -0.32536820822042856 2.652153609410307e-05 1.2200366657697215e-05 0 0 0 0
172000000 0.964488209009188 -0.3388080679707636 1.0475266843966185e-06 -1.2288919685664174e-06 0 0 0 0
181000000 0.9578918764144321 -0.3548441482885558 1.024020688469051e-05 -2.28722993057709e-05 0 0 0 0
190000000 0.9507526048658289 -0.36981883553307743 1.4958889930646033e-05 8.041255190788517e-06 0 0 0 0
199000000 0.943414176637817 -0.3848793924267511 -2.853494097602986e-05 -3.2404964469390145e-05 0 0 0 0
208000000 0.9360361512907113 -0.3996756743378072 1.0173710398391816e-05 -4.760669219248975e-06 0 0 0 0
217000000 0.9294571369632588 -0.4125228088274528 -2.998815291367614e-05 -6.456345782022043e-06 0 0 0 0
226000000 0.9213606389930552 -0.4272608089074481 -8.88940814771066e-06 -3.346155248383565e-05 0 0 0 0
235000000 0.915353623451645 -0.4400060969694619 -2.2502944696861322e-05 3.141302775444752e-05 0 0 0 0
244000000 0.9064526747143937 -0.45650655850859284 1.8628766647500168e-05 3.564688706228229e-05 0 0 0 0
253000000 0.8987776732425982 -0.4679286855208168 -1.938947869532904e-06 -1.184151812529233e-06 0 0 0 0
262000000 0.891467149773494 -0.4815843809764899 8.425557565105009e-06 -4.964092666963261e-05 0 0 0 0
271000000 0.8829140072934204 -0.49544812686369594 -7.805389550494539e-05 2.4466971292076962e-05 0 0 0 0
280000000 0.8733862044893321 -0.5091286235284024 5.48447483476063e-06 -7.35920869408028e-05 0 0 0 0
289000000 0.8652051742261795 -0.5235404844447217 3.08073505896276e-05 7.429941890961422e-06 0 0 0 0
298000000 0.8567806541276175 -0.535837760599917 6.819837684996187e-05 2.677553665786134e-05 0 0 0 0
307000000 0.846252876677086 -0.5504582663930191 -2.3666629365720787e-05 2.82170710815163e-06 0 0 0 0
316000000 0.8386017908420805 -0.5622288594365529 -1.6970991392874016e-07 -3.739371143698102e-05 0 0 0 0
325000000 0.828895807943447 -0.5754337242249137 -3.810207739638527e-05 -3.331505824715406e-05 0 0 0 0
334000000 0.820815302291444 -0.5866899163185071 -5.255893864047029e-05 8.102071942500092e-05 0 0 0 0
343000000 0.8124708449186386 -0.5986309008072687 -5.286186936833802e-05 -6.960997415610522e-06 0 0 0 0
352000000 0.7998765178916221 -0.612547274955659 5.304902841861727e-07 1.4597461390824348e-05 0 0 0 0
361000000 0.7914238850354297 -0.6233513841753797 -7.72383465826966e-05 -1.5678874939185252e-05 0 0 0 0
370000000 0.7814327711862072 -0.6361821095351862 1.8618402765592403e-05 6.707866240045615e-06 0 0 0 0
379000000 0.7700031051100089 -0.6502799909849388 -3.052147157066202e-05 1.7783263620100036e-05 0 0 0 0
388000000 0.7606990851267141 -0.6613969411848931 2.4280848545992284e-06 4.026447610668597e-05 0 0 0 0
397000000 0.7502148152385013 -0.672194241548992 4.177318713174779e-05 2.0669083294576075e-05 0 0 0 0
406000000 0.7399085499453164 -0.6841934216653794 3.5617088730415415e-06 -1.584712015070986e-05 0 0 0 0
415000000 0.7291576852507209 -0.6955407925842376 6.225669086140203e-05 2.5198822482924742e-05 0 0 0 0
424000000 0.7155962587124746 -0.7083217110430521 3.1835868073908406e-05 1.3671078930495991e-05 0 0 0 0
433000000 0.7021801908742281 -0.7220289890605324 -2.5071801717148426e-05 -3.107620903037304e-05 0 0 0 0
442000000 0.6950666432731496 -0.7299249496855453 -1.9268958979613858e-05 -2.8947083058630028e-05 0 0 0 0
451000000 0.6816248568693737 -0.7432324307191468 2.3659645876605994e-05 6.0928107244447836e-05 0 0 0 0
460000000 0.6703785196194526 -0.7543889920613612 5.888171803941036e-05 -1.147703447363736e-05 0 0 0 0
469000000 0.6567309677405891 -0.7662221098272869 3.7208751181153216e-05 3.1773708294273034e-05 0 0 0 0
478000000 0.6442733856724665 -0.7768373573724326 -6.964298340414197e-05 -5.4936439624221694e-05 0 0 0 0
487000000 0.6339856700226432 -0.784674237992312 8.489328251592956e-06 -3.671098541299197e-05 0 0 0 0
496000000 0.6219305271968143 -0.7957125019267244 6.140232392054084e-06 1.4439748685449317e-05 0 0 0 0
505000000 0.6051322552252177 -0.8083553068493413 -1.754615481527835e-05 -3.42352498336393e-05 0 0 0 0
514000000 0.5954076148668364 -0.8182414788413449 1.7264349875614923e-05 -3.5652546170980665e-05 0 0 0 0
523000000 0.5794707477127213 -0.8294961727598458 1.9364060036721952e-05 -7.151676768837649e-06 0 0 0 0
532000000 0.5625014860733102 -0.8403067404242377 -2.5747747066104656e-05 2.0089561706634602e-05 0 0 0 0
541000000 0.5470585142641512 -0.8529279743781368 -2.54913871826326e-05 5.498824981891782e-05 0 0 0 0
550000000 0.535472218943812 -0.8597321820727789 5.598728234124336e-05 -1.0948136429664059e-05 0 0 0 0
559000000 0.5177788352975642 -0.8714789515326643 9.794714985028487e-06 -5.014394249932681e-06 0 0 0 0
568000000 0.503492690168549 -0.8805142693905719 -1.7352959176724042e-05 1.6209395215813594e-05 0 0 0 0
577000000 0.48825879189759924 -0.8899265552637284 -1.6884131958848203e-05 -1.1490145878588474e-05 0 0 0 0
586000000 0.4688577397585692 -0.9011945892636425 1.4281911224801483e-05 -6.99546700881529e-05 0 0 0 0
595000000 0.4580681526322705 -0.9088791245694832 2.6571499332562108e-05 -7.134149739587668e-06 0 0 0 0
604000000 0.442056364915957 -0.9148664523161422 -4.155491245021544e-08 -1.1487539177484425e-06 0 0 0 0
613000000 0.42538989595756443 -0.924021557143103 -3.889795364141039e-05 -2.185294199656286e-05 0 0 0 0
622000000 0.40831367666513174 -0.9337403996466015 -1.0471615842042393e-05 8.94726525139787e-06 0 0 0 0
631000000 0.3954016647297102 -0.9374064049535259 5.5056696771324844e-05 -8.58275323814982e-05 0 0 0 0
640000000 0.37006826054880654 -0.949180165818476 4.861428726214851e-05 3.542435051521404e-05 0 0 0 0
649000000 0.35715204299220027 -0.9527522947908693 6.754614573855923e-05 0.00010890596241042258 0 0 0 0
658000000 0.3365447579442098 -0.9613677032558515 6.600664429345621e-05 -3.475934950008464e-06 0 0 0 0
667000000 0.31781642579695757 -0.9633348236689814 -3.008018952218392e-05 -8.013124422663051e-06 0 0 0 0
676000000 0.30066153809431906 -0.9713288039894371 -8.523068507853136e-05 3.974646452162312e-05 0 0 0 0
685000000 0.28050841607599825 -0.9765985555840954 -3.534361666801764e-05 1.8655519300544108e-05 0 0 0 0
694000000 0.26029289353364143 -0.9827815831866045 -6.685171937595047e-05 2.91074557913405e-05 0 0 0 0
703000000 0.2448299728001238 -0.9827312858777001 4.8656412287545714e-05 3.840781887449615e-05 0 0 0 0
712000000 0.21812851841485245 -0.9895047358332401 8.854846798997717e-05 5.968183289437121e-06 0 0 0 0
721000000 0.2014498153130526 -0.9928680097383776 8.10245806992162e-05 3.852437230320317e-05 0 0 0 0
730000000 0.18393004682566383 -0.9926505941650484 -1.1888118823679646e-05 6.666645723067024e-06 0 0 0 0
739000000 0.1608789998964455 -0.995048514687756 7.34059914230572e-05 0.00010923415195357475 0 0 0 0
748000000 0.13568695212557927 -0.9965463649987957 0.00010832253592795559 6.60255689886266e-05 0 0 0 0
757000000 0.12145276365763456 -0.9941151745325868 0.00012968223602680454 -5.07647208787413e-05 0 0 0 0
766000000 0.09764771710187928 -0.9945372089614614 0.00015403329832965607 5.855014653729677e-05 0 0 0 0
775000000 0.07972583374708142 -0.9923058822474001 8.753187618929634e-05 1.5707985683157962e-05 0 0 0 0
784000000 0.056487482952043054 -0.9920022827258871 0.00011130667589052461 -3.7366183622758235e-05 0 0 0 0
793000000 0.04086854304566012 -0.9887716449001822 1.2064402188002969e-05 -5.059976564477189e-05 0 0 0 0
802000000 0.020774815575251404 -0.9857825245736827 -1.2734644263704415e-05 7.365886116651222e-05 0 0 0 0
811000000 -0.003699154190391824 -0.9811014043804553 0.00011529565860329957 -2.9071057348786006e-07 0 0 0 0
820000000 -0.02045849525906562 -0.9775102738927102 2.097607494223109e-05 -4.111980064916304e-05 0 0 0 0
829000000 -0.04278332921565056 -0.9729640753293668 0.00010309511184620706 -9.94033784997095e-06 0 0 0 0
838000000 -0.05253771535815378 -0.9672598720868519 2.0447233625465215e-05 2.3166072923977117e-05 0 0 0 0
847000000 -0.07704140512976893 -0.9631518195976533 4.319929050177869e-05 -4.0425341052971204e-05 0 0 0 0
856000000 -0.09622556194877065 -0.9551928710472289 5.173100079690445e-05 3.86081502827883e-05 0 0 0 0
865000000 -0.1114881031726947 -0.9492131303665734 9.752016738807751e-05 -8.322866442780521e-05 0 0 0 0
874000000 -0.13244606749044638 -0.9412479491329906 -1.1419922808018043e-05 -1.3080037217172175e-05 0 0 0 0
883000000 -0.1428500100484023 -0.935052697428312 1.613564951233715e-05 1.933133143609028e-06 0 0 0 0
892000000 -0.17246054619933465 -0.9251353191990772 -4.2019240317640196e-05 -1.4829009811496526e-05 0 0 0 0
901000000 -0.17070648371094624 -0.9175267024237934 2.700496398061263e-05 -4.5065690346520146e-05 0 0 0 0
910000000 -0.19422810152555872 -0.9114232788540969 4.968096091910543e-05 -6.993809236106906e-05 0 0 0 0
919000000 -0.19588235752046354 -0.9029954007963485 1.904120479917189e-05 7.945550671907922e-06 0 0 0 0
928000000 -0.22047973136947352 -0.893646278796623 6.404239389606654e-05 2.433044677947849e-05 0 0 0 0
937000000 -0.23562332430339658 -0.8854343447215902 5.669388673501471e-05 -6.13524888655571e-06 0 0 0 0
946000000 -0.242047942794095 -0.8789281554433777 3.592681746540987e-05 -9.397276052492793e-05 0 0 0 0
955000000 -0.25840396213788186 -0.8681401074135012 7.084489386091134e-05 6.415324618616193e-05 0 0 0 0
964000000 -0.2752760390084457 -0.8595564751290503 4.88999375777327e-05 3.327758678282815e-05 0 0 0 0
973000000 -0.28221074414267044 -0.8522257674715458 2.9066911397802787e-05 -1.5506063577356142e-05 0 0 0 0
982000000 -0.2880606682345697 -0.8458355788872508 9.205197052088872e-06 0.00010993181933592176 0 0 0 0
991000000 -0.3011572226074823 -0.8360404316351852 5.268808445403426e-05 -4.499612540608801e-05 0 0 0 0
1000000000 -0.31118142415752903 -0.8310997682574301 5.4722510487321233e-05 9.395043801493297e-06 0 0 0 0
