# HZ S RI R 50
100000000 1.0071308589090484 -0.21930922316839896 -3.49526470350103e-05 2.290266775236734e-05 0 0 0 0
109000000 1.00763516521397 -0.23517804056091918 5.854504933575726e-07 3.4892459315626526e-05 0 0 0 0
118000000 1.0021918683286122 -0.2497899718372314 -1.7752730048814382e-05 9.532961086612683e-06 0 0 0 0
127000000 0.9970302632198491 -0.2650241737975791 -1.0600676434758469e-05 -8.636124277507238e-05 0 0 0 0
136000000 0.9915408010701223 -0.2800278080456096 4.108401526522289e-06 -2.5038871081973683e-05 0 0 0 0
145000000 0.983358629797813 -0.2950269410978628 -9.297756444045827e-06 9.631136176813205e-06 0 0 0 0
154000000 0.9769447819894295 -0.3101275156504676 1.5764699064636927e-05 6.166593726492366e-05 0 0 0 0
163000000 0.9710547674761663 -0.32513458157181185 -1.5366651407732495e-05 4.8788098117443906e-05 0 0 0 0
172000000 0.9643180102196417 -0.3399159100780928 -7.79046931268733e-06 -2.7503152355076743e-05 0 0 0 0
181000000 0.9576864356357991 -0.35555760771854983 2.6667944732256852e-05 2.1117194941891796e-05 0 0 0 0
190000000 0.9508087033832417 -0.3698483926522871 -7.4521983985288974e-06 1.5514289816454338e-05 0 0 0 0
199000000 0.9432963841437781 -0.3851702676564831 -6.296818998387688e-05 2.7664973690549515e-05 0 0 0 0
208000000 0.9367763663861678 -0.3977807620030161 1.4149258744500246e-05 2.3034248685900865e-05 0 0 0 0
217000000 0.9289682846689236 -0.41402349441254993 1.6211752854099118e-05 6.236705550664701e-06 0 0 0 0
226000000 0.9216919965153665 -0.4276758968754229 2.2292768418641046e-06 -4.871911935271033e-06 0 0 0 0
235000000 0.9147841169378441 -0.44019268017695035 3.718059100873039e-05 3.0222361941419293e-05 0 0 0 0
244000000 0.9066018319858228 -0.4545866715802491 -4.469337963960363e-05 -2.8775859401797554e-05 0 0 0 0
253000000 0.8992544430963475 -0.468100466612649 -5.00088141165173e-06 -2.637295709104791e-05 0 0 0 0
262000000 0.8908847703348319 -0.48202866582746007 9.887774791061284e-06 -1.732107020528803e-05 0 0 0 0
271000000 0.882547638673466 -0.4960402197789446 2.1737255065624375e-05 -7.09038607187814e-05 0 0 0 0
280000000 0.8743410001722001 -0.5095728189725952 1.4397002216185366e-05 -4.677044464340931e-05 0 0 0 0
289000000 0.8651917447914409 -0.5232403548043408 3.929433579771799e-05 2.82340554423353e-06 0 0 0 0
298000000 0.8550190128524473 -0.5362389648150508 -1.9966391784474957e-05 -2.7746059030719656e-06 0 0 0 0
307000000 0.8474958587664135 -0.5471043806657048 -3.1346772994565087e-05 -5.137493640925596e-05 0 0 0 0
316000000 0.8388701317704781 -0.5621008270111221 4.176175212224351e-05 2.669233325524554e-06 0 0 0 0
325000000 0.8310979254888679 -0.5731846940676105 6.755456677379492e-06 2.27265289855367e-05 0 0 0 0
334000000 0.8210313257621282 -0.5868431985543351 -3.1142238866507304e-05 -8.898726768660097e-06 0 0 0 0
343000000 0.8116759700590462 -0.5996830080255775 -2.6046038343285397e-06 3.807290349375738e-05 0 0 0 0
352000000 0.7989065407877022 -0.6141399351121576 3.30287575683089e-05 3.5797628573683924e-05 0 0 0 0
361000000 0.7921366369566297 -0.6229790291096158 -3.8510988884468624e-05 4.479927523298496e-05 0 0 0 0
370000000 0.7803169665623411 -0.6371455372235616 -2.046114574108401e-05 -1.91523510576646e-05 0 0 0 0
379000000 0.7687939891247892 -0.6513173214737694 -1.5223399065763299e-05 -3.9342682803952394e-05 0 0 0 0
388000000 0.7593929420682458 -0.6612958582491711 1.8253516178398987e-05 -5.812761477721478e-06 0 0 0 0
397000000 0.7505767842245007 -0.6735222796612578 8.630961439629194e-07 -3.2151604929173584e-05 0 0 0 0
406000000 0.7373808989642224 -0.6873609985976437 -5.8237722483917495e-06 1.0300010814538304e-05 0 0 0 0
415000000 0.7257175056970849 -0.6992940949036932 -3.151029671592722e-05 9.335722118245273e-05 0 0 0 0
424000000 0.7160337576736191 -0.709457000012974 8.215025124698392e-06 4.415626571649251e-05 0 0 0 0
433000000 0.7037956962651676 -0.7217147904702472 -4.517687183139093e-06 9.962408633932441e-07 0 0 0 0
442000000 0.6949168827474201 -0.7301820929591576 -1.076438754429462e-05 7.790903404265749e-05 0 0 0 0
451000000 0.680084482173044 -0.7437094408268408 -2.3126443588966996e-05 8.766735798778296e-06 0 0 0 0
460000000 0.6694641294695077 -0.755702418684534 -4.0663440150033744e-05 3.656665685217945e-05 0 0 0 0
469000000 0.6552256717127491 -0.7663421236785942 -7.8552232882582e-06 -3.077107927970908e-05 0 0 0 0
478000000 0.6422886101811551 -0.7777165307089666 -8.684799556259672e-05 5.477781400364508e-05 0 0 0 0
487000000 0.6313380007548588 -0.787648913813048 4.867074996116799e-05 -5.834063102762984e-05 0 0 0 0
496000000 0.6202691222005874 -0.7968305501712636 3.6245134975624024e-05 2.8478089341932162e-05 0 0 0 0
505000000 0.6069996329551288 -0.8087049490203688 -6.537783143786309e-06 3.838768078994405e-05 0 0 0 0
514000000 0.5942667876272658 -0.8178256047038354 -4.904438292018383e-05 0.00010012616113310909 0 0 0 0
523000000 0.5775576687018787 -0.8311399763316378 -2.654389218717839e-06 7.603638087440893e-05 0 0 0 0
532000000 0.566013535480787 -0.8392575581295694 -0.00012078861853021938 2.6629854853965707e-05 0 0 0 0
541000000 0.5506354701966943 -0.8493719107663871 5.782931855444931e-05 3.358349333516892e-05 0 0 0 0
550000000 0.5376625270682286 -0.8572937518176531 3.103166567435519e-05 -9.7904090366766e-07 0 0 0 0
559000000 0.5215894922665147 -0.8692887046942611 -5.945427688475669e-05 1.736496822935602e-05 0 0 0 0
568000000 0.5050577175548396 -0.8790883608955135 2.433038437946458e-05 2.0356348470235008e-05 0 0 0 0
577000000 0.489805683127192 -0.890670673034726 1.6898147546954472e-05 -5.486143106357808e-05 0 0 0 0
586000000 0.47725791712986304 -0.8960092331410415 -1.3308052054046849e-05 -1.0094424281673809e-05 0 0 0 0
595000000 0.45697268558228865 -0.9076038707522975 9.270394614102966e-05 4.530024649663561e-05 0 0 0 0
604000000 0.44793440239780896 -0.9125335477103702 -1.594167870717364e-05 -5.5474551898768586e-05 0 0 0 0
613000000 0.4310573151063474 -0.9211105690678437 -5.558165286049013e-05 4.030966378030759e-05 0 0 0 0
622000000 0.4098678255294656 -0.9299728957403456 2.0760732744584126e-05 2.792006536492829e-05 0 0 0 0
631000000 0.39275305689550555 -0.9388330420492688 -2.9193010564951217e-05 1.97158350104197e-05 0 0 0 0
640000000 0.36915645974709227 -0.9484148435678585 -6.0587987929142066e-05 2.5131605661660036e-05 0 0 0 0
649000000 0.3502635780274127 -0.9531596987469781 -2.618666614353636e-06 -9.79800447896092e-05 0 0 0 0
658000000 0.3405688959735499 -0.959667890889253 -3.832072985050227e-05 0.00010215384649826829 0 0 0 0
667000000 0.31679915011260174 -0.9652837407060171 4.743875203427529e-06 2.80191302584844e-05 0 0 0 0
676000000 0.3040157550966492 -0.9718293225030524 -1.3602398618565974e-05 5.823559027939709e-05 0 0 0 0
685000000 0.2803975829187528 -0.9770683906205909 -1.1582761292547703e-05 1.3830676568777451e-05 0 0 0 0
694000000 0.26041895577839363 -0.9797718506744852 4.7018620120067664e-05 0.00011830414021049172 0 0 0 0
703000000 0.24497121358653862 -0.9851366001001306 1.8312115748847278e-05 1.5269292449873548e-05 0 0 0 0
712000000 0.21584012268671043 -0.9895092003621041 6.95671518696716e-06 -6.67356985236946e-06 0 0 0 0
721000000 0.20128701757597534 -0.9900366857348217 3.837873368916787e-05 -1.4457309872358452e-05 0 0 0 0
730000000 0.1789980216268909 -0.9912536392106776 4.058338743376505e-05 -1.553332771803442e-05 0 0 0 0
739000000 0.15833423486526055 -0.9933501917879458 1.1370912550950555e-05 2.6622070822008977e-05 0 0 0 0
748000000 0.1450551948633446 -0.9931998558062158 3.2663514996991483e-06 9.433614557624096e-06 0 0 0 0
757000000 0.12262518241433899 -0.9945156814663747 -4.9968352461829755e-05 4.108744100059209e-05 0 0 0 0
766000000 0.09796782080022051 -0.9950760917344212 0.00012147274769852463 2.42815727109783e-05 0 0 0 0
775000000 0.0777304755613205 -0.9940174356789794 9.517879643117557e-05 6.814088094454672e-05 0 0 0 0
784000000 0.05155081229545338 -0.9886761057176399 2.5671806382233037e-05 -3.0856636312095223e-06 0 0 0 0
793000000 0.040584232779516075 -0.9884038644905206 -4.8070203745926535e-05 2.7181332902037204e-05 0 0 0 0
802000000 0.02155279776035774 -0.9854262998935082 0.00010977025036281585 2.0463195917236973e-05 0 0 0 0
811000000 -0.005399800394721069 -0.9823669657099664 8.99336589670889e-05 -0.00011102736368765222 0 0 0 0
820000000 -0.02213329112832739 -0.9782504172140826 9.951854933093636e-05 -1.9150600878685633e-05 0 0 0 0
829000000 -0.03678240955170716 -0.9726538543052664 6.973092066568086e-05 -4.7565460070699035e-07 0 0 0 0
838000000 -0.06209534048877601 -0.9651775617115037 8.825216751762417e-05 3.520250784744725e-05 0 0 0 0
847000000 -0.07187282925922958 -0.9629531998219503 4.0805475819558294e-05 -7.56394350511506e-05 0 0 0 0
856000000 -0.09308452611124195 -0.9552275781049119 -1.8834576769455417e-05 -6.691459879992363e-05 0 0 0 0
865000000 -0.10532684453880208 -0.9467946230224749 0.00010430039893980627 -2.4646238104808027e-05 0 0 0 0
874000000 -0.12861753153160985 -0.9397125226870218 7.434145243046498e-05 3.488271289315195e-05 0 0 0 0
883000000 -0.14246132396691694 -0.9328259296849521 3.1674926791413626e-06 5.230446645018661e-06 0 0 0 0
892000000 -0.16188488711661767 -0.9260060825916788 -1.7488629759076277e-05 3.3697254987127536e-05 0 0 0 0
901000000 -0.17486880637868985 -0.9172381627771862 6.93481304027493e-05 -1.5080013797430085e-05 0 0 0 0
910000000 -0.18881368578023003 -0.9111515634535872 2.6224028300215786e-05 -1.0718919119298794e-05 0 0 0 0
919000000 -0.20619266355294158 -0.902289725741972 8.025008110493809e-06 5.367670519190691e-05 0 0 0 0
928000000 -0.2240495460033435 -0.8924287478747757 5.333988254747329e-05 2.82237619634309e-05 0 0 0 0
937000000 -0.22975547590163015 -0.8872740906139177 1.6708670783549125e-05 5.4360863461882996e-05 0 0 0 0
946000000 -0.24699623522869749 -0.8780382901919526 -2.2611957972156087e-05 7.19921288457204e-05 0 0 0 0
955000000 -0.2557029358596516 -0.8686008144883391 2.901466997028576e-05 -1.871219912557593e-05 0 0 0 0
964000000 -0.2704217443278675 -0.8617649232005533 -1.0566527526913245e-06 -2.726708649016974e-05 0 0 0 0
973000000 -0.27594697338972685 -0.8550781121880384 5.547196298119194e-05 -3.959689555941654e-06 0 0 0 0
982000000 -0.29003119307744235 -0.8447717831760779 4.056234021217067e-05 1.791269053017082e-05 0 0 0 0
991000000 -0.3023297549963503 -0.8353440751392455 2.665136978367874e-05 -0.0001125713400615726 0 0 0 0
1000000000 -0.31933617698716493 -0.8261449153453213 -5.578525704523666e-06 5.955965320168591e-05 0 0 0 0
