# HZ S RI R 50
100000000 1.0082007953994196 -0.21852504288377084 -5.533941064353144e-05 -2.167464285537428e-06 0 0 0 0
109000000 1.0080378344520347 -0.23436509543828202 -1.4077041109174944e-07 4.7520924416606616e-05 0 0 0 0
118000000 1.002725265898935 -0.2496711520335545 -5.65824160297765e-06 4.647995743336755e-05 0 0 0 0
127000000 0.9962806991256042 -0.26456056959492 -3.590723027880425e-05 1.281757833498996e-05 0 0 0 0
136000000 0.9914805628807956 -0.280566918326481 -1.7391678961093148e-05 -1.5294406303988314e-05 0 0 0 0
145000000 0.9827718529723944 -0.29628338459439174 -3.7204777220443906e-05 5.4880922767557045e-06 0 0 0 0
154000000 0.9767859123537121 -0.31031981034113404 2.6094338971357983e-05 -1.684181709132099e-05 0 0 0 0
163000000 0.9709506527997303 -0.3261958257789778 6.179478109334078e-05 -3.2857571389216006e-05 0 0 0 0
172000000 0.9641979271018178 -0.34001807679665724 -2.7273572708775187e-06 -1.2515437058400172e-05 0 0 0 0
181000000 0.9582093866644605 -0.353693467460642 -2.2179917541181244e-06 9.301829457072227e-06 0 0 0 0
190000000 0.9505783208578806 -0.37005700744913356 -3.337150264505412e-05 1.757651292576886e-05 0 0 0 0
199000000 0.9437647926840603 -0.38445071855729046 -1.2651881807355411e-05 4.387829690454313e-05 0 0 0 0
208000000 0.9359430607330198 -0.3987699562199812 2.0227350580209477e-05 6.35653448943123e-06 0 0 0 0
217000000 0.9288427757427031 -0.4135090440501815 2.629108211483838e-05 -2.141634894976306e-05 0 0 0 0
226000000 0.9226315212588267 -0.42617005108587375 5.685566716652822e-06 4.191652742810952e-05 0 0 0 0
235000000 0.9143847664010462 -0.4415443249767746 4.751207167793542e-05 -3.8863815069972314e-05 0 0 0 0
244000000 0.9077296616870897 -0.4539305592623144 5.663720679238823e-05 -2.0974844232531274e-05 0 0 0 0
253000000 0.8993625917270905 -0.468544828940248 6.054080587412078e-05 -3.674211231773351e-05 0 0 0 0
262000000 0.8912342407259812 -0.4812105628843681 -4.052331831603645e-05 4.057681589891317e-05 0 0 0 0
271000000 0.8821407161114568 -0.4962120358836241 4.806035607887064e-05 -4.783986952540947e-05 0 0 0 0
280000000 0.8746073351325733 -0.508672946472567 -4.075724077369918e-05 -1.701915386069403e-05 0 0 0 0
289000000 0.8644530894189311 -0.522839723432431 2.222407736119994e-05 -4.353518008326325e-06 0 0 0 0
298000000 0.8571830937866165 -0.5351035534920452 7.268657364770165e-06 4.92817343248196e-05 0 0 0 0
307000000 0.8472255428174474 -0.5477974123900172 3.215034949597781e-05 2.7500387436246016e-05 0 0 0 0
316000000 0.8413916503190424 -0.5593969606483524 -5.5860611269356106e-05 -1.4688606520475261e-05 0 0 0 0
325000000 0.832523877917108 -0.571620385517816 -2.577354570420498e-05 2.637284435044654e-05 0 0 0 0
334000000 0.8198132149595962 -0.5882389413526139 -1.5916473589521896e-05 -1.748414732072719e-05 0 0 0 0
343000000 0.8103743842894687 -0.5997116465233878 -5.303784270295937e-05 -3.412786957131525e-05 0 0 0 0
352000000 0.7993982658156794 -0.6159347339939705 1.3489170419364788e-05 0.0001079350575102272 0 0 0 0
361000000 0.7910730652719064 -0.6255579337317935 1.3954198565692055e-05 -8.928278825131171e-06 0 0 0 0
370000000 0.780356552259872 -0.6373410158123036 -2.2934700624578317e-05 3.263723850791767e-05 0 0 0 0
379000000 0.7707534030504575 -0.6491415866241634 1.9259164128894682e-05 -5.042934460605723e-05 0 0 0 0
388000000 0.7603955152876181 -0.6612080959799266 4.002606772830341e-06 -5.557077983128996e-05 0 0 0 0
397000000 0.7474540334454208 -0.6750321059744475 -9.465813858397841e-06 5.454283414203966e-05 0 0 0 0
406000000 0.7417454420219162 -0.6820895521201557 1.8928310768847666e-05 4.3765273771743846e-05 0 0 0 0
415000000 0.7256288864362296 -0.6975795662802747 2.9208282916013017e-05 -3.778502132348967e-05 0 0 0 0
424000000 0.7148601195336591 -0.7089930390147436 -2.7373824589654323e-05 4.66687949322403e-05 0 0 0 0
433000000 0.7031317314309692 -0.7221912714199185 -1.5334378503985894e-05 -1.5039057821173654e-06 0 0 0 0
442000000 0.6947449411778697 -0.7305209490157059 -3.932432947448407e-05 -6.672552859539337e-06 0 0 0 0
451000000 0.6800044372743884 -0.7436452468742049 -3.1233387249092775e-05 -3.938828933796923e-05 0 0 0 0
460000000 0.6701189524918812 -0.7530796353155514 5.138903182996567e-05 2.8275375649186822e-05 0 0 0 0
469000000 0.6558756030094477 -0.7662851661042326 3.564371698495553e-05 -6.347495150932844e-05 0 0 0 0
478000000 0.6428386608860592 -0.7778188139763736 7.401356560210817e-05 -1.5880247259287803e-05 0 0 0 0
487000000 0.6305803529022471 -0.7884757646467833 -3.918911182023539e-05 -4.4690323579849134e-07 0 0 0 0
496000000 0.6183882206420273 -0.7986407495818904 -3.405515817229688e-05 6.864905247104068e-05 0 0 0 0
505000000 0.6073985585528628 -0.8079194573983269 -1.5332705330621805e-05 -2.6178019568874786e-05 0 0 0 0
514000000 0.5940794904266468 -0.8171550447303754 -4.545202858991112e-05 -3.413679040832441e-05 0 0 0 0
523000000 0.5782543411163366 -0.8307756736070213 5.996629699456917e-07 -3.808363756765857e-05 0 0 0 0
532000000 0.5679668379884651 -0.8388814188862582 4.902872269501229e-05 -4.617705561266182e-06 0 0 0 0
541000000 0.5503780995316822 -0.8503206278411608 -1.280843264265559e-05 1.746854863986254e-05 0 0 0 0
550000000 0.5406787146816202 -0.8584436919468984 2.0172451513014273e-05 5.387237177494773e-05 0 0 0 0
559000000 0.5197839557209667 -0.8708474797305182 1.5370174026669072e-05 9.006307145522673e-05 0 0 0 0
568000000 0.5052939056217312 -0.8803553932615343 6.159671831244141e-07 -2.6987147932036274e-05 0 0 0 0
577000000 0.4899482691791949 -0.8878412310821898 -2.3424748966434402e-05 -8.888977234394362e-06 0 0 0 0
586000000 0.47270535466281804 -0.8999011089216987 -6.642451206963675e-05 2.6918364310443072e-05 0 0 0 0
595000000 0.46351096891112303 -0.9067639965616827 -3.183944516888494e-05 3.95627116681624e-05 0 0 0 0
604000000 0.442402490058571 -0.9156108634676956 2.3206565399366084e-05 -4.265976297229817e-05 0 0 0 0
613000000 0.42774989269731184 -0.9224207398538525 1.2027827396698368e-05 -7.926504373241337e-05 0 0 0 0
622000000 0.4092586619409274 -0.9301682096765137 -3.136598584318081e-05 -2.5117541748833582e-05 0 0 0 0
631000000 0.38895212518289773 -0.9401298137595424 -9.106599934463957e-06 -9.124695269793667e-06 0 0 0 0
640000000 0.371525228995877 -0.9460700075726043 3.518325392235604e-05 5.610882310823767e-05 0 0 0 0
649000000 0.3554343843538677 -0.9513054629819311 4.002194003325396e-05 1.791279787811347e-05 0 0 0 0
658000000 0.33745113077436406 -0.958638937677337 -5.572183869281432e-05 -1.833353961269492e-05 0 0 0 0
667000000 0.3165974378670094 -0.9665908399757537 -3.0954447045980256e-06 4.170395859924894e-05 0 0 0 0
676000000 0.30171474440683976 -0.9703261527288646 -5.804922708919438e-05 -1.9485103170131022e-05 0 0 0 0
685000000 0.2821857704510585 -0.9744290200017259 4.695374687258374e-06 4.593751168828572e-05 0 0 0 0
694000000 0.25594112250088363 -0.9833218500625781 -1.6474989873021823e-05 1.02194036158374e-05 0 0 0 0
703000000 0.23781983168457474 -0.9870524621102477 -1.7724112979311784e-05 7.013961776107977e-05 0 0 0 0
712000000 0.22200396663436286 -0.988959183679252 2.7729475987776773e-06 0.00010582685315236561 0 0 0 0
721000000 0.2008232813060707 -0.9923480475725974 2.18119959369635e-05 -2.2439545693142345e-05 0 0 0 0
730000000 0.18443680424779085 -0.9925265626772155 -3.508367083155929e-05 2.5774945536220207e-05 0 0 0 0
739000000 0.15447697207654448 -0.9955365035324225 -1.5677079525473804e-05 7.137822911572016e-05 0 0 0 0
748000000 0.14329903266967214 -0.9948985396584655 1.0289796562304201e-05 3.539456970547875e-06 0 0 0 0
757000000 0.1133145574526052 -0.9963063584794194 2.6059526124408196e-05 9.517146340677209e-05 0 0 0 0
766000000 0.0990015673633192 -0.9952498557985263 2.285506892320413e-05 7.412763757499037e-05 0 0 0 0
775000000 0.08553005199687004 -0.9906376395986948 7.495500751312242e-05 -5.155996993275634e-06 0 0 0 0
784000000 0.05335627417565671 -0.9926614659126205 3.6479022241357296e-05 8.08614238096656e-05 0 0 0 0
793000000 0.03578193204135502 -0.9886285311213553 -4.7640147043294463e-07 4.3002602564738095e-05 0 0 0 0
802000000 0.011292412275148437 -0.9852824843610504 -1.3380839664730846e-05 -5.395205960557981e-05 0 0 0 0
811000000 -0.004284949153069925 -0.9807564693191959 4.7833657477153065e-05 -2.201255400922882e-05 0 0 0 0
820000000 -0.0173133549198489 -0.978053918234926 4.73961992100984e-05 -3.401212500344983e-05 0 0 0 0
829000000 -0.03386567052350956 -0.9744096582837064 6.300484007202054e-05 -4.284197287120102e-05 0 0 0 0
838000000 -0.0592503793910217 -0.9659785720638353 6.819947352453687e-06 -1.6814486911226408e-05 0 0 0 0
847000000 -0.07455256966049457 -0.9621067579147227 1.232763525633362e-05 5.354857689413067e-07 0 0 0 0
856000000 -0.09534583072408637 -0.9540119889643568 9.368330474681824e-05 2.005553606227725e-05 0 0 0 0
865000000 -0.10654424918202875 -0.9477259097961754 -5.614189508618803e-06 -2.85486203738814e-05 0 0 0 0
874000000 -0.12241502466836884 -0.9420006964493888 1.9561965948594265e-05 -2.7607763792028914e-05 0 0 0 0
883000000 -0.14522339036100765 -0.9352489125012483 6.210459756789871e-05 -8.121005318926411e-05 0 0 0 0
892000000 -0.15797494555317868 -0.9273449196823642 -3.3584044593410753e-05 -6.196350377899616e-05 0 0 0 0
901000000 -0.17261889727982227 -0.9185305676307741 1.7398355894742423e-05 3.116708884657666e-05 0 0 0 0
910000000 -0.18198165356697615 -0.9125081994053404 -2.4411722213352344e-07 1.075594452835505e-06 0 0 0 0
919000000 -0.19756347036418692 -0.9045273883626471 3.548394897088347e-05 -4.529939918748524e-05 0 0 0 0
928000000 -0.2189806600717703 -0.8929023262006559 -4.315192461110621e-05 -1.2006606890198562e-05 0 0 0 0
937000000 -0.2398627798749637 -0.8853915316048521 -3.324988079254314e-05 3.974309155827359e-05 0 0 0 0
946000000 -0.24734758672439186 -0.8771437300166096 8.309920363599832e-06 -5.0750343350869993e-05 0 0 0 0
955000000 -0.2554057448045012 -0.8687831665620963 7.165009932892376e-07 2.4533426500224563e-06 0 0 0 0
964000000 -0.268971904655632 -0.8615193309073852 7.081419166178455e-05 -3.5606714215753243e-06 0 0 0 0
973000000 -0.2843496350061974 -0.8515911169617135 2.7624795319802673e-05 2.5457707235799042e-05 0 0 0 0
982000000 -0.2928586754315237 -0.844405363910107 2.283722559014057e-06 3.9242933200803675e-05 0 0 0 0
991000000 -0.30389749873742006 -0.8358520316637703 8.173246054455913e-06 -3.120809351759903e-05 0 0 0 0
1000000000 -0.3196726576784585 -0.8245471345423028 3.181835685955827e-05 1.4295031429808928e-05 0 0 0 0
