# HZ S RI R 50
100000000 1.0084224927999228 -0.21952347232107416 -1.689822725990029e-05 -1.0284889012221127e-05 0 0 0 0
109000000 1.0074863699206629 -0.23424648413394128 -1.4528044654233767e-05 -1.2004373663904024e-05 0 0 0 0
118000000 1.0025074820639102 -0.24959937697590368 -3.327874549813699e-05 7.431784887977623e-05 0 0 0 0
127000000 0.9969304009191732 -0.26466246941050164 5.256430732562231e-05 1.3210454870685854e-05 0 0 0 0
136000000 0.9912044657305943 -0.27998433088247415 3.2146132757098636e-05 -2.1924913404160744e-05 0 0 0 0
145000000 0.9832192137392849 -0.2945436484280821 1.9766332906767163e-05 5.2919681444958336e-06 0 0 0 0
154000000 0.9769608845594052 -0.31130601023038257 7.258477100149128e-05 8.604372788979475e-05 0 0 0 0
163000000 0.9708566229759269 -0.3250952930414698 2.766789432225594e-05 -4.031350086615524e-06 0 0 0 0
172000000 0.9643319310525278 -0.3411743350788439 -4.5881363310789646e-05 2.039426364852645e-05 0 0 0 0
181000000 0.9573344246378027 -0.35565537319896595 -1.8627975188462978e-05 1.0668343388692876e-05 0 0 0 0
190000000 0.9513523591725475 -0.3693786533646286 -5.231351012665537e-05 -5.5899750082697425e-05 0 0 0 0
199000000 0.9431816854544096 -0.3854455034128856 1.4914915675129092e-05 9.587709935691675e-06 0 0 0 0
208000000 0.9370689482637695 -0.39806267878280893 -2.642299764544172e-05 -8.216939170715554e-05 0 0 0 0
217000000 0.9291734712634597 -0.4145421189009324 -3.567740885550757e-05 -1.0647176396381517e-05 0 0 0 0
226000000 0.9216557940154849 -0.427363479621087 1.0451342737342446e-05 -4.4163906632655045e-06 0 0 0 0
235000000 0.9145108073723284 -0.44017031385093464 3.1766981261815896e-05 -4.477008130681544e-05 0 0 0 0
244000000 0.9061060604976279 -0.455741015857783 -3.0179012113891992e-05 4.37167684952373e-06 0 0 0 0
253000000 0.8991634514839265 -0.4684218868554403 -7.354818843146675e-07 -1.3260438223850372e-05 0 0 0 0
262000000 0.8895206960331767 -0.4841135799012347 -1.0883711934460302e-05 -2.3331933509352024e-05 0 0 0 0
271000000 0.8827814208453502 -0.49642143566044794 5.4348901077817086e-05 3.485764314849838e-05 0 0 0 0
280000000 0.8737635289603024 -0.5094079926742869 2.023480882096756e-05 8.91290435031295e-05 0 0 0 0
289000000 0.8655969541549566 -0.5221214800248629 1.8121198722629788e-06 -8.026164274786712e-06 0 0 0 0
298000000 0.855944953385926 -0.5353264228673672 -4.2150796493901725e-05 -2.302224148803543e-05 0 0 0 0
307000000 0.8483771091166603 -0.5487520192106905 -5.489655683817564e-06 2.516437586639079e-05 0 0 0 0
316000000 0.8382747473054581 -0.5634367766729399 6.267179677334409e-05 -2.8210237550927076e-05 0 0 0 0
325000000 0.8290892949009833 -0.5759557375765293 -3.684491962380669e-05 -1.23973153778557e-05 0 0 0 0
334000000 0.8204754636571215 -0.5860885640753865 -4.5158177188109546e-05 2.4406511673100502e-05 0 0 0 0
343000000 0.8114113600400201 -0.5990075735504932 -6.678203452706713e-06 -2.795993823880966e-05 0 0 0 0
352000000 0.8014165306677138 -0.6112693030427133 3.7293046947065644e-05 -4.66825828997232e-05 0 0 0 0
361000000 0.7924781652532579 -0.6247799392811763 -5.927965697653361e-05 -3.6435757321273084e-06 0 0 0 0
370000000 0.7804634732804727 -0.6383778788152596 3.550939650562186e-05 4.041470654709795e-05 0 0 0 0
379000000 0.7707765630895854 -0.6494303593276333 6.570334749066534e-06 -6.755379765672215e-05 0 0 0 0
388000000 0.7604615385481698 -0.661851923686917 -2.1484436419569895e-05 3.202513467660814e-05 0 0 0 0
397000000 0.7499508412294547 -0.6726839936790963 5.294440078812974e-05 -2.1684419087138993e-05 0 0 0 0
406000000 0.7390820601962489 -0.6859718793310116 -6.168910988631488e-05 -9.13157131244396e-05 0 0 0 0
415000000 0.7285176769629429 -0.6973716749403392 2.2565078614815092e-05 -3.840531015422039e-05 0 0 0 0
424000000 0.7154163869629582 -0.7085943677659965 3.8551585435146725e-06 1.2744853081311948e-05 0 0 0 0
433000000 0.7039925206827956 -0.7200840818638657 1.0319904557700365e-05 -8.6999619561634e-06 0 0 0 0
442000000 0.6946200930190644 -0.7301587275255537 5.3363526769887264e-06 -3.2583206370854016e-05 0 0 0 0
451000000 0.6820444607687166 -0.7430752774134212 3.1857385671599898e-06 5.138699387079165e-05 0 0 0 0
460000000 0.6745746741201293 -0.7513872973949793 1.6248551962409228e-05 -7.98324174897812e-05 0 0 0 0
469000000 0.6580007673471345 -0.7652796084639498 5.360406080482532e-06 -4.708879042638222e-05 0 0 0 0
478000000 0.64570462783691 -0.7753376582872833 2.0701405983220482e-05 -5.591969539634748e-05 0 0 0 0
487000000 0.6359563170817091 -0.784269968262415 6.996914819798284e-05 -4.560494685583617e-05 0 0 0 0
496000000 0.6204483907460538 -0.7965785061069955 2.179987972913479e-05 7.479834051691346e-05 0 0 0 0
505000000 0.6059375649900581 -0.8080734141045627 -0.00011253581534947532 -4.187567695019043e-05 0 0 0 0
514000000 0.5921595856457379 -0.8195536533849801 1.991842651118913e-05 1.6635231578447213e-05 0 0 0 0
523000000 0.580736997168601 -0.8292760497173853 5.7165938412527913e-05 1.0436643234241698e-05 0 0 0 0
532000000 0.5643597974443978 -0.8406957479475125 -3.269277327504246e-05 -1.3309173930707282e-06 0 0 0 0
541000000 0.5555914339462116 -0.8474209383733009 -2.4387051093257953e-05 -8.516210085630327e-06 0 0 0 0
550000000 0.5359219532015018 -0.860539631005308 -3.962906769113497e-05 6.550942234877607e-05 0 0 0 0
559000000 0.5168858779364709 -0.872185058253517 -2.8983884496355197e-05 -4.335619883128751e-05 0 0 0 0
568000000 0.506771893357789 -0.8783727008552563 2.0948412960145717e-05 5.943001925626245e-05 0 0 0 0
577000000 0.49105737021274065 -0.8894359120726705 4.219454484858523e-05 -6.395127946908631e-05 0 0 0 0
586000000 0.47675379474987073 -0.8976356882717095 2.5982124794599208e-05 0.00013460085211019078 0 0 0 0
595000000 0.4588424719749607 -0.9061131062101436 -7.310927778413415e-05 2.2179379233302747e-06 0 0 0 0
604000000 0.4425372652041531 -0.9153837391295933 6.397178033660794e-05 -3.096627899434178e-05 0 0 0 0
613000000 0.42777900824903364 -0.9230475190681151 -3.1173252835181056e-05 -1.4731855477319929e-06 0 0 0 0
622000000 0.4089921808232171 -0.9306071246658951 1.961479252577975e-05 -1.6536802013535e-05 0 0 0 0
631000000 0.39280511283254294 -0.9394313254337349 -6.462249577031738e-05 -4.228973243310716e-05 0 0 0 0
640000000 0.3730646222142908 -0.9467769264895874 1.2368172961271706e-06 4.290330317495065e-05 0 0 0 0
649000000 0.357466103129248 -0.9527377213710903 5.208348548910946e-05 -5.27575828036586e-06 0 0 0 0
658000000 0.3306309098253702 -0.9626179453183645 -2.058260371590729e-05 2.3283415265037774e-05 0 0 0 0
667000000 0.3196174993706626 -0.9658478738685722 1.5773682001705018e-06 7.296216235793205e-05 0 0 0 0
676000000 0.29979729326467147 -0.9718529031723793 2.1415134341707203e-05 2.9701897263016706e-05 0 0 0 0
685000000 0.27885922943631525 -0.9766113326263715 1.6724073249702095e-06 1.8206408478070817e-05 0 0 0 0
694000000 0.2626630270001764 -0.9806151882037497 -5.216029815385482e-05 5.0759244499901865e-05 0 0 0 0
703000000 0.2411087251828085 -0.9868422598014226 3.856586735163943e-05 6.258410748101389e-05 0 0 0 0
712000000 0.22169282290572767 -0.987362973106673 -9.576192437804489e-05 4.3597825058554425e-05 0 0 0 0
721000000 0.19979520282743157 -0.9922317714201575 1.619250095341028e-05 9.281966207685039e-06 0 0 0 0
730000000 0.17746914272808567 -0.9935520551333505 3.6183096136861058e-06 -5.579760924191345e-05 0 0 0 0
739000000 0.163117812100826 -0.9929036836255111 6.214204306080579e-05 8.296644695453728e-06 0 0 0 0
748000000 0.13626507492057124 -0.9971055473063017 0.00011368417336715496 5.281250543022419e-05 0 0 0 0
757000000 0.11712006457926119 -0.9948409327608683 2.2182297768386353e-05 5.1435112926819166e-05 0 0 0 0
766000000 0.10044063793618142 -0.994999324407627 -1.662576143881179e-06 -1.3510522456649428e-05 0 0 0 0
775000000 0.0826998719304346 -0.990904127020202 7.258062740697556e-05 -3.767256642838012e-05 0 0 0 0
784000000 0.06269601717966476 -0.9901553195986215 4.904801321799895e-05 7.633359591274514e-05 0 0 0 0
793000000 0.04294731053516751 -0.9872727517751876 4.385304833457074e-05 7.709084132922377e-05 0 0 0 0
802000000 0.020764545548936236 -0.986006429341316 2.3081328951561355e-05 5.396414901502933e-05 0 0 0 0
811000000 -0.008111167833670632 -0.982451256624644 4.46162546064692e-05 7.776451670810586e-05 0 0 0 0
820000000 -0.020712354940888567 -0.9777320121106176 2.0715224063123857e-05 -3.869227939220845e-05 0 0 0 0
829000000 -0.039142165725013306 -0.9733560695462325 8.034496293605056e-05 -2.39555358505409e-05 0 0 0 0
838000000 -0.05383619938406346 -0.9664490322696557 8.303873577567568e-06 1.0774453636819935e-05 0 0 0 0
847000000 -0.07905434447513252 -0.9612571114023707 4.2885928525413106e-05 -3.835468727749882e-05 0 0 0 0
856000000 -0.08572477885628345 -0.9558227124905604 -7.875360187451419e-05 1.1184758420468316e-05 0 0 0 0
865000000 -0.11013018260837777 -0.9462395888823931 6.510569209488667e-06 7.610163316380532e-05 0 0 0 0
874000000 -0.13123641657944804 -0.939839791617351 -1.030051249789783e-05 8.72781873030966e-06 0 0 0 0
883000000 -0.14572886188730577 -0.9328767478394447 1.427555359395534e-05 -5.7259080449424746e-05 0 0 0 0
892000000 -0.15549544158538933 -0.9264228288443067 7.38476666765457e-06 -6.166555618818204e-06 0 0 0 0
901000000 -0.17978322938401245 -0.9184002328067307 2.6367532495615104e-05 -5.438683056532943e-05 0 0 0 0
910000000 -0.1942611789523428 -0.9100365429949401 -1.7901374568141725e-05 2.9231284109420176e-05 0 0 0 0
919000000 -0.20525306720239844 -0.9018019528138074 1.8983214878927143e-05 -3.167877316783455e-05 0 0 0 0
928000000 -0.21332191315640225 -0.8939752506591069 -6.038971981499299e-05 2.532457457495366e-05 0 0 0 0
937000000 -0.2358604381955876 -0.8856328029816147 -2.25914580926931e-06 9.992045252096897e-05 0 0 0 0
946000000 -0.24576015615045588 -0.8778858999095972 3.5666961513414915e-05 7.161210010333642e-05 0 0 0 0
955000000 -0.2579814647952824 -0.8693410475953279 6.884482741478321e-05 2.7193177284805172e-05 0 0 0 0
964000000 -0.26693379280384494 -0.8621127819833849 1.990173862887952e-05 2.3489495964469663e-05 0 0 0 0
973000000 -0.2792998168810094 -0.8539407589105757 1.8630096808737418e-05 1.326348252280029e-05 0 0 0 0
982000000 -0.29602125654511985 -0.8420218268957909 -3.6342023577800355e-05 5.629926683374398e-06 0 0 0 0
991000000 -0.30406733113192197 -0.8360695644974303 -8.241188998756756e-05 -5.19532593382007e-06 0 0 0 0
1000000000 -0.3154540116209377 -0.8270969164339431 -3.0753484297194777e-05 1.6065762420234537e-05 0 0 0 0
