# HZ S RI R 50
100000000 1.0125776028868452 -0.21921590046179662 -6.195192061057022e-05 -2.947103016252273e-05 0 0 0 0
109000000 1.0078155558782438 -0.23460920633780555 -3.0360338407503487e-05 -2.0783841988699124e-05 0 0 0 0
118000000 1.0025160239868707 -0.24916082875607404 -7.429840662373756e-05 -2.2409299300838157e-05 0 0 0 0
127000000 0.9973346472020012 -0.2651937637588598 -5.577109526287433e-05 -8.042358982855937e-06 0 0 0 0
136000000 0.9912299348709231 -0.27978783686504566 -3.373548297328386e-05 -1.936619899413021e-05 0 0 0 0
145000000 0.9831449109317456 -0.2952768692512743 1.8749135828656055e-05 2.104040838197861e-05 0 0 0 0
154000000 0.9773386052627181 -0.3101400692200831 1.3271355207082576e-05 4.6038003766200305e-05 0 0 0 0
163000000 0.970618096219101 -0.325568789129886 -2.3239599253799844e-05 2.2502521126016643e-05 0 0 0 0
172000000 0.9645923250744101 -0.33970660420558174 0.00010469331656750507 1.2212051177019797e-05 0 0 0 0
181000000 0.9575515805706877 -0.35663948990376665 -1.5825306424448602e-05 2.2712377074382923e-05 0 0 0 0
190000000 0.9505707198239932 -0.3710674437865109 -4.6120216852117764e-05 -1.2092298610635595e-05 0 0 0 0
199000000 0.9438970104592925 -0.3844750261061955 2.3283400482198094e-05 -3.561597914408592e-05 0 0 0 0
208000000 0.9369281534035674 -0.3981735179759776 4.619740066201503e-05 -9.193810335880453e-06 0 0 0 0
217000000 0.9290197897387815 -0.4139305394787967 4.7047025432635766e-05 4.483621713907646e-05 0 0 0 0
226000000 0.9228254658459578 -0.42750061438034365 -3.01133512032907e-05 6.552609875959315e-06 0 0 0 0
235000000 0.9140348802501632 -0.44165950694947737 -5.423571345256199e-05 4.935260445239434e-05 0 0 0 0
244000000 0.907808244230872 -0.45393454408200357 3.257752776151689e-05 7.37053658437417e-06 0 0 0 0
253000000 0.8986002317475175 -0.46863447309467055 -4.3486257787909736e-05 1.654429393567155e-05 0 0 0 0
262000000 0.8908940124806108 -0.4816837709222727 -2.914348880418593e-06 9.361586266973584e-06 0 0 0 0
271000000 0.8828263651035279 -0.496225228380086 4.0493178118993195e-05 0.00010218453614999004 0 0 0 0
280000000 0.8738337275888494 -0.5093962804561195 3.323761216532468e-05 -1.9401625763246453e-05 0 0 0 0
289000000 0.8661646139365599 -0.5205159111989811 2.875675605216769e-05 -8.65433563736119e-07 0 0 0 0
298000000 0.8570823696561539 -0.5362260896887794 1.5901639699767627e-05 2.0644358599337268e-05 0 0 0 0
307000000 0.8492126155761606 -0.5483673595347726 -3.747377421255045e-05 2.5140887480088994e-05 0 0 0 0
316000000 0.8392229642339571 -0.5617450948676335 8.724472079808384e-06 -1.5048253680899934e-05 0 0 0 0
325000000 0.8298873415581254 -0.5735071826918648 2.85682465583385e-05 -1.5098925041646601e-05 0 0 0 0
334000000 0.8206529269570808 -0.5854653246536493 -3.644467503186181e-05 2.9873281584081478e-05 0 0 0 0
343000000 0.8095066703385053 -0.6015344253073271 4.962655645683165e-05 -1.565429309091164e-05 0 0 0 0
352000000 0.8014675322290962 -0.6140598862319615 5.868592637716583e-06 -2.109759177974483e-06 0 0 0 0
361000000 0.7920728781799367 -0.6258636163279858 -2.644954836231034e-05 -1.907733880919775e-05 0 0 0 0
370000000 0.7796356645588558 -0.6372201867402786 -5.857476565615657e-06 -1.7619401121178319e-06 0 0 0 0
379000000 0.7706722905877115 -0.6487442322744348 3.7009707898165737e-06 -6.152065450023517e-05 0 0 0 0
388000000 0.759680243545867 -0.6612872905804855 3.891161940139914e-05 -3.6337697554315594e-05 0 0 0 0
397000000 0.7488160545781083 -0.6741627034725998 -3.615957397737476e-05 -5.06952693117044e-05 0 0 0 0
406000000 0.736904714594917 -0.6868593588741694 -4.489895089242151e-06 -3.351288497915532e-05 0 0 0 0
415000000 0.7274898531527438 -0.696524757260389 2.3903370109429344e-06 -1.490049513181156e-05 0 0 0 0
424000000 0.7149073139827637 -0.7098117208154346 -2.0066069114909e-05 2.6971072797406866e-05 0 0 0 0
433000000 0.7085966393007842 -0.7183404437835421 4.736181973653022e-05 2.9892862388622086e-05 0 0 0 0
442000000 0.6938832826564545 -0.7318065582729613 8.11244672544922e-06 4.440332934463575e-05 0 0 0 0
451000000 0.6810003576423154 -0.7433721795204378 -5.57334327256831e-05 -1.5795078109984674e-05 0 0 0 0
460000000 0.6694174509561126 -0.7550988857486169 1.922583134256466e-05 1.9005514636717402e-05 0 0 0 0
469000000 0.6581262942988775 -0.7648524252804874 3.1225424368696454e-05 1.7982458957906905e-05 0 0 0 0
478000000 0.6441614537717636 -0.7769098767578456 2.948138684927708e-05 3.3513711241490732e-06 0 0 0 0
487000000 0.6325514237441962 -0.7882568761149008 1.1289026215307748e-05 2.0494103964499885e-05 0 0 0 0
496000000 0.6228432077365437 -0.7957230100809647 9.246923605853616e-05 4.7050680528849614e-05 0 0 0 0
505000000 0.608542993704708 -0.8078740760922292 -6.162615729090252e-05 -3.897886195464333e-05 0 0 0 0
514000000 0.5931305787374245 -0.8191014857843687 -1.091925258392837e-06 -5.717468656226072e-06 0 0 0 0
523000000 0.5780676597408022 -0.830413978165964 -2.09582535821021e-06 -5.361397044615989e-05 0 0 0 0
532000000 0.5669206082516907 -0.8391380877693252 3.0356646405750126e-05 2.1191449597093642e-05 0 0 0 0
541000000 0.549966619688822 -0.8513037233512107 -7.332869745584491e-06 4.402502837863457e-05 0 0 0 0
550000000 0.5365038096298838 -0.8607308098645815 4.3950912834778006e-05 5.505111568349909e-06 0 0 0 0
559000000 0.5162504200295841 -0.8740522276554994 3.91917841248995e-05 1.766538013496594e-05 0 0 0 0
568000000 0.506983508065448 -0.878450760702132 4.136151476119029e-07 -4.0784320575326155e-06 0 0 0 0
577000000 0.49119771691962333 -0.8897490948063431 -7.286646805904033e-06 6.488336728055968e-05 0 0 0 0
586000000 0.47715770124726 -0.8961042475143515 -1.2244932120441928e-05 1.4328624325182444e-05 0 0 0 0
595000000 0.4592243578758741 -0.9059603540414163 6.4551465349065445e-06 -4.419211925327931e-06 0 0 0 0
604000000 0.44769595974066945 -0.9136714325540509 -6.674625317057611e-05 5.982342771308832e-05 0 0 0 0
613000000 0.42483638767891047 -0.9242798818903366 1.4621197802932137e-06 4.061193106468835e-05 0 0 0 0
622000000 0.40174360473924375 -0.9347996374037097 -6.362694044216225e-05 3.9807143802374603e-07 0 0 0 0
631000000 0.3857483658549216 -0.9429745405827598 -5.946743540859091e-07 2.3688731563955828e-05 0 0 0 0
640000000 0.3745803485700597 -0.9453547287349336 -1.0645726052731396e-05 -2.2339715994382507e-05 0 0 0 0
649000000 0.34917144792420063 -0.9542231669070763 7.589925686418879e-05 6.621876561219171e-05 0 0 0 0
658000000 0.3427970205953193 -0.9574526665790225 1.4000642595886548e-05 2.1388225058896628e-05 0 0 0 0
667000000 0.32054559355621864 -0.9643265092250066 7.744169441397905e-06 1.6487737907132374e-05 0 0 0 0
676000000 0.30167217970196786 -0.9716958203167765 4.97606416160656e-05 3.9512850259398706e-05 0 0 0 0
685000000 0.27774429231147485 -0.9790435661684339 2.567044346726283e-05 1.4209465772305366e-05 0 0 0 0
694000000 0.25446048821504774 -0.9832962838930298 2.3759516976755425e-05 9.348028447617587e-05 0 0 0 0
703000000 0.24237650560404264 -0.9829912721750597 3.692094155568897e-05 4.766537695959419e-05 0 0 0 0
712000000 0.21954891462227513 -0.9861329009187524 3.330398038644715e-05 -2.7672757913512284e-05 0 0 0 0
721000000 0.20017442119016707 -0.9912986288062052 8.386293545048193e-05 2.454031629976841e-05 0 0 0 0
730000000 0.17791538446270558 -0.9934009185390098 -6.542468051650619e-05 -5.1343224439162384e-05 0 0 0 0
739000000 0.16557509287425184 -0.9944826597118631 5.28201133317076e-05 9.153128072166559e-06 0 0 0 0
748000000 0.13959889001351777 -0.9954293589265125 -1.1309750314854728e-05 3.237513047171066e-05 0 0 0 0
757000000 0.12115151729510601 -0.9956468636675063 4.4988842218694394e-07 -1.2093027425027731e-05 0 0 0 0
766000000 0.09514077449898892 -0.9950450494580578 7.334061137636484e-05 8.087804919322342e-05 0 0 0 0
775000000 0.07921166692455033 -0.9935009333157263 3.885248934666656e-05 9.009914366386016e-06 0 0 0 0
784000000 0.05689116300100899 -0.9920139687821727 8.385448056287323e-05 -5.488169784943695e-05 0 0 0 0
793000000 0.031116023663912168 -0.9887487905777225 9.443476942594555e-05 -4.852652446882424e-05 0 0 0 0
802000000 0.018809747357813954 -0.9866539734746985 0.00012906308131768813 -6.036228672694433e-05 0 0 0 0
811000000 -0.0038257193526661944 -0.9823931953623741 -9.476615523074546e-07 -0.00010075327111296732 0 0 0 0
820000000 -0.01589940199847959 -0.977542514078822 4.4025234196107155e-05 -2.639309391149192e-05 0 0 0 0
829000000 -0.0485323833278447 -0.9737504839897149 -3.776358774092841e-05 -3.345468779674249e-05 0 0 0 0
838000000 -0.05939026525713236 -0.965179613256865 5.018881462583154e-05 -2.4883758721072686e-05 0 0 0 0
847000000 -0.07763011150705931 -0.9608270354381936 2.4508949369340073e-05 3.108604262057339e-05 0 0 0 0
856000000 -0.1034466576840537 -0.9542737101077468 4.786050297964334e-05 9.128822770759022e-05 0 0 0 0
865000000 -0.11142638878853373 -0.9489345313177482 -1.2326430018274263e-05 2.6552415509913774e-05 0 0 0 0
874000000 -0.13330680756719984 -0.9405212936264301 2.240005428196157e-05 1.8102754702539406e-05 0 0 0 0
883000000 -0.13688344360474156 -0.9339889350142769 1.8332055547990074e-06 -2.2498949897182173e-05 0 0 0 0
892000000 -0.1549268298732026 -0.9270501974269298 -3.8162633948783454e-05 1.2388823676224322e-05 0 0 0 0
901000000 -0.17006902149773787 -0.9202143541993968 -3.929793818698321e-05 3.098906428742778e-05 0 0 0 0
910000000 -0.1839776883239324 -0.9111603329276767 -2.3834917714354517e-05 2.891173193659167e-05 0 0 0 0
919000000 -0.19709931270525582 -0.9052529932109579 4.638845390497878e-05 2.3832940052900653e-05 0 0 0 0
928000000 -0.21665013790104956 -0.8934356887637777 2.402569193522628e-05 -4.597980585719168e-05 0 0 0 0
937000000 -0.2352907110816731 -0.8856006634667376 4.325082817761432e-05 8.334717150089134e-06 0 0 0 0
946000000 -0.24705810248504181 -0.8763448039159829 -6.292886833159988e-05 1.5064072840264968e-05 0 0 0 0
955000000 -0.25750165940699316 -0.8686646885392862 -3.136471230203778e-05 3.4790390723633555e-06 0 0 0 0
964000000 -0.26670182483119814 -0.8616172079337717 -4.7668379356194114e-05 0.00010486538308750259 0 0 0 0
973000000 -0.28510332343634864 -0.8496258863427627 2.309814887253223e-05 3.305516188091241e-05 0 0 0 0
982000000 -0.2980330767368553 -0.843328784981564 5.439353188404974e-05 -3.066650636449975e-05 0 0 0 0
991000000 -0.3064662907207034 -0.8343746491482328 -3.909209346913862e-05 4.0706622838743186e-05 0 0 0 0
1000000000 -0.3254031209605433 -0.8246198705025015 4.5846952753193323e-05 4.798819162494222e-05 0 0 0 0
