# HZ S RI R 50
100000000 1.0127510872602512 -0.2192917069705372 7.576698819759996e-06 1.0494296842254751e-07 0 0 0 0
109000000 1.0078719308678505 -0.23427105864941453 1.4472281231168209e-05 -6.774136798113526e-05 0 0 0 0
118000000 1.0024859686897147 -0.25035143476618826 -4.8178976149569744e-05 -3.949466736103138e-05 0 0 0 0
127000000 0.9969834917481423 -0.26552937166018936 5.76634453741498e-05 2.622630216173897e-05 0 0 0 0
136000000 0.9914233356711531 -0.2811752736162938 -7.241087967205022e-05 3.7713102020265204e-05 0 0 0 0
145000000 0.9832493870246949 -0.2959914073956203 4.623477880036422e-05 -6.362847166297581e-05 0 0 0 0
154000000 0.9768076496871071 -0.31048967385921067 -2.5080979671055573e-05 5.528542524732494e-05 0 0 0 0
163000000 0.970156402110745 -0.32594090081548494 -9.299705274925392e-06 -5.56564897044764e-05 0 0 0 0
172000000 0.9639522037174776 -0.34141210061284294 2.3012628724182162e-05 -5.563377372502666e-05 0 0 0 0
181000000 0.9584055208890004 -0.3540201726541528 3.961968571517513e-05 -2.3554613372099743e-05 0 0 0 0
190000000 0.9504335070469702 -0.3698282279875278 -2.815201598069083e-05 1.6255620765195933e-05 0 0 0 0
199000000 0.9442973769694076 -0.38376241808125444 2.8140213495066313e-05 -3.0167264366034697e-05 0 0 0 0
208000000 0.9369410820463311 -0.3979370151337445 1.858869759981377e-05 1.5682320702780758e-06 0 0 0 0
217000000 0.9296354514679116 -0.41269714008715197 -7.232137139733667e-05 -4.1856793937298494e-05 0 0 0 0
226000000 0.9218485432532239 -0.4267849441494405 -6.603979950565277e-05 -2.771499919416256e-05 0 0 0 0
235000000 0.9148972653050611 -0.4403323294067435 -2.7289655901053443e-05 3.5488600158567134e-05 0 0 0 0
244000000 0.9069370362215112 -0.455581969363923 1.1178248796801843e-07 -1.4141429427598311e-05 0 0 0 0
253000000 0.8980667437957348 -0.46890965416336333 3.308921219465394e-05 -3.350974864002211e-05 0 0 0 0
262000000 0.8920085196457561 -0.48114350579559245 -3.0533555390863644e-05 1.802211068638633e-05 0 0 0 0
271000000 0.8827159653329307 -0.495401723452316 3.153578839600811e-05 -3.0438084923643644e-05 0 0 0 0
280000000 0.8731840814309889 -0.5097103155169022 -2.556897596273532e-07 -6.016691035603364e-06 0 0 0 0
289000000 0.8652739848232502 -0.5208515247099257 1.1475649946950524e-05 -7.869793749084549e-06 0 0 0 0
298000000 0.8549689140530398 -0.5374422299207846 6.717519292438509e-06 8.297220756121462e-06 0 0 0 0
307000000 0.8472966708872169 -0.5506811701280865 3.0907431317431004e-05 7.397264114372585e-05 0 0 0 0
316000000 0.8382619383710895 -0.5626049754321812 -2.692187854935395e-05 -1.179976492411302e-05 0 0 0 0
325000000 0.8294262184743028 -0.5759421604681865 2.7402081944621027e-05 -1.719456435215447e-05 0 0 0 0
334000000 0.8184511506427903 -0.5898104952348752 2.172624881994756e-05 -2.7842245783701318e-06 0 0 0 0
343000000 0.8116847068346917 -0.5996200783539628 -2.439330385803077e-05 -5.604720144398075e-05 0 0 0 0
352000000 0.8004758755796114 -0.6133621094790226 6.599867827023098e-05 -1.2196512719907233e-05 0 0 0 0
361000000 0.7886950925611417 -0.6255512734850686 7.084993986370042e-05 -9.524007387966819e-06 0 0 0 0
370000000 0.779763695551507 -0.6384793630623136 -6.311273594664951e-06 -1.360874198138662e-05 0 0 0 0
379000000 0.7702570765345459 -0.6508335729524178 4.533133789925148e-05 -6.866426012526533e-06 0 0 0 0
388000000 0.7576216644684386 -0.6629112309460758 -5.300458992534738e-05 -1.9404061694845727e-05 0 0 0 0
397000000 0.7499053405802112 -0.6712082608777518 3.419206849757673e-05 4.08937297780324e-05 0 0 0 0
406000000 0.737621440186734 -0.6859562865225683 7.532643592493469e-06 -2.6490643976335404e-05 0 0 0 0
415000000 0.7266799887048683 -0.6975228646435375 -1.17029743050399e-05 -1.1102125583407488e-05 0 0 0 0
424000000 0.714433551915509 -0.7114776907350857 -3.0597251517086975e-05 3.9134825052558095e-05 0 0 0 0
433000000 0.7045116345975446 -0.7210120422641749 -2.5335171400285397e-05 -1.4482568444255667e-05 0 0 0 0
442000000 0.693725896818748 -0.7316277131314888 3.4171916835142334e-05 -6.54432117358253e-05 0 0 0 0
451000000 0.6815157019352734 -0.7429027078135146 -4.129387623300236e-05 -6.250629674058953e-05 0 0 0 0
460000000 0.6716894883131987 -0.7509324242400123 4.827119497733736e-07 -3.257339726428221e-05 0 0 0 0
469000000 0.6583759281069493 -0.7651654440965746 4.138833135239677e-05 3.3377288447212895e-05 0 0 0 0
478000000 0.6416040560504033 -0.7780780325658524 2.7703805607789732e-05 -3.361548756741227e-05 0 0 0 0
487000000 0.6310933826992272 -0.7883147321049877 -1.893362205096596e-05 2.932457964792939e-05 0 0 0 0
496000000 0.6222002061225389 -0.7960550873930872 -3.214237578209667e-05 -8.962105185476064e-06 0 0 0 0
505000000 0.6068330267526973 -0.8085435031671893 -5.235322000466684e-06 2.9077323811909696e-05 0 0 0 0
514000000 0.5961657640409788 -0.8169048146134786 -5.069203901838361e-05 -0.0001053291016810822 0 0 0 0
523000000 0.576126491200353 -0.8320715673562793 5.945454325196248e-05 6.625584046791054e-05 0 0 0 0
532000000 0.5704511701627509 -0.8372549769628372 -3.644964890180426e-05 -7.275728493994238e-05 0 0 0 0
541000000 0.5514874928830974 -0.849488055883705 4.325164234110741e-05 -4.8858138828759014e-05 0 0 0 0
550000000 0.5371841578904395 -0.8595736094870795 -4.435859417051658e-05 3.36719273778975e-05 0 0 0 0
559000000 0.5205579377483088 -0.8688115134171265 -5.743595759858392e-05 -5.473730669046825e-05 0 0 0 0
568000000 0.49994377296518144 -0.8829382838687884 5.574669001576405e-05 -8.419374395232629e-06 0 0 0 0
577000000 0.4917449796922659 -0.8902699045196171 1.3031460362151789e-05 -3.5145345415692444e-05 0 0 0 0
586000000 0.4749850047943104 -0.8985582638203128 -4.7553802691909926e-05 -9.497119657831767e-05 0 0 0 0
595000000 0.4579519195583078 -0.9071455026339966 2.5062779619602245e-05 2.0810415289672023e-07 0 0 0 0
604000000 0.4442541716334151 -0.9137537836172126 9.354064447247897e-05 -4.198062125303513e-05 0 0 0 0
613000000 0.4260853188437868 -0.9228948100486731 6.902784027914557e-05 4.9959317388113737e-05 0 0 0 0
622000000 0.40978031177337554 -0.9316730759436452 5.4825660819817906e-08 -5.327768509165783e-05 0 0 0 0
631000000 0.39657763353887476 -0.9388245216612857 5.037229483859985e-05 2.608746102692019e-05 0 0 0 0
640000000 0.3683840657405264 -0.9479690834256829 7.161316821973612e-05 4.518037504117017e-05 0 0 0 0
649000000 0.3531514295725013 -0.9559413333511574 -6.870651464084504e-05 -1.233095098457773e-05 0 0 0 0
658000000 0.3348811889189451 -0.9594504355157915 3.2707516263377754e-07 6.617435254979533e-05 0 0 0 0
667000000 0.31251866708676196 -0.9680930214056237 1.9404509236637053e-05 -7.47394106548285e-05 0 0 0 0
676000000 0.3014259500968696 -0.9695856112416323 -7.163555479095832e-06 2.4399408710255223e-05 0 0 0 0
685000000 0.2766484590284807 -0.9775380082273346 -1.975496596915081e-06 -7.420616194408123e-05 0 0 0 0
694000000 0.25942870088761066 -0.981795221066754 2.540409188094397e-05 -3.3489308623953464e-05 0 0 0 0
703000000 0.2408129482086982 -0.9851879957977603 7.15242436110639e-05 7.76069836608563e-05 0 0 0 0
712000000 0.21625644637430072 -0.989799460425521 3.772745473519437e-05 6.0894852980810296e-05 0 0 0 0
721000000 0.20009547051862736 -0.9930739742916566 1.532020062470713e-05 8.174747120522207e-05 0 0 0 0
730000000 0.17900201777448302 -0.9943781773343143 6.513550077146376e-05 -4.417284319419694e-05 0 0 0 0
739000000 0.16169804932606363 -0.9934805045358099 8.84430024090648e-05 2.750852067455133e-05 0 0 0 0
748000000 0.13427704721396733 -0.9948881282079435 -2.7260300567420436e-05 -2.7283589965509567e-06 0 0 0 0
757000000 0.12124780083949757 -0.9931308536033581 4.334088541652905e-05 2.3751218396616818e-05 0 0 0 0
766000000 0.09704900502910721 -0.9938071791261857 2.54677257156917e-05 0.00011234617398152343 0 0 0 0
775000000 0.08106134053438174 -0.99431536286354 4.903205126571995e-05 5.450522811067363e-05 0 0 0 0
784000000 0.05759695458075551 -0.9904511211295943 0.00012464327462248772 6.510104842129077e-05 0 0 0 0
793000000 0.03221044293300596 -0.9879606158851176 4.797494913824502e-05 -1.0050739467713847e-05 0 0 0 0
802000000 0.02046858279509318 -0.9848169970073157 2.3034366501490242e-05 -7.183499962690917e-05 0 0 0 0
811000000 0.0013572795711788528 -0.9814684714364629 0.00014640102864297162 6.896583456355236e-06 0 0 0 0
820000000 -0.01829338892841307 -0.9765980036463837 5.149320478811496e-05 -6.767953350671721e-05 0 0 0 0
829000000 -0.04010560784211975 -0.9716421128605459 4.2216064504584634e-05 3.694053333972295e-05 0 0 0 0
838000000 -0.05878801420635162 -0.9673529724420358 6.661640747440663e-05 1.7221889685493242e-06 0 0 0 0
847000000 -0.07119949501732777 -0.9620225058234418 8.56649828758975e-05 3.7051689244456093e-05 0 0 0 0
856000000 -0.08896016459265438 -0.9535726963083404 5.08427709097529e-05 5.395245482231717e-05 0 0 0 0
865000000 -0.09857069549323812 -0.9511978609597653 1.7137679809895092e-05 -9.871056902664347e-05 0 0 0 0
874000000 -0.12985981414089925 -0.9416156588758325 4.389523370808951e-05 5.88733878348676e-06 0 0 0 0
883000000 -0.1427711543005702 -0.9339732331178928 3.474770894157961e-05 1.3352192055338237e-05 0 0 0 0
892000000 -0.15728673832209078 -0.9251257173648308 7.14665751177673e-05 -3.040412419164623e-05 0 0 0 0
901000000 -0.1730211034290948 -0.920502747535388 -3.724636665651602e-05 -2.0170951391358908e-05 0 0 0 0
910000000 -0.184355620871528 -0.9108284335647097 -1.2720712360075664e-05 1.213846909027572e-05 0 0 0 0
919000000 -0.2057661182300839 -0.9031492774799398 4.3851409910153934e-05 -1.3087037654335964e-05 0 0 0 0
928000000 -0.21942035849321645 -0.8926866858482496 3.700082330636953e-05 -4.4458246520770696e-05 0 0 0 0
937000000 -0.23314711770527669 -0.8844690610779965 1.7438486147974017e-05 2.4107023101973694e-05 0 0 0 0
946000000 -0.2406465710182734 -0.8772175973839906 4.428556638829965e-05 2.2105910299082023e-05 0 0 0 0
955000000 -0.2599144987100264 -0.8684441603845988 -6.094808634312885e-06 2.055311896442871e-05 0 0 0 0
964000000 -0.2653711509101013 -0.8631740654653686 3.6156874943767384e-05 -3.522000124745895e-05 0 0 0 0
973000000 -0.2861817459153952 -0.8507591704291566 -3.429716329605781e-05 7.507081989868773e-07 0 0 0 0
982000000 -0.3010085257895905 -0.8418599276565594 1.0191717599323348e-05 4.3275974540593374e-05 0 0 0 0
991000000 -0.29718676958798856 -0.8373604433516915 -2.4954252096726244e-05 -7.780777173648117e-05 0 0 0 0
1000000000 -0.3162186859175579 -0.825661801176153 -9.092867483127595e-06 -2.4113754126043863e-05 0 0 0 0
