# HZ S RI R 50
100000000 1.0080380723486937 -0.21915081446443188 9.372505235247442e-06 1.853971333826483e-05 0 0 0 0
109000000 1.0075302288343881 -0.23456291542150537 -2.6756382505266613e-05 -2.7370705394881738e-05 0 0 0 0
118000000 1.0019838548089475 -0.24998815999004867 2.804880156703257e-06 6.7133923781265756e-06 0 0 0 0
127000000 0.9967175700940956 -0.26505176776590916 7.609577518472741e-05 -2.7434380940197405e-05 0 0 0 0
136000000 0.9916353708636731 -0.2805501388153637 2.495586723117763e-05 -3.91807295654496e-05 0 0 0 0
145000000 0.9829906040207789 -0.2954111939451755 -2.2054562802208346e-05 4.4989698062169665e-05 0 0 0 0
154000000 0.9766039484773267 -0.3107885139142267 -5.312073021780538e-05 2.88003458146565e-06 0 0 0 0
163000000 0.9702877343189089 -0.32673056879178963 1.996520166753242e-05 8.72291777243069e-05 0 0 0 0
172000000 0.9637598312113248 -0.34012602126080377 -4.041102634632359e-06 -0.0001023349698180111 0 0 0 0
181000000 0.9578902622954105 -0.35468484127268113 2.0102439297646188e-05 2.5886528678212586e-05 0 0 0 0
190000000 0.950501195103592 -0.3698221083047984 2.292779990501574e-05 4.015548963551896e-05 0 0 0 0
199000000 0.9436350830472916 -0.38513218639215147 2.202190604355758e-05 -2.6438747430580413e-05 0 0 0 0
208000000 0.9371351791906641 -0.39745852642191476 -1.789658454614568e-05 -5.087776607212952e-05 0 0 0 0
217000000 0.9289839286708095 -0.4129714481794253 2.6695384879650077e-05 2.5675255051674754e-05 0 0 0 0
226000000 0.9226419275102326 -0.42621122818530766 2.819102050091316e-06 -5.4921029444826634e-05 0 0 0 0
235000000 0.9152240814741325 -0.43939830558148063 1.7631927389617626e-05 -4.24285260793024e-06 0 0 0 0
244000000 0.9061836504149334 -0.45506827924224813 -1.3292424947538872e-05 -3.9684056575990266e-05 0 0 0 0
253000000 0.8991202720007352 -0.46881967372400674 1.713106914109168e-05 -4.603601939578622e-05 0 0 0 0
262000000 0.892023559535219 -0.4803140765348058 -6.516476129877604e-06 7.034310698833111e-06 0 0 0 0
271000000 0.8812209218556413 -0.49808314661577424 4.8828042970064675e-05 -3.782140853493744e-06 0 0 0 0
280000000 0.8749572766562749 -0.5082280609526822 -2.6979117317568275e-05 3.789889047985478e-05 0 0 0 0
289000000 0.8661956769058149 -0.5211423729217405 -4.918179751256112e-06 -3.6866329298079895e-05 0 0 0 0
298000000 0.8564477747893556 -0.53610577735867 -3.715507642972165e-05 -5.6278780927793716e-05 0 0 0 0
307000000 0.8500444017192508 -0.5459288213512438 1.3373304644822927e-05 -1.6465963434058446e-05 0 0 0 0
316000000 0.8396895110822729 -0.5602743775638614 7.88048246743524e-06 -7.505832549590956e-05 0 0 0 0
325000000 0.8288223572212995 -0.5760253340883603 5.5275027264876715e-06 -1.5027325720911608e-05 0 0 0 0
334000000 0.8207308951210315 -0.5868085053931383 -1.4279076026649552e-05 2.7182120200791084e-05 0 0 0 0
343000000 0.8111086995767487 -0.5988886512038126 -2.1413229950872064e-05 -5.195059741275922e-06 0 0 0 0
352000000 0.7992211300089648 -0.6131569824649088 1.5232912451219283e-06 -3.676889237075487e-05 0 0 0 0
361000000 0.7908390853665314 -0.6262247833078085 -1.1256412184405321e-05 8.397364499685973e-06 0 0 0 0
370000000 0.7819927265543984 -0.6358150947555136 -1.6451711742691123e-05 -4.521616546368214e-05 0 0 0 0
379000000 0.7712397752964587 -0.6496302016767442 1.6902769618875006e-05 -3.8302102228512954e-05 0 0 0 0
388000000 0.7594081914266678 -0.6617148989856018 -2.6659198349211357e-05 5.687765358254136e-05 0 0 0 0
397000000 0.7519911423418064 -0.6717572552754278 7.431350599752391e-06 1.6750820776488493e-05 0 0 0 0
406000000 0.7379460243324498 -0.6860780903694039 5.470627790170478e-05 2.25441293891366e-06 0 0 0 0
415000000 0.7286538924000105 -0.6956543827119092 -6.360176597403041e-06 -1.860637152617207e-05 0 0 0 0
424000000 0.7184880475080383 -0.7070163749365571 3.627720942146085e-05 -4.213083082120208e-05 0 0 0 0
433000000 0.7056599446338526 -0.7200501421845582 -1.9901757949746235e-05 -1.3031968480763626e-05 0 0 0 0
442000000 0.6899467932420694 -0.7343028990810427 -2.3213539533941795e-05 -9.68863714998703e-05 0 0 0 0
451000000 0.680994242073893 -0.7429960315222078 -3.4703446418660796e-05 9.283611426201389e-06 0 0 0 0
460000000 0.6694721713099153 -0.7542525703216281 -5.9561706204693735e-06 -1.8112842090418777e-05 0 0 0 0
469000000 0.6541015553049729 -0.7679141896147819 -2.487269337360224e-05 3.669190953950985e-05 0 0 0 0
478000000 0.6441473371793157 -0.7772240592202418 3.35169165455632e-05 -9.66130468290972e-06 0 0 0 0
487000000 0.634432048550949 -0.7856616945488578 1.6506245054329765e-05 -7.025323640047299e-05 0 0 0 0
496000000 0.6213297200527165 -0.7970006555438641 -6.691133042428803e-05 6.267311924194354e-05 0 0 0 0
505000000 0.6045433256862018 -0.8099432622407406 1.6973299532643468e-05 1.180764894586651e-06 0 0 0 0
514000000 0.594312561112148 -0.818187805759593 1.805148270174088e-05 5.740832791108451e-05 0 0 0 0
523000000 0.5768097299719062 -0.8312184944354332 -4.7759678810833906e-05 -4.648051788902139e-05 0 0 0 0
532000000 0.5656373672432948 -0.8396974137060097 2.806691417989507e-05 -1.4866106457316737e-05 0 0 0 0
541000000 0.5486941934426328 -0.8515445541428711 -7.587978900134228e-05 3.657367866565106e-05 0 0 0 0
550000000 0.5371077648239587 -0.8596811363649914 -2.8055284419050386e-05 6.329438054439319e-05 0 0 0 0
559000000 0.5180225378522061 -0.8729461641340249 -9.471192332681232e-07 9.993049560610443e-05 0 0 0 0
568000000 0.5072059855100577 -0.8803577439414365 1.1808565441168284e-06 7.682509859318468e-06 0 0 0 0
577000000 0.49087730245732486 -0.8887375149701977 9.606611824048394e-06 -7.062476161317528e-05 0 0 0 0
586000000 0.4796661946354743 -0.8958839608995977 -6.993342519178824e-06 -9.052184759825226e-06 0 0 0 0
595000000 0.46512766791574606 -0.905213088290385 -5.895510808840698e-05 -1.5372396499377626e-05 0 0 0 0
604000000 0.4454850300643107 -0.9134434109160481 3.190964009808672e-05 -6.1470273298479e-05 0 0 0 0
613000000 0.4237690690068719 -0.9246548393993959 -5.008818143917159e-05 -6.183302709950514e-05 0 0 0 0
622000000 0.4078461234657671 -0.9309882153850112 8.425831952233707e-06 4.9383777297363144e-05 0 0 0 0
631000000 0.3944158292854337 -0.937691176021311 -4.926361248550153e-05 -4.570734156656642e-05 0 0 0 0
640000000 0.3765788873974175 -0.947149251063667 6.580456358319611e-05 5.5498955878142965e-05 0 0 0 0
649000000 0.35646433451543974 -0.9539877284016448 -4.4369271324773895e-05 1.102370812312747e-05 0 0 0 0
658000000 0.3342271471727307 -0.9615473531699086 1.0789020683319552e-05 2.2427698298016775e-05 0 0 0 0
667000000 0.31609864037391067 -0.9661870052150359 3.257027987737468e-05 4.37535149339504e-05 0 0 0 0
676000000 0.2956852282383381 -0.972557280131315 -2.2280080767393638e-05 4.1572623091355e-05 0 0 0 0
685000000 0.27893367226877946 -0.9776592831443569 1.3092277200437852e-05 2.3725950074633932e-05 0 0 0 0
694000000 0.26179859431095626 -0.9805972464830148 -1.2636207163595739e-05 0.00011350770517500317 0 0 0 0
703000000 0.23824057710610877 -0.9844497902386886 -4.050215495757072e-05 -3.2839565472298233e-05 0 0 0 0
712000000 0.22089218081764858 -0.9873948664674742 2.9812509345333416e-05 4.73477944519671e-05 0 0 0 0
721000000 0.202283343254103 -0.9910753068711879 3.5686189502648156e-05 7.446829979206452e-05 0 0 0 0
730000000 0.18086653324750435 -0.9930203962694528 -3.3111443769207025e-05 5.311129908708088e-05 0 0 0 0
739000000 0.1645528030796649 -0.9942949644136148 6.28144160110723e-05 4.540303523782284e-05 0 0 0 0
748000000 0.1414266136636525 -0.9956767236872336 4.830144253211133e-05 -2.3609561012759682e-05 0 0 0 0
757000000 0.11951928263452163 -0.9950505414990118 0.00011075770407593643 7.693933188386105e-05 0 0 0 0
766000000 0.089750679783484 -0.9943136619148559 9.226889820757e-06 -1.971427028551613e-06 0 0 0 0
775000000 0.07766069327808311 -0.9918104824894626 -3.573932167354532e-05 -3.1230965110783965e-05 0 0 0 0
784000000 0.05431257888012779 -0.9908473133214056 6.629760314884491e-05 8.859927828603401e-05 0 0 0 0
793000000 0.03758426596077887 -0.9883174138082743 5.490056663918821e-05 9.602799375377767e-05 0 0 0 0
802000000 0.022456129678488472 -0.9840089632405665 5.853885379756981e-05 5.56214187251122e-05 0 0 0 0
811000000 0.0033623499617369094 -0.9835619485160394 1.663321173595935e-05 3.302850629789301e-05 0 0 0 0
820000000 -0.021015838703227454 -0.9768850472555606 5.856516360813202e-06 2.229632901077587e-06 0 0 0 0
829000000 -0.0421639856527579 -0.9721535858787906 8.52368332318433e-05 3.945925304187962e-05 0 0 0 0
838000000 -0.05765666954180504 -0.9662005259271285 4.6482182829312867e-05 -1.4634845594772625e-05 0 0 0 0
847000000 -0.06709824162071626 -0.9619615832101527 9.955959469271006e-05 -0.00010806686605999823 0 0 0 0
856000000 -0.0950390346986483 -0.9541829112503661 7.685084722212858e-05 -0.00011155777888394709 0 0 0 0
865000000 -0.11270263686478514 -0.9493002445136767 3.313512168146779e-05 -5.105511022665714e-05 0 0 0 0
874000000 -0.12715955705191412 -0.9424892678758344 -3.238626917973985e-06 -6.532052877098981e-06 0 0 0 0
883000000 -0.14295919466232218 -0.9321320285037418 -1.7614112185430703e-06 3.060052871540897e-05 0 0 0 0
892000000 -0.1616794279736909 -0.9268242123686945 -4.419258934108253e-06 2.138716148604556e-06 0 0 0 0
901000000 -0.17333474529874007 -0.9193249488686459 -1.868217564536437e-05 -5.721324611564661e-05 0 0 0 0
910000000 -0.1908456233752562 -0.9098163566166554 -2.8406753024786805e-05 3.063256065882835e-05 0 0 0 0
919000000 -0.196791687267507 -0.9024401856853066 6.927259193551773e-05 1.6245021561896617e-05 0 0 0 0
928000000 -0.22337360638195122 -0.8919967602671455 -3.240759817066457e-05 2.2096636618962495e-05 0 0 0 0
937000000 -0.22686201397832187 -0.887456185535027 2.2481675167738627e-06 3.339762958048249e-05 0 0 0 0
946000000 -0.24133668231544791 -0.8781243796355255 -2.6866217322599786e-05 4.232558435908064e-05 0 0 0 0
955000000 -0.25675784895861586 -0.8691893963040263 8.381219487632062e-06 4.603700282905016e-05 0 0 0 0
964000000 -0.2705770072247561 -0.8601204739006616 -1.0132158843207914e-05 -3.5091263194650815e-06 0 0 0 0
973000000 -0.28320695801619933 -0.8511161152391746 1.969850569322158e-06 6.290775663171015e-05 0 0 0 0
982000000 -0.29040241358693897 -0.8457044816337573 3.1159445394737815e-06 4.579965081291826e-08 0 0 0 0
991000000 -0.3123090854321581 -0.8338343782900437 1.444498147499876e-05 -4.5784579912394405e-05 0 0 0 0
1000000000 -0.3187271085345507 -0.8266317026411895 5.10034485375631e-05 7.401256684280086e-05 0 0 0 0
