# HZ S RI R 50
100000000 1.0128542117730228 -0.21928694803937218 1.2567955466093317e-05 -8.248051932153091e-06 0 0 0 0
109000000 1.007663229119101 -0.23460175986455925 -2.579346164735667e-05 -1.3600815963648726e-05 0 0 0 0
118000000 1.0022343449914723 -0.249499722210428 -1.8659007702669738e-06 -1.0941921887774551e-05 0 0 0 0
127000000 0.9969904047745791 -0.2652517694409223 -3.2734023221468736e-05 -8.967917910445213e-05 0 0 0 0
136000000 0.9912153557229334 -0.28004265664029415 1.1842753697597075e-05 2.591558696618494e-05 0 0 0 0
145000000 0.9831377972170205 -0.29549474128611203 2.891538095274647e-05 -3.7498270102134255e-05 0 0 0 0
154000000 0.9767652483729122 -0.3099619468628587 -1.308885679675039e-05 1.0140609648872327e-05 0 0 0 0
163000000 0.97096081935781 -0.32540148396565693 7.224311550421606e-06 -7.976557303554277e-05 0 0 0 0
172000000 0.9644700779884121 -0.33922465559592685 -2.045942313301221e-05 -1.9728344707680424e-05 0 0 0 0
181000000 0.958443403844462 -0.3538764765267278 -4.028440861334189e-05 -2.2935032633923456e-05 0 0 0 0
190000000 0.9511613878484804 -0.3688349639518229 -7.4324042133478766e-06 2.2462954852685746e-05 0 0 0 0
199000000 0.9442980314694976 -0.38265514258230987 2.5350751103039997e-05 1.8257232852814733e-05 0 0 0 0
208000000 0.9367159108903036 -0.39846737683906286 6.045778946423029e-05 -3.09182702963909e-06 0 0 0 0
217000000 0.9294081891787976 -0.4119829830900746 1.80584707379354e-05 2.5473934749416882e-05 0 0 0 0
226000000 0.9228855024336351 -0.4246694125499124 -1.8433550996587535e-06 -1.5308817427970303e-05 0 0 0 0
235000000 0.9148345128710149 -0.44162149940086265 4.520583334799811e-05 -8.126691018200913e-07 0 0 0 0
244000000 0.9063909801346097 -0.4547182604873575 -5.019183692153492e-05 -8.674684187374042e-05 0 0 0 0
253000000 0.8985906848768465 -0.46921156876812486 -1.1323278376496355e-05 1.5716415635008805e-05 0 0 0 0
262000000 0.8907610426808864 -0.48230064835823944 -2.59835294376999e-05 4.138435318128501e-05 0 0 0 0
271000000 0.8812871124281807 -0.4966831887975875 -2.2866215497002364e-05 1.4897918471114685e-05 0 0 0 0
280000000 0.8737404559710723 -0.5094972756083854 -1.956018105753182e-05 3.177869965542414e-05 0 0 0 0
289000000 0.8655799075691252 -0.5230087609797142 -4.944406999663898e-06 -2.516221733360638e-05 0 0 0 0
298000000 0.8572718890361062 -0.535938874365938 8.13923819545524e-06 -2.884418856487184e-06 0 0 0 0
307000000 0.8476597801960098 -0.5475777172607222 -4.139311774011898e-05 5.531650810918664e-05 0 0 0 0
316000000 0.8406627237812032 -0.5602331535206587 1.6927861379342924e-05 4.2871145231862665e-05 0 0 0 0
325000000 0.8274822496415336 -0.5774913521628865 2.640719162038171e-06 1.8218170949055483e-05 0 0 0 0
334000000 0.8184724217341626 -0.588111142158478 2.2584460940613443e-05 4.0311673910677026e-05 0 0 0 0
343000000 0.8109580365205595 -0.6002326658389384 2.8394718390842832e-05 3.373771303534528e-05 0 0 0 0
352000000 0.7992882767432115 -0.6142680685823099 -3.333415691036749e-05 6.844510193404536e-06 0 0 0 0
361000000 0.7903071696314832 -0.6232543352600424 -3.242121406235475e-05 2.72472150253325e-05 0 0 0 0
370000000 0.7811582812029989 -0.6363809134078693 -1.6815191225593758e-05 -3.946469303928622e-05 0 0 0 0
379000000 0.7706619690382338 -0.65014713595662 -3.457252769427661e-05 -5.06845900031007e-05 0 0 0 0
388000000 0.7602028901767239 -0.6632617114747071 -2.9406798420827228e-05 1.6328503026063366e-05 0 0 0 0
397000000 0.7483648426797129 -0.6746552586149419 -2.380570848433726e-05 3.158267525870171e-05 0 0 0 0
406000000 0.7374687733316281 -0.6860404854776824 -1.8427676233995375e-06 1.3728538198188286e-05 0 0 0 0
415000000 0.7264309107449234 -0.6977855133122982 -7.381412654582895e-05 3.269832834044079e-05 0 0 0 0
424000000 0.7147999814663625 -0.7100727855008693 -5.221255061466503e-05 -3.3268144805698635e-05 0 0 0 0
433000000 0.7056747294180126 -0.7195647958467815 2.9253046299063317e-05 3.876067594088993e-05 0 0 0 0
442000000 0.6930773122310098 -0.7315006307818269 9.56265476671192e-06 -5.1157917881410586e-05 0 0 0 0
451000000 0.6807436010349672 -0.743742247465386 6.709775850932273e-05 -7.588129993799983e-05 0 0 0 0
460000000 0.6681336750599108 -0.7543979045545323 -8.769352182733119e-07 -5.805479516957308e-05 0 0 0 0
469000000 0.6594202614929777 -0.763558024838195 2.00080088889232e-06 -2.4493704237815477e-05 0 0 0 0
478000000 0.64310520945855 -0.7767192083348988 2.762380983446281e-05 5.827643610924293e-05 0 0 0 0
487000000 0.6320060373583657 -0.7862243613496808 -7.09164623372473e-05 1.9115342355714584e-05 0 0 0 0
496000000 0.6175989972821753 -0.7988526178648307 9.738638216737063e-06 1.209099198892582e-05 0 0 0 0
505000000 0.6060019075024743 -0.8090602572096967 2.3368722454081883e-05 -3.315284956158566e-05 0 0 0 0
514000000 0.59356493748607 -0.8179292018118431 -9.700250949342512e-06 -2.744099116646758e-07 0 0 0 0
523000000 0.5802093357837024 -0.8297009445779444 -2.121256750205247e-05 2.1439763445788083e-05 0 0 0 0
532000000 0.5650226566524972 -0.8392512905130949 -4.473499760626509e-05 -7.441583744324147e-05 0 0 0 0
541000000 0.5556133977466792 -0.8469443579403719 3.690178513894888e-06 -2.6439194742762608e-05 0 0 0 0
550000000 0.5414339969745782 -0.8570108655608931 -2.1865614540611817e-05 -3.1149422026423935e-05 0 0 0 0
559000000 0.5233361385591886 -0.8690295707182343 -4.1815627548957175e-05 5.770612227040297e-06 0 0 0 0
568000000 0.5050627382373705 -0.8794267771520813 1.7707369183517787e-05 -8.47686396692822e-05 0 0 0 0
577000000 0.4864698348116044 -0.8910440724667668 -2.3681320945614827e-05 7.195640256608332e-05 0 0 0 0
586000000 0.4712838725257849 -0.9004538413231578 -3.605864398405531e-05 -5.159181144139702e-05 0 0 0 0
595000000 0.4593680777100595 -0.9049744093294299 6.199514327320124e-05 -1.0414733783506624e-05 0 0 0 0
604000000 0.4409407311243304 -0.9159956225046868 3.57748532695088e-05 2.2947825776281457e-05 0 0 0 0
613000000 0.42698907905649275 -0.9231867685733287 1.7313264180168513e-05 -1.2802206501334555e-05 0 0 0 0
622000000 0.40302022095714274 -0.9336555820444326 6.299511407871578e-05 2.5723121092601564e-05 0 0 0 0
631000000 0.39414670203730184 -0.9386049103515087 -2.8427532021471404e-05 -2.851268336366929e-05 0 0 0 0
640000000 0.3716140744797167 -0.9463223534740118 -1.2301577599883293e-05 -4.371902886127564e-05 0 0 0 0
649000000 0.35871410325879305 -0.9531651259809202 -3.202811375845248e-05 5.841220452468403e-05 0 0 0 0
658000000 0.33650506009124714 -0.9605408608516268 -7.66941813368234e-05 4.9267492532508466e-05 0 0 0 0
667000000 0.3217973493598889 -0.9652757606774236 2.261444671567948e-05 3.305798734681806e-05 0 0 0 0
676000000 0.29733726007226224 -0.9717703060608022 1.9712778755060828e-05 4.744454006067954e-05 0 0 0 0
685000000 0.2832237192710497 -0.9772259047036487 -1.941193324728194e-06 -2.45526920675244e-05 0 0 0 0
694000000 0.2630582998112203 -0.9809898302763193 6.953886900451049e-05 1.5136035667617513e-05 0 0 0 0
703000000 0.24073848460942043 -0.9842585453723708 2.074962435918272e-05 -2.8625419549542112e-05 0 0 0 0
712000000 0.21339699934090484 -0.9891271571307494 8.590132241067254e-06 5.681135844133937e-06 0 0 0 0
721000000 0.20276949448861134 -0.9903456936029964 3.566744761717359e-05 1.5498342453492457e-05 0 0 0 0
730000000 0.18440715473344677 -0.9908501062878572 6.278353237677081e-05 4.466559776643261e-05 0 0 0 0
739000000 0.16331942969249388 -0.9956477386101001 -2.4351956817471395e-05 6.722719338766666e-05 0 0 0 0
748000000 0.14196112838862193 -0.9931665143660726 9.590713798367145e-05 3.331956729909968e-05 0 0 0 0
757000000 0.12331278694328154 -0.9950788524083988 -1.3495122470995791e-06 1.9731233797712765e-05 0 0 0 0
766000000 0.09672306918172553 -0.9950409814851877 7.073724166929865e-05 5.021311377719916e-05 0 0 0 0
775000000 0.07898183182367789 -0.9931133607781668 3.0034695159667505e-05 2.4540891433301096e-05 0 0 0 0
784000000 0.060561309975574434 -0.9919488777947022 9.621091550298417e-05 2.5710625056013024e-05 0 0 0 0
793000000 0.03378957131850972 -0.9875970177217154 1.716392069823617e-05 2.5914019843735697e-05 0 0 0 0
802000000 0.017940339135037488 -0.9849730695170222 4.2887531906215434e-05 7.002699353781998e-06 0 0 0 0
811000000 -0.0059917801201963515 -0.9805608388836539 4.5670768571958634e-05 -9.580134666574551e-06 0 0 0 0
820000000 -0.024458411867942616 -0.9761431356639346 2.670366907608579e-05 -7.702911777471588e-06 0 0 0 0
829000000 -0.04474175363020204 -0.97226698525674 -2.347252878769433e-05 -7.672121419451977e-05 0 0 0 0
838000000 -0.04995203100410374 -0.9677873900882341 6.07780582233427e-05 4.388595726453097e-05 0 0 0 0
847000000 -0.07087883670390503 -0.9619816092073638 3.8370795160192214e-05 -7.408723438674458e-06 0 0 0 0
856000000 -0.09430536702289566 -0.9530441189785159 -5.776145724005648e-05 -5.08586606940065e-05 0 0 0 0
865000000 -0.1085751169683655 -0.947241132774404 1.0883334478828942e-05 -3.767600322490398e-05 0 0 0 0
874000000 -0.12623326745324195 -0.9417916938363208 -9.668746612809927e-05 -3.7257987958604546e-05 0 0 0 0
883000000 -0.13930151114633604 -0.9334926390726687 6.616144754838372e-05 -4.037681234440136e-05 0 0 0 0
892000000 -0.14973326564833064 -0.9253445365355584 -1.3840881154770148e-05 4.027513014668605e-05 0 0 0 0
901000000 -0.17723687356144488 -0.9173133417769432 1.709516180735652e-05 -4.218195524803923e-05 0 0 0 0
910000000 -0.186095994514152 -0.9118804232384914 -1.4439669540940646e-05 -3.6996517449363214e-05 0 0 0 0
919000000 -0.2028938726012717 -0.9048613651667347 1.0945346196489947e-05 7.172227232992821e-05 0 0 0 0
928000000 -0.21394736114673946 -0.8962251140362592 4.9849620067570636e-05 1.8779597417950316e-05 0 0 0 0
937000000 -0.22320997729023678 -0.888678541910399 -4.07291305371666e-05 -2.1183473310241942e-05 0 0 0 0
946000000 -0.2478682084322441 -0.8761234833550866 6.860683248081189e-07 -4.912113650072895e-05 0 0 0 0
955000000 -0.25718982967673715 -0.8701944166994937 7.024693420664637e-05 1.8090694778786787e-05 0 0 0 0
964000000 -0.2729606645248802 -0.8592514207792862 -2.3372631521426268e-05 3.098775784805182e-05 0 0 0 0
973000000 -0.2853028232443719 -0.8530810174918088 2.0333886113588386e-05 4.8701224061495784e-05 0 0 0 0
982000000 -0.30090134174149724 -0.8428373413169381 -4.0276850640862625e-05 3.215810641637133e-05 0 0 0 0
991000000 -0.30372366693660785 -0.8349326491361306 -2.7285263697879095e-05 -3.9045614998765946e-05 0 0 0 0
1000000000 -0.31733028642074623 -0.8267952908616788 -2.7692108489690107e-05 -2.2929420326789613e-05 0 0 0 0
