# HZ S RI R 50
100000000 1.0150264271423708 -0.21931115161118164 -8.522601814517122e-05 -1.097483951817248e-05 0 0 0 0
109000000 1.0081648873026443 -0.23379401933991772 3.514063082736275e-05 -4.008565794917915e-05 0 0 0 0
118000000 1.001993865865579 -0.25009602445116363 -3.643665252916011e-05 5.640140870652619e-06 0 0 0 0
127000000 0.9959880827475301 -0.26453820274945616 1.367268540495974e-05 6.169847434748081e-05 0 0 0 0
136000000 0.9915401854116518 -0.28049151875180145 -6.981136365346129e-05 1.8830272272853986e-05 0 0 0 0
145000000 0.9836775346702122 -0.2942582298802657 -6.238603190007413e-05 -4.379418650229712e-05 0 0 0 0
154000000 0.9773461493082268 -0.30882410615171396 1.069906545750006e-05 -4.371810772277373e-05 0 0 0 0
163000000 0.9702697069548912 -0.32601435200893114 -5.347855320017127e-06 -1.884832590651167e-05 0 0 0 0
172000000 0.963651004100673 -0.3408921767265973 5.700049710358695e-06 -2.3125704873964433e-05 0 0 0 0
181000000 0.9577530923545758 -0.35494607042441934 3.790795887028752e-05 -1.4715122113001555e-05 0 0 0 0
190000000 0.9511595840485756 -0.36890850973215245 1.7099618696194984e-05 -4.4747945375781744e-05 0 0 0 0
199000000 0.943972599709904 -0.383892373094315 1.9316987183957934e-05 5.562181521973316e-05 0 0 0 0
208000000 0.9372723054784495 -0.39803177039071974 -1.6821333583995835e-05 -3.123344844009908e-05 0 0 0 0
217000000 0.929704218161238 -0.41235001461654475 2.3025546279837962e-05 2.320061214690478e-05 0 0 0 0
226000000 0.9220479907579651 -0.4271424307702528 8.153028182531282e-06 -4.523912784405225e-06 0 0 0 0
235000000 0.9151678216246816 -0.44064485402717934 -8.540603366583634e-06 -1.2602133283939895e-05 0 0 0 0
244000000 0.9079659836365875 -0.45373727378718326 -2.546274535837236e-05 -4.791652317016443e-06 0 0 0 0
253000000 0.8989671079743067 -0.4681815864847511 -3.4038986816974274e-06 -1.905196606481939e-05 0 0 0 0
262000000 0.8909103952427869 -0.48091263139797874 -3.370375898547564e-05 5.261980115429616e-05 0 0 0 0
271000000 0.882742634406307 -0.49603311272329886 -2.6658632606763954e-05 -4.102316210953619e-07 0 0 0 0
280000000 0.8746071693355124 -0.5077145623495609 4.398655306435754e-05 3.376227333900368e-05 0 0 0 0
289000000 0.8657234552073777 -0.5218644253744626 -1.239362589218192e-05 3.8527590976295446e-05 0 0 0 0
298000000 0.8545190910340347 -0.5372655952746289 6.10546033079711e-05 -4.5038802823824236e-05 0 0 0 0
307000000 0.8465921985154977 -0.54949776345792 -6.3655225718261164e-06 -8.157319722458303e-06 0 0 0 0
316000000 0.8395275507277682 -0.5610781777131162 -4.22857255360694e-05 -3.332804016797226e-05 0 0 0 0
325000000 0.8299680459563964 -0.5731116109339023 4.089997307845713e-05 1.4757479615608475e-05 0 0 0 0
334000000 0.819649672916508 -0.5875548488434666 3.913157476323723e-05 5.473546882621613e-06 0 0 0 0
343000000 0.8090254933810763 -0.6008287742756756 5.050453177842972e-06 6.30626783823075e-06 0 0 0 0
352000000 0.7998896269567463 -0.6134338211311007 2.206664418720004e-05 -1.2691922632079809e-05 0 0 0 0
361000000 0.7904749616230994 -0.6221669328853983 -2.6319705258809766e-06 2.2932550692888002e-05 0 0 0 0
370000000 0.780410889904794 -0.6375034315330518 2.1611268540539645e-05 3.319537957330095e-05 0 0 0 0
379000000 0.7677692927835191 -0.6520276225407851 -1.2573710289360045e-05 -8.665220536705787e-06 0 0 0 0
388000000 0.7596488570629216 -0.6615836821020415 7.318693527577118e-06 4.9644448431616074e-05 0 0 0 0
397000000 0.7479886458687425 -0.6742075960185621 -4.2543960375979435e-05 4.2779902972346436e-05 0 0 0 0
406000000 0.7374789749633296 -0.6856235180955639 -6.387320159943221e-06 1.044680861797529e-05 0 0 0 0
415000000 0.7303165357751947 -0.6939226624967456 2.7407772447478457e-09 6.643630292938832e-05 0 0 0 0
424000000 0.7159584653302027 -0.7091467507489144 -4.362538807555368e-06 -1.2692080494446417e-05 0 0 0 0
433000000 0.7039305281167721 -0.7209432878257045 1.638476012397665e-05 5.272800843994478e-06 0 0 0 0
442000000 0.6942774717632214 -0.7330901068775257 -4.5415621936015354e-05 7.036375683221457e-06 0 0 0 0
451000000 0.6818963054799074 -0.7428535354235843 -7.98014159317377e-06 8.16940315371613e-05 0 0 0 0
460000000 0.6703944834145479 -0.7542938458670599 4.099107996513189e-05 1.3383818810051922e-05 0 0 0 0
469000000 0.6585395519378412 -0.7647251094741438 -4.456070687867533e-05 4.341457104110691e-06 0 0 0 0
478000000 0.6455240482482761 -0.7764912372722205 5.3185360357168476e-05 2.0424773007253127e-05 0 0 0 0
487000000 0.6334934913910238 -0.7860702994942951 9.552772316687364e-05 -5.805051135341011e-05 0 0 0 0
496000000 0.6193101549937915 -0.7990036090962706 4.317703970020074e-05 3.9313767211569246e-05 0 0 0 0
505000000 0.6093400753889544 -0.8065634451605583 1.963920135715599e-05 -5.251080892050448e-05 0 0 0 0
514000000 0.5947775610384068 -0.818194604976728 1.4425725486319906e-05 -4.910485246308313e-05 0 0 0 0
523000000 0.5775898957842132 -0.83024653387585 1.6873288996210235e-05 2.247202748227125e-05 0 0 0 0
532000000 0.5661589201245858 -0.8395677158499885 7.955557524950253e-06 -3.4678320868798616e-06 0 0 0 0
541000000 0.5496346185606237 -0.8516249132553232 1.8795668372193612e-05 7.371828626166258e-05 0 0 0 0
550000000 0.5408673854210392 -0.8589530752330083 -3.4026648302497084e-05 6.3421033834987964e-06 0 0 0 0
559000000 0.5181500461077446 -0.869723482178124 -2.0178681834783065e-06 -1.2258954864792595e-05 0 0 0 0
568000000 0.5044091128831796 -0.8799552158627967 7.58322891915783e-05 -1.4400429503789448e-05 0 0 0 0
577000000 0.49150263138088485 -0.8882479680146605 3.46462644567589e-05 2.6335594874452877e-05 0 0 0 0
586000000 0.47622493098688445 -0.8968797809938891 -5.07388989322236e-05 1.6979159033463168e-05 0 0 0 0
595000000 0.45854665200235795 -0.9067855152381513 4.026846323195268e-05 -4.181705971891001e-05 0 0 0 0
604000000 0.4453901429277646 -0.9152388015186541 -3.8948578903079886e-05 3.6269527031516425e-05 0 0 0 0
613000000 0.4252094643802548 -0.9239146522467399 -2.471166561239353e-05 6.951621250150422e-05 0 0 0 0
622000000 0.4078657060375925 -0.9316361490489088 6.861369603217748e-05 -4.4522468517298884e-06 0 0 0 0
631000000 0.3936753883534879 -0.9388166001814136 -2.2913758715485308e-05 -1.1231818966454726e-06 0 0 0 0
640000000 0.3681588140932253 -0.9497288185657509 -3.6935391344179926e-05 1.0583954290327038e-05 0 0 0 0
649000000 0.35472638817121116 -0.9540721576794182 1.641853042168482e-05 -9.470404303171653e-05 0 0 0 0
658000000 0.33760152766647333 -0.9596680643022284 4.054323524036997e-05 4.797460091328056e-05 0 0 0 0
667000000 0.32585547312282614 -0.964037936150146 -1.0668459677733219e-05 7.649862440085816e-06 0 0 0 0
676000000 0.30295381801066895 -0.9712406620785129 -2.227674419053134e-05 0.0001091886204576857 0 0 0 0
685000000 0.2787213727507548 -0.9772873987486251 8.789120101319981e-05 -1.780463675894198e-05 0 0 0 0
694000000 0.2618928106846846 -0.9809789403883168 5.069699925823398e-05 4.133728597346988e-05 0 0 0 0
703000000 0.23988155822484244 -0.984632673995567 4.9546525246642895e-05 -1.1596002603583514e-05 0 0 0 0
712000000 0.22214674874934856 -0.9889944881319007 1.5601955324321127e-05 1.91340124815677e-05 0 0 0 0
721000000 0.20108825003109626 -0.9907410119657996 6.872148764154313e-05 -1.6659282374672657e-05 0 0 0 0
730000000 0.18302365345570493 -0.9923075321200071 6.934435481823326e-06 0.00011349687189976103 0 0 0 0
739000000 0.15886291748687176 -0.9948506635567618 1.1911543736466437e-05 4.5524693837347e-05 0 0 0 0
748000000 0.141112088405723 -0.9942380988351002 -6.344489746716186e-05 5.160639235256368e-05 0 0 0 0
757000000 0.1146146816564388 -0.9957119598044224 8.45487717619554e-06 4.198209209964083e-05 0 0 0 0
766000000 0.10121346982812564 -0.994330051272997 1.8000408161324765e-06 5.963735092549188e-05 0 0 0 0
775000000 0.08068390283843462 -0.9918604636356977 1.4276439896785711e-06 -3.641810529350679e-05 0 0 0 0
784000000 0.04821920061546818 -0.9907158107634729 0.0001159306238104867 4.594578503788546e-05 0 0 0 0
793000000 0.037948236207005076 -0.9890855364742154 5.1168708243429346e-05 7.70941933059644e-06 0 0 0 0
802000000 0.012875202924269016 -0.9861332437925399 9.255592099484207e-05 1.535755783414357e-05 0 0 0 0
811000000 -0.0001999109249463305 -0.9796390184584371 6.076992764727013e-05 -3.2941714200583346e-05 0 0 0 0
820000000 -0.020512579850299258 -0.9775560977039219 0.00012262937874601518 -5.161389618280807e-05 0 0 0 0
829000000 -0.03593122329462854 -0.9729859621048624 4.473366942429106e-05 2.0230235817465308e-05 0 0 0 0
838000000 -0.0616786919782433 -0.9660121245977025 9.659330432440843e-06 -3.5754932152289456e-05 0 0 0 0
847000000 -0.07384423241624659 -0.9591262968594748 1.9115728053732786e-05 3.604981030151905e-05 0 0 0 0
856000000 -0.09592085090658779 -0.9565875934475458 4.65194323744272e-05 -6.905566508664665e-05 0 0 0 0
865000000 -0.10781072598072058 -0.9492277480988481 7.958276642884439e-05 -1.5353953817395428e-05 0 0 0 0
874000000 -0.12416359427120906 -0.9402864618216635 2.6154190170758265e-05 -5.280422679875506e-05 0 0 0 0
883000000 -0.14292599391248456 -0.9364219668603587 1.0749033486368446e-05 4.928625225655554e-05 0 0 0 0
892000000 -0.1534660724211977 -0.9266054573756368 -3.652383915146465e-05 7.698802579774132e-06 0 0 0 0
901000000 -0.1736595581051886 -0.9174968877258155 6.102651511220316e-05 1.8397890369404565e-05 0 0 0 0
910000000 -0.19152533705938743 -0.9109284925707031 3.0152542146914895e-05 1.5588103199808776e-05 0 0 0 0
919000000 -0.20408406739189477 -0.9029886713484626 1.700539772829355e-05 -3.498055288599233e-05 0 0 0 0
928000000 -0.2186631331439918 -0.8927832484881107 -2.3935002241750648e-06 1.2024457932968653e-05 0 0 0 0
937000000 -0.2356444763365315 -0.884495394321526 -4.41494974609016e-05 3.9370720686558465e-06 0 0 0 0
946000000 -0.24702073532105012 -0.8769178818014469 6.176262461018163e-05 -1.1604316337132173e-05 0 0 0 0
955000000 -0.25825230661209975 -0.8708840537601953 4.07205713142079e-06 2.56526960478928e-06 0 0 0 0
964000000 -0.2721994522640314 -0.8611117163641837 -4.535300493238926e-05 5.297668686595111e-05 0 0 0 0
973000000 -0.28302682660244155 -0.8524564816813278 -5.741594170331241e-05 -4.4079619566714084e-05 0 0 0 0
982000000 -0.29021570314124256 -0.844877630268673 -1.6373929876261078e-05 -1.4292980722785823e-05 0 0 0 0
991000000 -0.3027562408259505 -0.8354932673451234 -3.76681777144493e-05 -7.758953396967432e-06 0 0 0 0
1000000000 -0.31816817346413223 -0.8279294644696895 -2.4376487041081054e-05 4.524079013028722e-06 0 0 0 0
