# HZ S RI R 50
100000000 1.0127674600257222 -0.2192089987474943 1.2654801648671254e-05 -7.356576655276261e-05 0 0 0 0
109000000 1.0077313659473213 -0.23455732636705764 2.697155961193904e-06 -2.6028714464048906e-05 0 0 0 0
118000000 1.0026599920271067 -0.24999342077182268 -5.961656807362213e-06 -3.2452342232891745e-05 0 0 0 0
127000000 0.9964256210329788 -0.2650154220252765 4.2871806211854156e-05 3.554295744551538e-06 0 0 0 0
136000000 0.9917308030619217 -0.2796317955264783 -9.045562962907786e-06 0.0001050617599251363 0 0 0 0
145000000 0.9833920540965609 -0.29543654059149776 5.4206664843989225e-06 -3.058497448521203e-05 0 0 0 0
154000000 0.9768280967004376 -0.31070341506502686 -1.9217453072429606e-05 1.5886123292858822e-05 0 0 0 0
163000000 0.9709757630995062 -0.3238266343258187 -3.7843702782249317e-05 -3.77922365200927e-05 0 0 0 0
172000000 0.9644865077787642 -0.34101632816538807 7.070035875114169e-05 -5.155400857725375e-07 0 0 0 0
181000000 0.9580056752217074 -0.3546507112842532 2.3968987362299406e-06 1.9710040289175675e-05 0 0 0 0
190000000 0.9503972630356721 -0.37038730448171087 -1.4235489158472747e-05 9.084431174351909e-06 0 0 0 0
199000000 0.9441042569849926 -0.3831163524223508 -1.8333809582845213e-05 1.0762752980716986e-05 0 0 0 0
208000000 0.9368931089097552 -0.39733496571485055 4.461745118674407e-05 -3.739752905377104e-07 0 0 0 0
217000000 0.9291747856324231 -0.412877816605135 -4.911877083191606e-05 2.1638999840214055e-05 0 0 0 0
226000000 0.9213590869289797 -0.4283992197787067 2.733413277214753e-06 3.7981381853966368e-06 0 0 0 0
235000000 0.9157495444883447 -0.4397491888943645 -4.329542766240109e-05 -2.0074424354030632e-05 0 0 0 0
244000000 0.9068490569280497 -0.45514547051659415 1.5652519296385307e-05 2.5930462181071088e-05 0 0 0 0
253000000 0.8992342909048031 -0.4687769750116124 4.6683620173377e-05 -6.752206287075316e-07 0 0 0 0
262000000 0.8906797198034121 -0.4833733330167902 2.279439707234279e-06 -4.118025158174092e-05 0 0 0 0
271000000 0.8818419200244729 -0.4955936621302808 -5.657349895987922e-06 -1.837005751841473e-06 0 0 0 0
280000000 0.8742150959719726 -0.5090277356856 -3.8409463641877506e-05 -1.937164383528844e-05 0 0 0 0
289000000 0.8658195846904652 -0.5229391862262184 3.621726725437323e-05 -3.026769287585599e-05 0 0 0 0
298000000 0.8566217461457999 -0.5349537794671961 2.8213549733409414e-05 7.96832043679517e-06 0 0 0 0
307000000 0.8467893249241563 -0.5498385186239176 -1.521929687058786e-05 -3.4140489292738604e-05 0 0 0 0
316000000 0.8383009843914419 -0.5622701327834072 -4.013732161874595e-05 -1.4219560418583072e-05 0 0 0 0
325000000 0.82984312773958 -0.5742637979528252 -1.4332346970495393e-05 -2.2380957771621076e-05 0 0 0 0
334000000 0.8197773096565504 -0.5869975652288044 -2.818397394081166e-07 -4.8327570036269814e-05 0 0 0 0
343000000 0.8095575760415756 -0.6016977314608264 -4.770010579133552e-05 3.390834630745492e-05 0 0 0 0
352000000 0.8002334841722757 -0.612511793518934 -1.2221216000916628e-05 -1.0775941573501494e-05 0 0 0 0
361000000 0.7892903741647009 -0.6274729838216739 9.60494936710921e-06 4.35893787072753e-05 0 0 0 0
370000000 0.7804345177072524 -0.6381683531589959 2.039418809481035e-05 1.301275123770195e-05 0 0 0 0
379000000 0.7690012230672473 -0.6518963654152224 -2.4474675669345397e-06 1.9829875213729672e-05 0 0 0 0
388000000 0.7612097594863066 -0.6606656619911697 -1.635153449206419e-05 3.0047396489723132e-05 0 0 0 0
397000000 0.7490533928231072 -0.6734959519886242 4.5233529748876566e-05 -1.5995864610187775e-05 0 0 0 0
406000000 0.7391396352940215 -0.6849543951479502 -9.699756753996952e-06 -0.0001031422399831538 0 0 0 0
415000000 0.7238415710127772 -0.7017944649675304 -8.140598859814783e-05 -3.866862398576094e-05 0 0 0 0
424000000 0.7176085040363286 -0.7082902093326504 -4.62028236921319e-05 2.4249610130051846e-05 0 0 0 0
433000000 0.7057111654323365 -0.7192448498892362 0.00011468161745414433 -2.0074180368557778e-05 0 0 0 0
442000000 0.6946999083072074 -0.7310834745647611 5.442677632062799e-05 -4.52097212576751e-05 0 0 0 0
451000000 0.6796577897998917 -0.7439408466540123 2.302280737193993e-06 -7.057991372262862e-05 0 0 0 0
460000000 0.6678953798898897 -0.7557749293119664 2.698682764732933e-05 -1.0026817724764156e-05 0 0 0 0
469000000 0.6597865788206916 -0.7638415618733817 -4.669313148166693e-05 4.2488393880603776e-05 0 0 0 0
478000000 0.6430387895132048 -0.7764022167900171 2.38792944164499e-05 -2.421022674754811e-05 0 0 0 0
487000000 0.6314025540267166 -0.7878830167330313 2.2755136504372e-05 1.8742885172253866e-05 0 0 0 0
496000000 0.6191438489721055 -0.7989150489043327 0.00013215279102125256 -2.7673294922934674e-05 0 0 0 0
505000000 0.6065460113950317 -0.8087531620948575 6.725983359465487e-05 -8.909029162985109e-06 0 0 0 0
514000000 0.591251889567541 -0.8197967872302137 -2.2197038922571693e-05 7.208193425649786e-05 0 0 0 0
523000000 0.5766515755011372 -0.8306774406586493 -6.676654417094264e-06 2.6236384902158923e-05 0 0 0 0
532000000 0.5631360477745002 -0.841208902179288 -5.869446554445642e-05 5.6472811741064005e-05 0 0 0 0
541000000 0.5489853898240942 -0.8520766617163574 -1.0336220836753258e-05 1.5816966865058318e-05 0 0 0 0
550000000 0.5382562449997021 -0.8586367674318224 -8.991195398104026e-06 -8.055718975734693e-06 0 0 0 0
559000000 0.5205481893857064 -0.8707058312227031 1.4388983140501732e-05 -0.00011504928623445538 0 0 0 0
568000000 0.5072952018263289 -0.8793929665563698 5.168724493244528e-05 7.17642693661902e-05 0 0 0 0
577000000 0.4890519598729874 -0.8891337018999935 -1.536754906071013e-05 2.550883072503035e-05 0 0 0 0
586000000 0.47928231116437364 -0.894924242064644 -4.7068835517933015e-05 -6.230825907188863e-05 0 0 0 0
595000000 0.45771825358770307 -0.9065320464959614 2.560821120179922e-05 1.4050631732649085e-05 0 0 0 0
604000000 0.43863762360300607 -0.9169162673315332 -3.4086754409415104e-05 -6.143312350584977e-05 0 0 0 0
613000000 0.4293092104864716 -0.9229704675902062 2.8845242627478556e-05 6.64757006990004e-05 0 0 0 0
622000000 0.4097332821266421 -0.9334490319009733 -2.6626309281009317e-05 2.2852259530442016e-05 0 0 0 0
631000000 0.3942027479191403 -0.9378237918702336 3.213617942131039e-05 7.32219761707514e-05 0 0 0 0
640000000 0.37834931321126364 -0.9438700171461485 2.038875970548859e-05 -2.1591921041286398e-05 0 0 0 0
649000000 0.3550915952549907 -0.952883751113232 4.1545884526200836e-05 -4.30035722405336e-06 0 0 0 0
658000000 0.34083651940196075 -0.9600786281027978 1.3160231315072658e-05 4.570971174011718e-05 0 0 0 0
667000000 0.31864518706103295 -0.9667470871463602 -1.705754411178825e-05 2.6400812300584474e-05 0 0 0 0
676000000 0.2958021655741325 -0.9729341093193076 -2.7011358626596308e-05 2.6491393283837772e-05 0 0 0 0
685000000 0.28138453229743243 -0.9751469602411521 -1.8633283908265515e-05 6.397711522561937e-05 0 0 0 0
694000000 0.25774289693108543 -0.9815973988994816 7.285708327446746e-05 0.00011091410740882785 0 0 0 0
703000000 0.23335571932800026 -0.984207204231305 -1.3787405710794e-05 2.673034074746617e-05 0 0 0 0
712000000 0.22215836516561127 -0.9892294534126053 -1.5522967546959555e-05 4.8305039110122495e-05 0 0 0 0
721000000 0.20199546183500164 -0.9929670322958973 -1.8655314814649972e-05 4.7715010378711026e-05 0 0 0 0
730000000 0.184129303158637 -0.9915160514406873 1.862014241471702e-05 2.4218806555189206e-06 0 0 0 0
739000000 0.15818332888130052 -0.995149459786327 3.3523937804504406e-05 5.1963625403253494e-05 0 0 0 0
748000000 0.13752206223126617 -0.994109415100896 2.083315532941326e-05 4.841792005778164e-05 0 0 0 0
757000000 0.11865868811435432 -0.9957595314189409 -3.8014261778727404e-05 1.9923767917824756e-05 0 0 0 0
766000000 0.09490101771505635 -0.9943614188805218 4.003678138696849e-06 6.310891773328709e-05 0 0 0 0
775000000 0.07833032176153475 -0.9941213126453602 3.0270618874392847e-05 3.316703561279503e-05 0 0 0 0
784000000 0.05978098342963807 -0.9910209824944801 2.4323384060778274e-05 9.10757017841681e-06 0 0 0 0
793000000 0.03429722846225661 -0.9898123824649546 4.237426561660455e-05 1.4957650124258508e-05 0 0 0 0
802000000 0.018577953916202938 -0.9864813836155956 8.523401454608538e-05 -2.648775730142419e-05 0 0 0 0
811000000 -0.006614720868147926 -0.9812391022131679 6.168211407842159e-05 3.2607616775399446e-07 0 0 0 0
820000000 -0.0218564523535699 -0.9763476217337543 4.4922686064523505e-05 4.485141507219724e-06 0 0 0 0
829000000 -0.04305924122929388 -0.9732458190779978 6.533243503044234e-05 -1.7325703202895288e-05 0 0 0 0
838000000 -0.06038656490154775 -0.9669124747796262 6.0339440033752545e-05 2.1364423777287822e-05 0 0 0 0
847000000 -0.07030463737701435 -0.9630948837410683 3.2583468989402316e-05 2.366014285982595e-05 0 0 0 0
856000000 -0.09456107185787198 -0.9534356301075483 1.1904690983274027e-05 5.547383624625488e-05 0 0 0 0
865000000 -0.10624264400924785 -0.9479050552616476 -2.194474264822719e-05 -7.0453984024681e-05 0 0 0 0
874000000 -0.12737348111381794 -0.9397497737826398 -4.663126015299776e-05 -5.427355081276549e-05 0 0 0 0
883000000 -0.1451990511329338 -0.9344865155757581 -1.958955570337034e-05 3.0592299957361366e-05 0 0 0 0
892000000 -0.15965589118141862 -0.9254968812513324 -4.27843588386638e-05 -9.715689563685265e-06 0 0 0 0
901000000 -0.17030542000086815 -0.919272152533165 -1.7886991233776982e-05 -5.512255277106325e-05 0 0 0 0
910000000 -0.19802779412275942 -0.9069031024960559 -1.5753960040692272e-05 3.686423350716679e-05 0 0 0 0
919000000 -0.20316062996365244 -0.9021241562176092 6.9313510842754215e-06 -3.706189442582461e-05 0 0 0 0
928000000 -0.22082095454771822 -0.8918400401721124 -2.255146507049797e-05 2.1595769718900992e-05 0 0 0 0
937000000 -0.22426593005548204 -0.8861503382083621 -5.601834471180099e-06 -1.5985970826808173e-05 0 0 0 0
946000000 -0.24055664808635463 -0.8779472300417561 1.3077396672601193e-05 -4.270416938459458e-05 0 0 0 0
955000000 -0.2615382427755465 -0.8687591561369197 3.230849888416296e-05 2.3756436423011713e-05 0 0 0 0
964000000 -0.2756891411795612 -0.8576789402504928 2.8851427673256014e-05 -2.1393588297807326e-05 0 0 0 0
973000000 -0.2835754741162817 -0.8524870647934505 -5.2267179542362775e-05 -1.9888071227095802e-05 0 0 0 0
982000000 -0.2951395429486737 -0.8444764829561862 -3.359699594334257e-06 3.0879539326296385e-05 0 0 0 0
991000000 -0.3040060169943993 -0.8358932555534228 7.561952706112613e-06 1.3960831130868146e-05 0 0 0 0
1000000000 -0.3163132307423956 -0.8258422633512612 -4.10866550689183e-05 6.194426850321774e-05 0 0 0 0
