# HZ S RI R 50
100000000 1.0063308157220097 -0.21948349342869128 -9.522337127315569e-07 2.1117124599431834e-05 0 0 0 0
109000000 1.0076435547771905 -0.23429390909344164 -1.8636658003364996e-06 -3.0568079704114416e-06 0 0 0 0
118000000 1.0023019168546732 -0.24991202103266988 -3.0399478735765682e-05 2.1763860804724977e-05 0 0 0 0
127000000 0.9968827078826727 -0.2648712391952498 -1.3371543184539299e-05 -2.3064929842657712e-06 0 0 0 0
136000000 0.9913236643877041 -0.280600096719001 6.518857368805791e-05 9.392197280507884e-06 0 0 0 0
145000000 0.9830017135394253 -0.2957183118470297 -2.4547104246643314e-05 1.856711003011921e-05 0 0 0 0
154000000 0.9765052680396448 -0.3106211413672933 2.2589293912037015e-05 -1.2385946752387106e-05 0 0 0 0
163000000 0.9705382338745532 -0.32643224494401996 2.1830881161468298e-05 -1.3223122865639624e-05 0 0 0 0
172000000 0.9644580734162719 -0.3410224161904778 -1.7213775080520693e-05 -6.483472660693617e-05 0 0 0 0
181000000 0.9587186318315745 -0.3545389671442331 -1.8692724159464053e-05 -4.103831662585079e-05 0 0 0 0
190000000 0.951068973969711 -0.3706273631942194 1.8732622968102972e-05 2.602843644963888e-05 0 0 0 0
199000000 0.9432681137722067 -0.384829089665446 2.696848740921639e-05 -2.2581986043867687e-05 0 0 0 0
208000000 0.937904244223326 -0.39666088522411164 9.023823087224557e-05 2.9131772435116676e-05 0 0 0 0
217000000 0.9284714885249953 -0.4146506619074656 1.8654723965849846e-05 -3.176192472610017e-05 0 0 0 0
226000000 0.9226925385123798 -0.4263980483964841 -2.407830030706472e-05 -2.610743226709848e-05 0 0 0 0
235000000 0.9155796874728068 -0.4393510142517708 -4.462011226034982e-05 -7.953438901101557e-06 0 0 0 0
244000000 0.906919930546752 -0.454430233826201 -4.250384177634245e-05 5.786159095665414e-05 0 0 0 0
253000000 0.8980424262666752 -0.46976997729892384 3.035299404768711e-05 -8.205373525716652e-05 0 0 0 0
262000000 0.8921111220766752 -0.48047958350999737 8.069986490513374e-06 1.0292333825574059e-05 0 0 0 0
271000000 0.8838671448048286 -0.4945948089438168 3.855532124430328e-06 -3.570524586982023e-05 0 0 0 0
280000000 0.8729735507042852 -0.5089305474782749 3.2014162896998525e-05 -3.5748564097059235e-05 0 0 0 0
289000000 0.8658537561931837 -0.5226678771655121 7.497630055162275e-07 1.0722969754945467e-05 0 0 0 0
298000000 0.855087312494266 -0.5378608987907184 -4.87183535354663e-06 3.985459908790514e-05 0 0 0 0
307000000 0.8452593213834034 -0.5515415298205737 3.1770681211800336e-05 -7.963057394670984e-06 0 0 0 0
316000000 0.8381827357892762 -0.5624352925142028 3.8802448763579654e-05 -1.3886856385639793e-05 0 0 0 0
325000000 0.8280461061510649 -0.5763057445770239 3.177759267338992e-05 -4.169632327544684e-06 0 0 0 0
334000000 0.8203385408544918 -0.5877267147742959 8.73605335430397e-06 3.6356901257690896e-05 0 0 0 0
343000000 0.8103538496548868 -0.6007593310409104 1.1415030109065157e-06 8.720622168803107e-07 0 0 0 0
352000000 0.8010465985238224 -0.6120952889789762 3.253504588203136e-05 5.591546007128249e-06 0 0 0 0
361000000 0.7923184706423879 -0.6230697793388421 5.677725980239077e-05 -5.663081516691284e-05 0 0 0 0
370000000 0.7793314969278266 -0.6384940011950945 4.611776225880556e-05 0.00010384680161347777 0 0 0 0
379000000 0.770311815159999 -0.6498362785334811 4.0113153090501634e-05 2.9413887400396463e-05 0 0 0 0
388000000 0.7580489168939193 -0.661777952635086 7.0786223604257595e-06 2.383351821218319e-05 0 0 0 0
397000000 0.7474687351526179 -0.6754229251275774 3.982801225131718e-05 -2.4572238932171765e-05 0 0 0 0
406000000 0.7393387626564781 -0.6844906867547824 1.9678631086673623e-06 -1.5558083842144808e-05 0 0 0 0
415000000 0.7289329859149408 -0.6958055443287913 1.0272511105393923e-05 2.4368001278803236e-05 0 0 0 0
424000000 0.714958112229447 -0.7107880805023569 -3.1110989357918675e-05 -5.619363739346779e-05 0 0 0 0
433000000 0.7041416326108098 -0.7200617720310509 2.9389408433907042e-05 -8.141002623836312e-05 0 0 0 0
442000000 0.696617465242336 -0.7281547042767557 2.3475660438757504e-05 -5.790746682484377e-05 0 0 0 0
451000000 0.6798642839009986 -0.7450450898274357 1.2189558018831271e-05 -7.077810475058746e-06 0 0 0 0
460000000 0.6705005507163428 -0.7546503940665276 2.1595751073282935e-07 -4.140040199832581e-05 0 0 0 0
469000000 0.6564693673632866 -0.7651242465765603 3.067584230830222e-05 2.4061859487529876e-05 0 0 0 0
478000000 0.6425060134267495 -0.7774192754798176 -1.2302500600926975e-05 -1.2136178689146017e-05 0 0 0 0
487000000 0.6319101018771371 -0.7872800676656035 -1.575974333079042e-05 -8.179153587858383e-05 0 0 0 0
496000000 0.6228537089189422 -0.7956714451235185 -1.9339089340733846e-05 -6.19831440432597e-05 0 0 0 0
505000000 0.6080065445550787 -0.8078519291756548 1.6209158097384373e-05 2.4972648562651757e-06 0 0 0 0
514000000 0.595097461572898 -0.8162975698520811 -1.3590475648234822e-05 -5.706920041235018e-05 0 0 0 0
523000000 0.5802616937910304 -0.8281920016997517 -7.209365701936594e-06 4.357669856685379e-05 0 0 0 0
532000000 0.5653881076059558 -0.8398537343907931 -4.164214988059756e-05 -2.6050155937848764e-05 0 0 0 0
541000000 0.5515638137296902 -0.8497030293823015 -4.2215396343516344e-06 -8.733774476799426e-05 0 0 0 0
550000000 0.5374516559059631 -0.8593062616229462 -3.245893713531416e-05 2.6754461278753423e-05 0 0 0 0
559000000 0.5202383339088765 -0.8706342842033884 8.676217086921488e-05 1.674346861216442e-05 0 0 0 0
568000000 0.506490337978539 -0.8807872517570527 -5.298284729442009e-05 -4.630398529011943e-05 0 0 0 0
577000000 0.49284362146923294 -0.8885523312926537 4.318194930498308e-05 2.4689860818725997e-05 0 0 0 0
586000000 0.47565750376453897 -0.8965112632727692 -3.990123824500432e-05 8.779079098887796e-06 0 0 0 0
595000000 0.4610506444608668 -0.9053267030790808 3.772953574811308e-05 4.956817548358276e-05 0 0 0 0
604000000 0.4415115434988401 -0.9149594034487325 -9.529061714704027e-06 5.709897310363234e-05 0 0 0 0
613000000 0.4254206363976371 -0.9249897125165747 -1.3488825178434194e-05 7.304030426926866e-06 0 0 0 0
622000000 0.4100817748260352 -0.9316811051642886 1.9253838742351848e-05 -9.049013057923604e-06 0 0 0 0
631000000 0.38997114780059744 -0.9394941916986055 6.163823848369413e-06 -3.876396137334235e-05 0 0 0 0
640000000 0.3730188251711463 -0.9476951679337786 -1.02858871782157e-05 4.489156839091587e-05 0 0 0 0
649000000 0.36104428929730126 -0.9517180190241625 -1.8037036158191614e-05 4.838054481105809e-05 0 0 0 0
658000000 0.33967103450487596 -0.9600366584423461 3.0229101365689173e-05 1.9102151660819683e-05 0 0 0 0
667000000 0.3118241538427814 -0.9691571911353395 -2.1420105895583255e-05 1.1783696281373765e-05 0 0 0 0
676000000 0.30402653355215276 -0.9723848796437096 4.5669638669562155e-05 1.5114633346005144e-05 0 0 0 0
685000000 0.28253642842240245 -0.9745134038902843 -9.834223460187487e-06 7.777014539534111e-05 0 0 0 0
694000000 0.26251912148271106 -0.9798047879811002 1.7779873519887114e-06 3.178234349557285e-05 0 0 0 0
703000000 0.241376038902819 -0.9831335259787105 3.534214181203183e-06 -1.0072077882450507e-05 0 0 0 0
712000000 0.22443907801440657 -0.9879654219081738 -7.463654682807437e-06 -6.04919651780342e-06 0 0 0 0
721000000 0.19969538425711983 -0.9927580117971855 8.77308205466283e-06 5.233403034780598e-05 0 0 0 0
730000000 0.17613180346723922 -0.9935097936396868 -2.7096789447979728e-05 1.8122392506785775e-05 0 0 0 0
739000000 0.15754355766179007 -0.9924640321527817 5.506519230708625e-05 6.921285010253798e-05 0 0 0 0
748000000 0.1440902819453981 -0.9958187367688056 -3.891210759798045e-05 -1.3342329076747836e-05 0 0 0 0
757000000 0.11800738939076837 -0.9942046609716826 3.4837353250623996e-05 3.679183384606315e-05 0 0 0 0
766000000 0.09910139845918349 -0.9941558003144123 3.343493786077149e-05 -2.122626032567383e-05 0 0 0 0
775000000 0.07484884389989664 -0.9931851955661629 8.66820942738928e-05 1.214566119530988e-05 0 0 0 0
784000000 0.055040801911141156 -0.9911138490940075 0.0001275746954539816 3.0675447558662637e-05 0 0 0 0
793000000 0.036667349299659036 -0.9866220022211566 6.538116607507759e-05 2.4786927953610477e-06 0 0 0 0
802000000 0.01803448686242944 -0.9842019088032025 7.332922980052522e-05 2.4338518785376955e-06 0 0 0 0
811000000 0.005338289668288664 -0.9815230871541446 7.703346586218079e-05 -2.835189266473641e-05 0 0 0 0
820000000 -0.012353824741856097 -0.9783152632005626 -1.0784383790761269e-05 5.127783302642148e-05 0 0 0 0
829000000 -0.03587651884269254 -0.9728979350948888 8.588699661649171e-05 -2.371777308392855e-05 0 0 0 0
838000000 -0.054671432779026675 -0.964991407457487 3.943293215870309e-05 -3.531407022340712e-05 0 0 0 0
847000000 -0.07524585092788216 -0.960127933284392 6.854516585730374e-05 1.014834470452264e-05 0 0 0 0
856000000 -0.09467425337251523 -0.9549083472398076 9.060569455556041e-05 -4.406229483503202e-05 0 0 0 0
865000000 -0.11091940863993129 -0.9459651550900654 9.745790207850842e-06 -4.4561907366139604e-05 0 0 0 0
874000000 -0.12585293910212023 -0.9399382639420294 5.9674136255448966e-05 -3.603602151659433e-05 0 0 0 0
883000000 -0.13675005314700908 -0.9338455275941073 -1.0334305614690182e-05 7.565791448389726e-06 0 0 0 0
892000000 -0.15499175899189396 -0.9267531371951204 8.574585157805635e-05 5.2342966569194455e-05 0 0 0 0
901000000 -0.17665797712545916 -0.9189162009481967 -2.2307347603360367e-05 2.9468115353796435e-06 0 0 0 0
910000000 -0.1894040223998896 -0.9100544778233045 1.4216547905090624e-05 1.3566344278609055e-05 0 0 0 0
919000000 -0.21096096994300673 -0.9008145349707837 1.428897084841962e-05 1.8904606732255008e-06 0 0 0 0
928000000 -0.21673955616910467 -0.8925571199141781 -7.589268709272658e-05 -1.843515554268984e-05 0 0 0 0
937000000 -0.23322850555860972 -0.8849424558052292 -5.022801089338853e-05 4.145922971041822e-05 0 0 0 0
946000000 -0.2546411752478981 -0.8759555403122089 3.2924202125423193e-06 3.9661760752126244e-05 0 0 0 0
955000000 -0.2587464115400104 -0.8676037483260843 3.2889013845894866e-06 3.825865528092168e-06 0 0 0 0
964000000 -0.2680609845767014 -0.8610718199983701 -5.915730127834339e-05 -1.4310547263509446e-05 0 0 0 0
973000000 -0.28293579519826895 -0.8528493473077646 5.561441464265829e-05 -2.9509054816484215e-05 0 0 0 0
982000000 -0.2930215736840131 -0.8431361531776818 8.626794071074569e-05 -3.208138594593395e-05 0 0 0 0
991000000 -0.3069046185419477 -0.8339903205941076 3.190659582936524e-05 1.0424412874727388e-05 0 0 0 0
1000000000 -0.31347792256236484 -0.8280617166447548 3.1686995948355126e-05 3.886687823563091e-05 0 0 0 0
