# HZ S RI R 50
100000000 1.0125706665373728 -0.2189931508975588 -5.358547030135657e-06 -2.9594348350973997e-05 0 0 0 0
109000000 1.0076898572096453 -0.23470047119296206 -3.2707855922042156e-05 -7.096414983013492e-05 0 0 0 0
118000000 1.0025652938375424 -0.25022377532826745 -5.056493036605429e-05 -6.171728386933294e-05 0 0 0 0
127000000 0.9967865219181516 -0.26480079743904045 7.508497595936569e-05 -5.563525002765178e-05 0 0 0 0
136000000 0.9914844450909531 -0.28070708839252584 -4.489963722754048e-05 -3.2307961827011246e-05 0 0 0 0
145000000 0.9831368154859567 -0.2959686656006439 1.7516149822041512e-05 5.697026779754241e-05 0 0 0 0
154000000 0.9775674770924669 -0.3106045563795937 -2.2460235665566006e-05 8.693783012452378e-07 0 0 0 0
163000000 0.9697590846940042 -0.3258919575922307 -2.7622871531727863e-05 -3.624507243391449e-05 0 0 0 0
172000000 0.9646869503445691 -0.3408006032161445 6.186000415118724e-06 -2.1938990191264046e-06 0 0 0 0
181000000 0.9582021393935304 -0.3541444159866175 8.630293023932269e-06 -3.363668426069954e-05 0 0 0 0
190000000 0.9512310993769968 -0.3688693501672744 3.804712230211948e-06 2.9045726965570634e-05 0 0 0 0
199000000 0.9438127172672752 -0.3850506342180822 -2.2041174884679795e-05 2.83325375545988e-05 0 0 0 0
208000000 0.9370437771334473 -0.3975029579857491 -3.217242662781751e-05 -1.4891648668228395e-05 0 0 0 0
217000000 0.9303462422900021 -0.4114888643881738 2.0539851686985956e-05 -2.8556969666422704e-05 0 0 0 0
226000000 0.9227865166534392 -0.42559682214999844 -1.244687993087582e-08 -2.7080632018851136e-06 0 0 0 0
235000000 0.9142008399866515 -0.4397023663710978 -3.7152828075989695e-05 2.3447483946251885e-05 0 0 0 0
244000000 0.9075168376684579 -0.4540433646630897 1.6543862572183707e-05 1.7236614104427275e-05 0 0 0 0
253000000 0.8983372714912673 -0.468948901618451 6.151222547725445e-05 -3.553174147232461e-05 0 0 0 0
262000000 0.8908526776873424 -0.482196412300655 -1.3283887878204503e-05 1.7120408545696424e-05 0 0 0 0
271000000 0.8822227575210753 -0.49585673135503167 -4.854688840787152e-05 1.2736852604200631e-05 0 0 0 0
280000000 0.8742362392692469 -0.5094544553980804 3.007860944919625e-05 -6.708102007204417e-07 0 0 0 0
289000000 0.8641821589807757 -0.5232081834467928 3.382252334793893e-06 0.00010099244250934895 0 0 0 0
298000000 0.8570124908489993 -0.5358277098179717 7.851102887086971e-07 -2.4908013543097046e-05 0 0 0 0
307000000 0.847976707033912 -0.5497697619731156 -6.846499599701293e-05 -2.1358431168527105e-05 0 0 0 0
316000000 0.8374723962631774 -0.5625331775087785 5.094261437050939e-06 1.6423213785277806e-05 0 0 0 0
325000000 0.8300509187605802 -0.5722493657289478 -3.512748618236655e-05 -2.751488821696924e-05 0 0 0 0
334000000 0.8193238425173479 -0.5878910894585854 -2.4316442478244036e-05 5.1870915003984876e-05 0 0 0 0
343000000 0.8107111906646641 -0.6013236420120749 -2.1158922688357783e-05 1.2549575785347557e-05 0 0 0 0
352000000 0.7988817404068143 -0.6143326567639786 -4.9318996738076974e-05 -4.016665328167549e-06 0 0 0 0
361000000 0.7901371202718046 -0.6247378917051482 -2.5680785379910386e-05 -2.381636650357157e-05 0 0 0 0
370000000 0.7810319025986114 -0.6365267105760387 -4.536032756598711e-05 5.089670277479984e-05 0 0 0 0
379000000 0.7719903910406213 -0.648880220911116 -1.2440291820259583e-05 4.839243451598548e-05 0 0 0 0
388000000 0.7583347032150956 -0.6629374593980717 9.787386611958397e-05 3.247987983219898e-05 0 0 0 0
397000000 0.7514942923353919 -0.6713124713625669 -2.2248037557689842e-05 1.0827490618887925e-05 0 0 0 0
406000000 0.7369540582250138 -0.6863611547029744 -1.12061164280774e-05 0.00011175354365582623 0 0 0 0
415000000 0.7244740611181041 -0.7001085701164097 3.935874394581403e-05 1.0104615613956976e-05 0 0 0 0
424000000 0.7145591313892373 -0.7105664504337261 5.895286755076025e-05 1.1687115061803506e-05 0 0 0 0
433000000 0.7062504667819489 -0.7198620215057637 2.5794215637258542e-05 -2.400287004963358e-05 0 0 0 0
442000000 0.6912521291568449 -0.7338181912507482 -4.475123693165886e-05 1.0220077820150376e-05 0 0 0 0
451000000 0.6816064987644652 -0.7436884886954855 2.871871493770004e-05 -5.0404491348215004e-05 0 0 0 0
460000000 0.6697835536006429 -0.7546518190224055 4.046686282937814e-05 4.439638018229593e-06 0 0 0 0
469000000 0.6550135588971887 -0.7677238103791612 -2.702402628534933e-05 -4.628614962649048e-06 0 0 0 0
478000000 0.6473297260942712 -0.7746524642517267 -5.167396320087355e-05 3.074641027265948e-05 0 0 0 0
487000000 0.6317979422394473 -0.7873882067133285 -3.253489881558579e-05 2.1833024341133793e-05 0 0 0 0
496000000 0.6204045094083986 -0.7972495056567193 -4.104534299734091e-05 1.1572016241671817e-06 0 0 0 0
505000000 0.6060852371934319 -0.8096810749669755 8.131390053115321e-05 -6.377486921734693e-05 0 0 0 0
514000000 0.5888241181135004 -0.8212719098287155 -5.510019415015607e-05 -2.149292382594093e-05 0 0 0 0
523000000 0.5811956159326919 -0.8290091894075635 -3.526544546281332e-05 -9.414174519521645e-06 0 0 0 0
532000000 0.5625705071637318 -0.8413009694346608 7.150809739806847e-06 1.65297391860811e-05 0 0 0 0
541000000 0.5508771401029315 -0.8496633998981106 -3.975336257362501e-06 -2.6670271667961565e-05 0 0 0 0
550000000 0.5440622453169293 -0.8561011506419629 -5.486301822175598e-05 -1.4092771731497378e-05 0 0 0 0
559000000 0.5188073955195766 -0.8710214004084331 -3.557000354132577e-06 4.650443850221765e-05 0 0 0 0
568000000 0.506502283120648 -0.8789437423976302 3.4789905053865158e-06 2.2599860295306424e-06 0 0 0 0
577000000 0.4923813230473829 -0.8878367528698855 2.8372084316867706e-05 -5.643461449737182e-05 0 0 0 0
586000000 0.47425734334285274 -0.896818541261664 -6.287729780928213e-05 3.5828177108151916e-06 0 0 0 0
595000000 0.4599160543309801 -0.9045277346348666 -6.943417314588508e-05 -2.4257361573372956e-05 0 0 0 0
604000000 0.4402303381372559 -0.9167497798571606 5.023225512892018e-05 2.1356823350429814e-05 0 0 0 0
613000000 0.42461224117514024 -0.9243569428748942 3.6087473648481244e-05 2.9180555441355784e-06 0 0 0 0
622000000 0.40521744398552956 -0.932934625319094 2.0674539897580577e-05 1.037810743044784e-05 0 0 0 0
631000000 0.3891388299504984 -0.9391726428176411 7.363816860973486e-06 6.357026624307474e-05 0 0 0 0
640000000 0.37020692893559115 -0.9475480663761471 -9.581852795466387e-06 4.159378610797534e-05 0 0 0 0
649000000 0.35427909364382915 -0.9533494282497771 -3.656168908007075e-05 1.3842603913121914e-05 0 0 0 0
658000000 0.3374220339113824 -0.9586478810665843 3.018554470276505e-05 -1.0238147499375055e-05 0 0 0 0
667000000 0.3211700043144431 -0.9646694771483748 8.574508276237342e-06 3.298150558279288e-06 0 0 0 0
676000000 0.302386838705164 -0.9706219113602826 2.896694871485845e-05 8.031706029085935e-06 0 0 0 0
685000000 0.27959252969848924 -0.9758990003602276 4.491983780900019e-05 3.550275226299579e-05 0 0 0 0
694000000 0.26390138722614925 -0.981674931461566 -4.262849399996155e-05 3.5066824201625046e-05 0 0 0 0
703000000 0.23865784921589758 -0.9853294321668838 -4.330988395423751e-05 3.279503689233649e-05 0 0 0 0
712000000 0.22194069809985023 -0.985515287105579 -1.0095417418200571e-05 -2.0483921993431753e-05 0 0 0 0
721000000 0.20337319806525514 -0.9905877298046534 5.2526685569263304e-05 1.939099666450123e-05 0 0 0 0
730000000 0.18077113343122755 -0.9914419659537496 2.773003561951831e-05 7.711790525881111e-05 0 0 0 0
739000000 0.15805015278929385 -0.9921063002086039 -1.538225383040345e-05 0.00013094193369298396 0 0 0 0
748000000 0.13741084676809168 -0.9942106891616695 1.3536351389474291e-05 -5.439380862021897e-05 0 0 0 0
757000000 0.12412716124895938 -0.9963596067474696 6.353887487469247e-05 7.818008349766042e-05 0 0 0 0
766000000 0.09695425001632993 -0.9947305548262944 -1.0559833207887043e-05 4.4220990496039667e-05 0 0 0 0
775000000 0.08109851646667589 -0.99391385204607 1.1903922569976683e-05 1.0082502755893113e-05 0 0 0 0
784000000 0.05742732000772515 -0.990845317823853 8.950405285415394e-05 -1.6248263112731595e-05 0 0 0 0
793000000 0.04347310906250865 -0.9877936114564195 3.538688356885715e-05 -1.0897309180127919e-05 0 0 0 0
802000000 0.019254524830876217 -0.9861929974550362 8.12153313637994e-05 4.7939170299596585e-06 0 0 0 0
811000000 0.0005098135537330695 -0.9820755687356155 4.218958407814832e-05 1.987122878795094e-05 0 0 0 0
820000000 -0.027008884662780907 -0.9773684530327525 -6.535377507064064e-07 9.000693758371026e-06 0 0 0 0
829000000 -0.03012735786932483 -0.9735312392322745 -4.855522837020669e-05 1.8499017783912408e-05 0 0 0 0
838000000 -0.059194267702379524 -0.9675348710347222 8.923772277304454e-05 -5.082511877319651e-05 0 0 0 0
847000000 -0.08287580134362262 -0.96047790451591 -4.484124918611752e-06 -0.0001247356263796083 0 0 0 0
856000000 -0.09617305984483882 -0.953425761006989 -1.9352583877965772e-05 8.032734808429536e-05 0 0 0 0
865000000 -0.11091820964260377 -0.9489003506858601 -0.00010358375717613524 6.886037468653322e-06 0 0 0 0
874000000 -0.11786265023068418 -0.9428274099174113 3.7159241503979197e-05 -6.078939680741615e-05 0 0 0 0
883000000 -0.14039893861938618 -0.9346865524912328 3.32950909846065e-05 -2.8300106774187545e-05 0 0 0 0
892000000 -0.1549250272268069 -0.9249610133864985 -1.8994001133734283e-06 -5.0856195326649964e-05 0 0 0 0
901000000 -0.17163371728301635 -0.9193051227872373 -6.356230636745706e-05 2.7841660783472264e-05 0 0 0 0
910000000 -0.19330544118429197 -0.9083677553749755 6.019767383220104e-06 1.988111765146054e-05 0 0 0 0
919000000 -0.2001774988760683 -0.9038905115603727 1.6243769457913093e-05 -1.2986785954890436e-05 0 0 0 0
928000000 -0.21346288707758668 -0.896296048418702 7.177991704104243e-05 7.532359869225485e-05 0 0 0 0
937000000 -0.22715799116081015 -0.8848089920806571 2.4265783134754056e-05 6.092932605951166e-05 0 0 0 0
946000000 -0.2379391772621924 -0.8781458364051749 8.649704984192245e-05 2.422854939344676e-05 0 0 0 0
955000000 -0.25592435338780944 -0.8693702565986976 -7.011670479150042e-05 2.4844373660092703e-05 0 0 0 0
964000000 -0.27151524988282355 -0.8604427538485363 -1.204255439057298e-05 3.426793157899916e-06 0 0 0 0
973000000 -0.27434147395203756 -0.8528544877689485 -2.5435960505683517e-05 9.869189198560714e-05 0 0 0 0
982000000 -0.29357721235237433 -0.8471348138167186 5.13675887135082e-05 4.726145568137952e-05 0 0 0 0
991000000 -0.30212637597661596 -0.835783899095976 -4.5517676641950266e-05 2.6820867636906716e-06 0 0 0 0
1000000000 -0.31465549035262325 -0.8276575278249937 4.266588619420958e-05 5.377135498572343e-05 0 0 0 0
