# HZ S RI R 50
100000000 1.0042255226677594 -0.2194852971347727 5.0123477220848946e-05 1.1621407958602034e-05 0 0 0 0
109000000 1.0076005814973705 -0.2344602269645864 -1.369288393004239e-05 -4.812437951665648e-05 0 0 0 0
118000000 1.0023383682139362 -0.2503025086596982 -3.6996608291504166e-05 -2.9719485796873555e-05 0 0 0 0
127000000 0.9952657074598468 -0.26510599301939264 1.4514345262115205e-05 5.454260028709051e-05 0 0 0 0
136000000 0.9915905452114865 -0.2795850079210383 -2.733419736283284e-05 -1.2333431288180027e-05 0 0 0 0
145000000 0.9830800931509043 -0.2965031880180829 -6.303392816007866e-07 -4.801014521429108e-06 0 0 0 0
154000000 0.9769066480537555 -0.3112001471322434 2.3788149473676793e-06 2.2372199358680472e-05 0 0 0 0
163000000 0.9710770431069503 -0.32534085840971444 -4.335465524794995e-05 -8.109321310039896e-06 0 0 0 0
172000000 0.964542208746886 -0.33953395679603954 -3.43996460382766e-05 2.188975603858638e-06 0 0 0 0
181000000 0.958069750768718 -0.35533816728821527 1.2412312560570044e-05 -5.425119289463125e-06 0 0 0 0
190000000 0.9506800985696591 -0.37135817694369566 -2.4229805723775335e-05 -1.2260791549849178e-05 0 0 0 0
199000000 0.943667184008263 -0.38456133200866244 1.1671577220583262e-05 3.403082617340325e-05 0 0 0 0
208000000 0.9372178893745806 -0.39732208394069196 -9.063258629568368e-06 -8.35328497695633e-07 0 0 0 0
217000000 0.9289693385629972 -0.41336842355089853 2.289445075393141e-05 -1.842322682505881e-05 0 0 0 0
226000000 0.9211472287032356 -0.427643917941855 -1.3706601026827202e-05 2.5153084247493162e-05 0 0 0 0
235000000 0.9142636721273543 -0.442011304479029 -4.5419473504994095e-06 -5.379084901525855e-06 0 0 0 0
244000000 0.9071871669007628 -0.45399654777036486 6.47605938722356e-06 -4.5262061284263385e-05 0 0 0 0
253000000 0.8988980604828584 -0.4682975317698711 -8.107135062208603e-06 7.191397703429632e-06 0 0 0 0
262000000 0.8900466094575569 -0.4834478972855875 1.186193964548616e-05 -7.196464316944588e-06 0 0 0 0
271000000 0.882024456154373 -0.4965128274530769 -6.3506889977380755e-06 2.8973268298962307e-06 0 0 0 0
280000000 0.874571052830097 -0.5093028421810767 -1.628567489629589e-05 -2.521665329926684e-05 0 0 0 0
289000000 0.8650933925157882 -0.5229256068815579 7.248490676774283e-06 -2.3091176714433132e-05 0 0 0 0
298000000 0.8555359118446139 -0.5365927668168949 6.712559568041551e-05 1.2157224970160399e-06 0 0 0 0
307000000 0.8484580052356734 -0.5480401066656533 -6.212329854014109e-06 1.6102675357924887e-05 0 0 0 0
316000000 0.8389617304585948 -0.5622324558020484 8.73047327246752e-06 2.1414071536526305e-05 0 0 0 0
325000000 0.8283763526902914 -0.576011226868498 1.3566480553232932e-05 -4.5470634278027314e-05 0 0 0 0
334000000 0.8193568256419558 -0.5873788698196722 -7.746015944179498e-06 -3.105994950971485e-05 0 0 0 0
343000000 0.8092994635885831 -0.6004940136818226 3.8557979110730545e-05 1.8141053678908674e-05 0 0 0 0
352000000 0.8011500601799189 -0.6118966751592572 3.113294040190258e-05 -2.5714288239882058e-05 0 0 0 0
361000000 0.7912712157062699 -0.6245953347995636 4.571677974967034e-05 1.0235019957473143e-05 0 0 0 0
370000000 0.7800229238935444 -0.6372876602145002 1.9872088476441585e-05 -3.548396983839862e-06 0 0 0 0
379000000 0.7691809197468461 -0.6501296296180009 -6.578317699650865e-06 7.004335434978063e-06 0 0 0 0
388000000 0.7599051565261369 -0.6620064229804232 -1.1472533570293403e-05 2.6361596812306305e-05 0 0 0 0
397000000 0.7501829381833858 -0.6725145025325682 -7.900338547505977e-06 7.737636343896698e-06 0 0 0 0
406000000 0.7386039134204254 -0.6843743859149297 3.7393314755599655e-05 1.2902835083384422e-05 0 0 0 0
415000000 0.7264059458555754 -0.6977600711558707 -1.5332315546966376e-05 6.0604874133173144e-06 0 0 0 0
424000000 0.7167892462603934 -0.7075335957615567 1.1866192159546357e-05 -4.214398227300606e-06 0 0 0 0
433000000 0.7045593987875133 -0.7207407910569293 5.100563828112321e-06 1.7936934690488242e-05 0 0 0 0
442000000 0.6912931289884771 -0.7337893013475506 -1.2005108124599504e-06 -1.944571921506847e-06 0 0 0 0
451000000 0.6782461874652265 -0.7453316277472042 -1.6726205006319018e-05 1.7040361271173387e-05 0 0 0 0
460000000 0.6719532595385015 -0.7518358116067357 2.6336162493319164e-05 4.045976101991971e-06 0 0 0 0
469000000 0.6545398991943576 -0.7672940439272994 1.3072400674309813e-05 -4.5437490838939235e-06 0 0 0 0
478000000 0.6438156096019678 -0.7767826207666887 -5.97893942144628e-05 -4.1302131270854394e-05 0 0 0 0
487000000 0.6341750575066 -0.7858308042632551 -1.2643300642236604e-06 -2.0951349429339186e-05 0 0 0 0
496000000 0.6170289684433845 -0.7984461108218891 3.440455999211358e-06 3.4398052050309875e-05 0 0 0 0
505000000 0.6032841004956573 -0.8110818840517634 -3.0720912680724986e-05 3.781451515188827e-05 0 0 0 0
514000000 0.5925574448855903 -0.8197314479149616 4.0724148340804984e-05 2.1926966150649992e-05 0 0 0 0
523000000 0.57893189342357 -0.8296184143581735 4.6910965027506503e-05 -2.8433424196235554e-06 0 0 0 0
532000000 0.5634827355934553 -0.840759094612757 1.6231941281141198e-05 3.756302612650624e-05 0 0 0 0
541000000 0.5516064822742704 -0.8493353861874275 1.2423447500511442e-05 3.2399336071486394e-05 0 0 0 0
550000000 0.5370435337725313 -0.8594784043378747 -1.7971578367861665e-05 -2.1268669101858206e-05 0 0 0 0
559000000 0.5220336527728566 -0.8694529992535672 5.6194251860939044e-05 7.242690451528255e-06 0 0 0 0
568000000 0.5056605477041123 -0.8795058719048603 -2.2500667615955684e-05 3.754682328787579e-05 0 0 0 0
577000000 0.4876753949403603 -0.8889675681155698 -1.4289713168036973e-05 -9.104474169402547e-06 0 0 0 0
586000000 0.4748710141116204 -0.8979171077204143 -1.0711664614440378e-06 -2.442603917239368e-05 0 0 0 0
595000000 0.46554840527857183 -0.9040846296532075 -2.372645339266064e-05 4.900300509114929e-07 0 0 0 0
604000000 0.4452448799822585 -0.9144557714979021 5.541979628688246e-05 -6.46770998047811e-05 0 0 0 0
613000000 0.4300154459530587 -0.92241807933784 1.6975088426195087e-05 -2.655024590041955e-05 0 0 0 0
622000000 0.4124881337500653 -0.929903163924486 -1.7432570081023093e-05 -9.37586462831841e-08 0 0 0 0
631000000 0.3921262225410675 -0.9396080220836688 2.1118735152553657e-05 1.702457166160663e-05 0 0 0 0
640000000 0.3777186980660339 -0.9455130950973853 3.02021619204593e-06 9.889556740999253e-05 0 0 0 0
649000000 0.35605558594819975 -0.9515369784051753 4.078816123006359e-05 -4.819114520959364e-05 0 0 0 0
658000000 0.3428332406496843 -0.9579642495734947 -3.3298240545496575e-07 2.3996334870941095e-05 0 0 0 0
667000000 0.3172464708124931 -0.9667462680469845 -8.678470771978006e-06 4.0941797314663484e-05 0 0 0 0
676000000 0.3000283024199395 -0.9707888107014996 -6.5031546904606856e-06 3.707129938664962e-05 0 0 0 0
685000000 0.282042677284416 -0.9748426544864044 4.2443940571208104e-05 4.803142617495769e-05 0 0 0 0
694000000 0.2588692974177454 -0.9816679841394408 -2.2150097732570487e-05 5.866066783874906e-05 0 0 0 0
703000000 0.24544827646756023 -0.9831353803909475 -1.3748553946243447e-05 3.2680111171278575e-05 0 0 0 0
712000000 0.22373445438043268 -0.9880511908893649 4.762345634030442e-05 1.754968463650008e-05 0 0 0 0
721000000 0.205022854969425 -0.9906530275011968 2.8834754239545117e-05 -3.155352588611402e-05 0 0 0 0
730000000 0.17629159286618856 -0.9947435404525233 -7.928725257175475e-06 2.0688917578847304e-05 0 0 0 0
739000000 0.159124498437761 -0.993118054997738 4.0114522966778385e-05 3.4469296656044766e-05 0 0 0 0
748000000 0.13649785949164592 -0.9949263600988176 1.4344234932789079e-05 1.166622481158782e-05 0 0 0 0
757000000 0.12072520861632834 -0.995169300864314 7.279253495703187e-05 6.672950065611135e-05 0 0 0 0
766000000 0.10178503388082463 -0.9935623502788139 0.00010391177865178842 4.6994049870183874e-05 0 0 0 0
775000000 0.07851091391308618 -0.9918521121171413 6.925919416382668e-05 -5.234502763844523e-06 0 0 0 0
784000000 0.061187498542687645 -0.9897616680209937 3.4606365474015936e-06 3.752573212027936e-05 0 0 0 0
793000000 0.035949913600924276 -0.9878445848322084 1.1297026621482344e-05 -2.503237744641641e-05 0 0 0 0
802000000 0.018469279866380382 -0.9860039316845208 1.3810760791142585e-05 -2.782414818041256e-06 0 0 0 0
811000000 -0.003242071451390259 -0.9807460209966833 -2.3849893466615673e-05 -3.0052942491696832e-05 0 0 0 0
820000000 -0.012600102320060497 -0.9791039323027148 7.52461363600619e-05 2.620726482612806e-05 0 0 0 0
829000000 -0.037272600836749166 -0.970969257756625 1.876775517505589e-05 -1.0559514247002335e-05 0 0 0 0
838000000 -0.06087384680685575 -0.9676398403912646 1.6276922474630043e-05 3.1404300654805054e-05 0 0 0 0
847000000 -0.07599528817509553 -0.9612682036474909 8.335204310798502e-05 -2.6657238807600558e-06 0 0 0 0
856000000 -0.09379141408238749 -0.9542518185798027 5.104837487865134e-05 -5.826227633181972e-06 0 0 0 0
865000000 -0.10418874149175004 -0.9505064851949321 1.4612663128107516e-05 -1.1300867052878715e-05 0 0 0 0
874000000 -0.12545718986170168 -0.9412100920723326 3.208766767852557e-05 1.2925726341551067e-05 0 0 0 0
883000000 -0.14084519915923904 -0.935088107529787 -1.8317029408781746e-05 1.892976597162215e-05 0 0 0 0
892000000 -0.1589420980405024 -0.9258199865238074 2.6736639351572718e-05 4.32933966561263e-05 0 0 0 0
901000000 -0.1759182081677379 -0.9183519206447058 -4.542736959925594e-06 2.9062031010099674e-05 0 0 0 0
910000000 -0.1886745348404568 -0.9095761272277127 5.6094108897044094e-05 1.3826284931766755e-05 0 0 0 0
919000000 -0.20603720741240675 -0.9027874425179683 4.150817221347272e-06 -6.046962672554044e-06 0 0 0 0
928000000 -0.21606923074236065 -0.8943926962351405 -3.3567895887615096e-05 1.1692157287610844e-06 0 0 0 0
937000000 -0.22940558381921108 -0.8851734179060365 -4.190570697790126e-06 1.2150443268369486e-05 0 0 0 0
946000000 -0.2458675451913294 -0.8756937026496565 3.8029357053183296e-05 -9.935451332509811e-06 0 0 0 0
955000000 -0.2574881194141241 -0.8694990520070217 -3.5793564778867105e-06 1.3072954946292213e-05 0 0 0 0
964000000 -0.26658836315854445 -0.8611996291467864 -1.524099928706509e-05 -2.173978251685046e-05 0 0 0 0
973000000 -0.28437497449338395 -0.851759591588491 -2.769928706083505e-05 6.761937097076025e-05 0 0 0 0
982000000 -0.2942408677171223 -0.8426808999900933 -1.8908612762800484e-05 7.230229580518376e-07 0 0 0 0
991000000 -0.3051131898360854 -0.8356211222772099 3.4309616336611345e-06 1.4207437476680161e-05 0 0 0 0
1000000000 -0.3152513426403025 -0.827694762719136 6.395425070219412e-05 -4.061342959008361e-05 0 0 0 0
