# HZ S RI R 50
100000000 1.0089303278468775 -0.21951245321364976 -3.219170323255438e-05 5.034858476454492e-06 0 0 0 0
109000000 1.0077816080508075 -0.23483287546883122 2.066379712703335e-06 -2.008161578484292e-05 0 0 0 0
118000000 1.0024112011544406 -0.24985625264687378 1.8331976141381547e-05 -5.81070630226624e-06 0 0 0 0
127000000 0.9965669639626235 -0.2649069110090385 -1.887302927712887e-05 7.277019159679759e-05 0 0 0 0
136000000 0.9916345374737453 -0.2804971040336858 -6.587905130737843e-05 -6.008860895765029e-05 0 0 0 0
145000000 0.9831582247641765 -0.2943924608402023 -1.0817676839749541e-06 3.2547009004792644e-05 0 0 0 0
154000000 0.9776001803498132 -0.3094082099737949 3.266390255971624e-05 1.664062372923383e-05 0 0 0 0
163000000 0.9707580538566508 -0.3257304395856714 -1.2259793208501832e-05 -1.0040399876538629e-05 0 0 0 0
172000000 0.9639297701769451 -0.3395085848550832 -9.735630338401191e-06 -3.851436405398391e-06 0 0 0 0
181000000 0.9575104579275081 -0.35415107451843136 -1.3202835307530306e-06 -2.800899562716343e-05 0 0 0 0
190000000 0.9506352831395039 -0.3703450725770572 -3.7441158238397986e-06 4.855679751500673e-05 0 0 0 0
199000000 0.9445576707826573 -0.38409028751911656 2.3786103703918155e-06 4.058773384365733e-05 0 0 0 0
208000000 0.9359588910017224 -0.3987625998282916 -2.1320757955111285e-05 -5.595349229685382e-05 0 0 0 0
217000000 0.9300499392399842 -0.4120004774166193 -1.0279335168267612e-05 8.518715852816703e-06 0 0 0 0
226000000 0.92223908120664 -0.4269594504446048 5.2683912518011075e-05 1.3246302211709906e-05 0 0 0 0
235000000 0.9154303401234977 -0.4388856851212012 1.1880541119203685e-05 -3.899684597297173e-05 0 0 0 0
244000000 0.9054916463942443 -0.4562920904060842 -4.845655515393489e-05 2.769876645102574e-05 0 0 0 0
253000000 0.8994178134371479 -0.46731379396304473 -5.08569117851585e-05 1.294988385747245e-05 0 0 0 0
262000000 0.8904854554649672 -0.48274649758727906 -6.161487257305148e-05 2.4171836217239526e-05 0 0 0 0
271000000 0.883077286038511 -0.49537790501562995 -2.1524348216539898e-05 -9.525695091751179e-06 0 0 0 0
280000000 0.8751347942965584 -0.507997277540453 1.9333768204435017e-05 -4.094661315251796e-05 0 0 0 0
289000000 0.8657956096934877 -0.5226355631087007 -2.40643681504618e-05 2.3974133741377115e-05 0 0 0 0
298000000 0.8560867681591107 -0.5352535176589484 2.888969100383068e-05 1.2816318909152958e-05 0 0 0 0
307000000 0.8481048634857143 -0.5476653496889355 -3.1938623740325196e-05 4.96787707593794e-05 0 0 0 0
316000000 0.8391174231048468 -0.5612339829645998 -3.261560865893805e-05 -5.7968114253451126e-05 0 0 0 0
325000000 0.8312753918744554 -0.5724881227934817 -2.020378625905387e-05 -1.7838816728803173e-05 0 0 0 0
334000000 0.8174018492733301 -0.5905477326044488 -3.982321874708671e-05 -5.878656969960023e-06 0 0 0 0
343000000 0.8105746620149422 -0.6011189009901365 3.46907201556514e-05 1.9766229934822213e-05 0 0 0 0
352000000 0.7980235701208779 -0.6164800413911693 -8.435636112749339e-07 4.80258447290741e-05 0 0 0 0
361000000 0.791620312755391 -0.6229597342700809 1.1882048829454553e-06 -3.730219071038243e-05 0 0 0 0
370000000 0.7809702814730768 -0.6361013193538815 1.0129920728566015e-05 7.480851451243662e-05 0 0 0 0
379000000 0.7689053846092432 -0.6504360171883118 1.8532399701728697e-05 3.762683037531014e-05 0 0 0 0
388000000 0.7602790620634992 -0.6606806226209438 -1.985929010861681e-05 -3.097823139907538e-05 0 0 0 0
397000000 0.7498012492568567 -0.6735381871410533 1.702260357601315e-05 -2.6889030813871473e-05 0 0 0 0
406000000 0.7399398949773534 -0.6851728555303584 -3.328131414429143e-05 -1.3308095920350173e-05 0 0 0 0
415000000 0.7274445206242979 -0.6975053110320241 2.7074137673764643e-05 -1.7899137071219825e-05 0 0 0 0
424000000 0.7163528658247988 -0.709450974709847 7.817838351682815e-05 7.573890432640089e-05 0 0 0 0
433000000 0.7048740558997534 -0.720513500721522 -5.149014135048373e-05 2.6221521337513492e-05 0 0 0 0
442000000 0.6930501224022181 -0.7319442624854731 3.80099925493856e-05 -1.400629912909991e-05 0 0 0 0
451000000 0.6796455161650539 -0.7444674329849975 -6.648741499792282e-05 -4.97230428491388e-05 0 0 0 0
460000000 0.6689666693384397 -0.7530775318903592 -4.069025394779265e-05 1.4920284628535545e-05 0 0 0 0
469000000 0.6574920053515765 -0.7649446709155117 1.757610462281946e-06 -5.956933593027977e-05 0 0 0 0
478000000 0.6429620028629038 -0.7769000262824795 -1.4865746328262303e-05 6.749076446528116e-07 0 0 0 0
487000000 0.6284074907607481 -0.7898994628517509 -5.0669752203888165e-05 1.7477159831691345e-05 0 0 0 0
496000000 0.6174144917777356 -0.7994717509967925 8.670842893391301e-06 -1.4665183804546858e-06 0 0 0 0
505000000 0.6035729958800433 -0.809082079003163 -5.189298196553545e-06 5.981829382996501e-05 0 0 0 0
514000000 0.592847978395696 -0.8194889848855912 1.579767121489391e-05 -1.0837930323195181e-05 0 0 0 0
523000000 0.5792888144655074 -0.828869043480865 -7.277655419747718e-05 -5.250732529501243e-05 0 0 0 0
532000000 0.5661020441822765 -0.8397875581430623 1.876763153608257e-05 -6.9595338271552705e-06 0 0 0 0
541000000 0.5510877362092046 -0.8500802288251049 1.5623569706740454e-07 3.595893226814098e-06 0 0 0 0
550000000 0.5412291087993539 -0.8571370209286279 4.6231005637835256e-05 9.030120397800673e-05 0 0 0 0
559000000 0.517425993553974 -0.8724692064728644 2.362480285111833e-05 -3.3924388325178046e-05 0 0 0 0
568000000 0.5067695196430456 -0.8802799529966043 -2.3765873696758306e-05 -8.52302155064867e-05 0 0 0 0
577000000 0.4913970869231949 -0.8884780087812617 5.252673449128135e-06 -3.050748055445009e-05 0 0 0 0
586000000 0.47599820233003554 -0.8971037297716008 -2.894704947540331e-05 5.75808501667645e-05 0 0 0 0
595000000 0.45539093596229296 -0.9097846153913783 1.8162563862015252e-05 7.78352616307414e-05 0 0 0 0
604000000 0.4473408283481094 -0.9145748230124092 2.0698103067595275e-05 -1.0914685581615429e-05 0 0 0 0
613000000 0.42633315008212996 -0.9230125948184627 1.4074421544818559e-05 2.475326460878579e-05 0 0 0 0
622000000 0.4082355803150001 -0.9330269173295337 1.3247838972338693e-05 2.4647842796279942e-05 0 0 0 0
631000000 0.39495474924392054 -0.9383063374554653 -2.432725125343994e-05 3.135354158263888e-05 0 0 0 0
640000000 0.3739407281403956 -0.9452612080631769 -2.6852879060326745e-05 1.6394019528229347e-05 0 0 0 0
649000000 0.3629021574864368 -0.9507199848585123 -4.1533809574478904e-05 6.475210350360505e-06 0 0 0 0
658000000 0.3364508962331002 -0.9607049913572988 1.7320072825204197e-05 9.35272319249002e-06 0 0 0 0
667000000 0.3177247675742911 -0.964173987696467 -4.809019255147099e-06 3.2255772709463996e-05 0 0 0 0
676000000 0.29872746907553094 -0.9700684278498293 7.577677246978702e-05 1.4441279275935319e-05 0 0 0 0
685000000 0.28020688159491564 -0.975122490085964 -6.198081844219352e-05 6.269861634323886e-05 0 0 0 0
694000000 0.2602192163997847 -0.9819887125836865 -1.92229196184118e-05 7.146081611324468e-05 0 0 0 0
703000000 0.2427635940600299 -0.9835246468831522 5.952295536374446e-05 2.346190136497137e-05 0 0 0 0
712000000 0.22070197153372556 -0.9873332504836294 -1.0517804147072398e-05 8.359781678057871e-05 0 0 0 0
721000000 0.2016841097443145 -0.9913922897660276 3.824461077521957e-05 4.596744066255627e-06 0 0 0 0
730000000 0.18290114682030562 -0.9931052195698377 -1.9418875654202363e-05 3.712425572042485e-05 0 0 0 0
739000000 0.1625185339067361 -0.9936073203805242 0.00012159245522263557 1.1673725820437732e-05 0 0 0 0
748000000 0.13304179041952285 -0.9951252242375347 3.3130327190395365e-05 9.692952737915804e-05 0 0 0 0
757000000 0.11946314640378318 -0.9940287066360227 3.431412230188131e-05 0.00012027500013883309 0 0 0 0
766000000 0.09791069360026293 -0.994067661280804 -3.1969161747509e-05 9.398081670408635e-05 0 0 0 0
775000000 0.07943777367924061 -0.9930665119907944 -3.443300412142205e-05 -2.367495307988885e-05 0 0 0 0
784000000 0.06385721083350183 -0.9913766864832582 6.503030506323122e-05 -1.6748689429380097e-05 0 0 0 0
793000000 0.03912800066515685 -0.9899525663142489 2.013923791525793e-05 3.081162995489563e-05 0 0 0 0
802000000 0.011890689794397346 -0.9846638528371242 5.713099992926341e-05 -2.0390200384376165e-05 0 0 0 0
811000000 -0.0016723091417350524 -0.9800667258111813 6.51417807243607e-05 3.4554183040740105e-05 0 0 0 0
820000000 -0.020856130991352122 -0.9780287544978058 8.37775398019285e-06 -5.820459628148487e-06 0 0 0 0
829000000 -0.04195208115876405 -0.972694206673775 4.859714338972396e-05 2.5187053233691667e-06 0 0 0 0
838000000 -0.0588389206998433 -0.9660863515416505 4.195770898169979e-05 -2.0431054962876547e-05 0 0 0 0
847000000 -0.06951056964566064 -0.9618950725029302 4.996420026364235e-05 -3.5209164558980416e-05 0 0 0 0
856000000 -0.09091192702853045 -0.9541894416136922 1.0196265289857766e-06 4.1542114715110054e-05 0 0 0 0
865000000 -0.10922248463011394 -0.9460754779116096 3.1559316440115756e-05 -3.0473699760261672e-05 0 0 0 0
874000000 -0.11947233801243816 -0.9421397620984469 6.894267699276185e-05 -4.142493765037535e-05 0 0 0 0
883000000 -0.14353426321088925 -0.932109666107921 -5.523759999296375e-05 -3.3261234195258244e-05 0 0 0 0
892000000 -0.1632575841932076 -0.9247658896659301 -1.1283726240261712e-05 -2.1325057466064513e-05 0 0 0 0
901000000 -0.16301676385818328 -0.9192754197538747 -1.5194141721587894e-06 1.8788236593055206e-05 0 0 0 0
910000000 -0.19411064388816426 -0.907680514802216 -3.437830599623039e-05 8.796497121858942e-06 0 0 0 0
919000000 -0.2040770618870851 -0.9033229495908502 2.510855246058172e-05 1.5893451283497745e-05 0 0 0 0
928000000 -0.22017568607668672 -0.8942643476283427 3.410439954700395e-06 5.340711673633102e-05 0 0 0 0
937000000 -0.23093178895713823 -0.8843645519436365 -3.2453602617446526e-05 1.6955660538048502e-06 0 0 0 0
946000000 -0.24527263289058096 -0.8775978288508808 4.083486692977607e-06 1.9540270519391446e-05 0 0 0 0
955000000 -0.25459607724652206 -0.8693039085704332 -2.2011507390123982e-05 6.123570727171599e-05 0 0 0 0
964000000 -0.2684943955516706 -0.861447650459032 -9.986440366355469e-06 -1.986029432576993e-05 0 0 0 0
973000000 -0.2835912948921108 -0.851723820016821 -1.4877556893924774e-06 8.287244365424008e-05 0 0 0 0
982000000 -0.2934217412761005 -0.8435218505888877 -4.176555747578558e-05 3.096229328781408e-05 0 0 0 0
991000000 -0.29936371915963206 -0.8386325799625673 -3.090596723055529e-06 -2.688605219016138e-05 0 0 0 0
1000000000 -0.3191286828846185 -0.825169895240936 3.3188305877909476e-05 -1.2318479224144244e-05 0 0 0 0
