# HZ S RI R 50
100000000 1.0127167368729217 -0.21908254869028668 6.499383276648354e-05 -1.4924589657836796e-05 0 0 0 0
109000000 1.0076603928353274 -0.23472580870072937 -3.9450570032509215e-05 1.1020390565634812e-05 0 0 0 0
118000000 1.002278999555864 -0.2500789036538632 -1.8696086621966722e-05 -5.02334180907497e-05 0 0 0 0
127000000 0.9959854598565316 -0.26459805886488325 5.823920458571376e-06 -2.4163650670165783e-05 0 0 0 0
136000000 0.9912903147351421 -0.2805929383295587 7.572385394233674e-07 2.8160186179122285e-05 0 0 0 0
145000000 0.9826821330750497 -0.29521234632668103 2.159760011654015e-05 -1.6133497111912323e-05 0 0 0 0
154000000 0.9769930715602875 -0.31117275010474305 4.195865085613617e-05 -4.0832541984449716e-05 0 0 0 0
163000000 0.9703540866480538 -0.32489159121321226 8.533519645528496e-06 1.2534271670417726e-06 0 0 0 0
172000000 0.964777113499896 -0.3402079635609169 -1.644765427973319e-05 -5.3878973492731876e-05 0 0 0 0
181000000 0.957898960898437 -0.3547375976575147 1.2340484445140564e-06 2.589500334686307e-05 0 0 0 0
190000000 0.9505447094773578 -0.3699943991967016 -1.2995971945560861e-05 -8.738152880277961e-06 0 0 0 0
199000000 0.9431557327888429 -0.385497703428129 9.027102962899955e-06 3.9283360401608334e-05 0 0 0 0
208000000 0.9369870561116429 -0.39909811440222664 5.941219737411204e-06 -4.083418553386402e-05 0 0 0 0
217000000 0.9299166224873123 -0.4132250860970537 -1.2881326702242624e-05 5.50873620483554e-05 0 0 0 0
226000000 0.9222892745162273 -0.4267128904874431 -1.4876947616488185e-05 1.4203316829289019e-05 0 0 0 0
235000000 0.9154797651156501 -0.438858781324453 6.370380316601818e-06 2.0994691250899754e-05 0 0 0 0
244000000 0.9074231836670723 -0.45410308224617607 5.596287416718841e-07 3.754149164131849e-05 0 0 0 0
253000000 0.8983756392972171 -0.4697290586817738 1.6982860541521785e-06 -1.858556745556905e-05 0 0 0 0
262000000 0.8906129004259352 -0.4825383621803494 -2.712785057728824e-05 1.7948407678085597e-05 0 0 0 0
271000000 0.8833199378315656 -0.49541702347353117 3.852843546829671e-05 -3.594797856644036e-05 0 0 0 0
280000000 0.8722132167519558 -0.5101021494104359 4.389340990293533e-05 2.8547073888936978e-05 0 0 0 0
289000000 0.8646758865115616 -0.5220111315315878 -2.52964374224107e-05 -1.660742658529282e-05 0 0 0 0
298000000 0.8560639732981334 -0.535417004520241 -4.562508688073342e-06 1.8123644969528104e-06 0 0 0 0
307000000 0.846899044943405 -0.5491040020038246 -8.497476691660664e-06 -7.894609209342133e-05 0 0 0 0
316000000 0.8397294900963798 -0.5614989435192298 -6.741214793960372e-05 3.732756069706005e-05 0 0 0 0
325000000 0.8297905988926592 -0.5728062201922395 2.437757903919399e-05 6.878500326492525e-06 0 0 0 0
334000000 0.8189477751580051 -0.587535436281065 3.177378318462874e-05 -2.40697403063955e-05 0 0 0 0
343000000 0.8098777858711572 -0.5981704190346264 -2.5006149609276645e-05 -1.6657426484848868e-05 0 0 0 0
352000000 0.8011887217234207 -0.611704035406833 6.475320288475374e-06 -5.1618324156526484e-05 0 0 0 0
361000000 0.7903235943749871 -0.6251390280523674 1.7075121489047468e-05 -3.509612527270377e-05 0 0 0 0
370000000 0.7805529577791483 -0.6384486306242129 3.131493252918902e-05 -1.665292058505735e-05 0 0 0 0
379000000 0.7702397299774856 -0.6501163327125274 1.6082536350502355e-05 -6.389604628959524e-05 0 0 0 0
388000000 0.7613879576428506 -0.6595632636710553 1.901759117674951e-05 -1.5134124564270443e-05 0 0 0 0
397000000 0.7520576504704526 -0.6711479719548582 5.946550570898003e-06 2.2196063840521368e-06 0 0 0 0
406000000 0.7392059804766465 -0.6838879167148887 1.5835527463855688e-05 -2.850880600456746e-05 0 0 0 0
415000000 0.7283188813863056 -0.6958331653391958 -1.687541397812379e-05 4.5376653027135615e-05 0 0 0 0
424000000 0.7141352408099784 -0.7112920611460165 2.2806779971028324e-05 3.534014211659533e-05 0 0 0 0
433000000 0.7015184400910929 -0.7223029829338208 -2.1289334298392857e-05 4.1058997896259886e-05 0 0 0 0
442000000 0.6926857297507503 -0.7314611229188239 -1.3120456495051913e-05 -7.877273383518949e-06 0 0 0 0
451000000 0.6825198927954136 -0.7429272158348256 3.7947961432695136e-05 -1.0643368161215413e-05 0 0 0 0
460000000 0.6709848235706571 -0.7536116254628301 4.590467999693181e-06 -1.932386244540948e-05 0 0 0 0
469000000 0.6549300051522031 -0.7661045613339499 -1.0981245778856137e-05 1.9196360775472573e-05 0 0 0 0
478000000 0.6446167553886164 -0.7760127426535788 1.562939800224452e-05 -9.15602057542736e-05 0 0 0 0
487000000 0.6311908304348538 -0.7875169113031363 -7.284752189393569e-05 -2.826041670591969e-05 0 0 0 0
496000000 0.6181049676144877 -0.7993515558382541 8.542682949594152e-05 -0.00016914922417795664 0 0 0 0
505000000 0.6070571376047802 -0.8078146430365084 -8.732477905155629e-05 -1.3908645737103855e-05 0 0 0 0
514000000 0.5878797336155331 -0.8228034029405896 -2.690814755866917e-05 -4.285196729849233e-05 0 0 0 0
523000000 0.578546589279884 -0.8298573426741451 8.237915390172625e-05 5.501297478367092e-05 0 0 0 0
532000000 0.5653178745061224 -0.8401729923902008 4.0451664964758126e-05 7.953000454757283e-07 0 0 0 0
541000000 0.5475145378533556 -0.8516166387478509 -9.942105577415841e-05 1.6322517816838752e-05 0 0 0 0
550000000 0.5326580432270794 -0.8622249444105609 -3.1296071826319584e-05 2.7288502126539465e-05 0 0 0 0
559000000 0.5217983074640089 -0.8695113903271463 3.891876746394936e-05 5.388652516359045e-05 0 0 0 0
568000000 0.5094997938167992 -0.8782242279310917 4.526062894087588e-05 -5.473397111995199e-05 0 0 0 0
577000000 0.4882044528968495 -0.8915700607714198 -8.133270083619194e-05 -3.924003854259306e-05 0 0 0 0
586000000 0.4761896292390814 -0.8967329824896352 -2.6995781782243314e-05 3.7031553956730115e-05 0 0 0 0
595000000 0.46090661990993564 -0.9047833658349611 -2.0198084065401753e-07 3.673590508865346e-05 0 0 0 0
604000000 0.44323741435176234 -0.9136252227315359 -2.4917731482289994e-05 2.6206828092639324e-05 0 0 0 0
613000000 0.4261201934378737 -0.9237786311125291 -8.758120875694054e-05 0.00012563402153418983 0 0 0 0
622000000 0.4069491487048495 -0.9335424343233794 -2.188120685876785e-05 7.508160145615778e-05 0 0 0 0
631000000 0.38826812426645885 -0.9395081352075443 -4.9532408118449144e-05 -1.959173590676165e-05 0 0 0 0
640000000 0.3735457558476174 -0.9450688840637618 -1.6645914535378105e-05 -2.350444725692994e-05 0 0 0 0
649000000 0.36160577885686646 -0.9508005027106563 2.1765617239220953e-05 4.3179572205022664e-05 0 0 0 0
658000000 0.3333059208939301 -0.9592005122007706 1.0151576149941932e-05 3.598446764614476e-05 0 0 0 0
667000000 0.32142876521477004 -0.964712155158619 -3.699214503866673e-05 -1.72260369353689e-05 0 0 0 0
676000000 0.3050536270021842 -0.9704628432857239 4.548173923036084e-05 5.201084399273704e-05 0 0 0 0
685000000 0.27646535370705283 -0.9771009277351979 5.1497267764702675e-05 5.470245742136669e-05 0 0 0 0
694000000 0.262567641591437 -0.9810456017005884 -4.021003734351809e-05 6.765911865227158e-06 0 0 0 0
703000000 0.24193852978722089 -0.9842119399551564 -3.4602593117015098e-06 7.449789796205919e-05 0 0 0 0
712000000 0.21812508826375848 -0.9888140122649604 7.995067865601574e-05 6.755026359924783e-05 0 0 0 0
721000000 0.2029309536531729 -0.9929959372220831 -4.080130687285285e-05 4.156419062330532e-05 0 0 0 0
730000000 0.17495614394547088 -0.9932954611798722 3.71228909115277e-05 -3.459302711722099e-05 0 0 0 0
739000000 0.1545430943016871 -0.9971941548795288 9.56477145580945e-05 5.7646932664329336e-05 0 0 0 0
748000000 0.1376564754803111 -0.9967605748606213 -1.9538060655960813e-05 1.0683664490298691e-05 0 0 0 0
757000000 0.1293015751201564 -0.993523239227028 1.0053167907146996e-05 -1.2063871828811716e-05 0 0 0 0
766000000 0.10202800531851328 -0.9935522281840121 3.9726746371315256e-05 1.3235173688647254e-05 0 0 0 0
775000000 0.07713331232644018 -0.9945531433861137 0.00010289470510352232 3.441475024527218e-05 0 0 0 0
784000000 0.055043346071455335 -0.9894133944334265 -3.5482262745767994e-06 -2.1876828184033e-05 0 0 0 0
793000000 0.03381928056722103 -0.9896900928803821 1.9454772107673763e-05 9.138640884451013e-06 0 0 0 0
802000000 0.022466756094324098 -0.9868007096150311 5.619137629151252e-05 3.285250715552975e-05 0 0 0 0
811000000 0.00467638340513837 -0.9808352895189607 2.7448700042599954e-05 -6.807288787391329e-05 0 0 0 0
820000000 -0.02636928518501512 -0.9757673855857374 6.017560657902539e-05 1.984782851408329e-05 0 0 0 0
829000000 -0.03711248001983702 -0.9703534813446454 5.155741169059825e-05 -4.451244846848201e-05 0 0 0 0
838000000 -0.06182950125776226 -0.9671340334238406 -1.545208668234615e-05 -5.995999494438563e-05 0 0 0 0
847000000 -0.07600903730297517 -0.9609268085948146 6.431011703678838e-05 7.024841724014804e-05 0 0 0 0
856000000 -0.09061740207892147 -0.955779526031799 4.120527965776656e-06 -0.00010506767787309319 0 0 0 0
865000000 -0.11484381818595775 -0.9452789933474353 2.157962013164294e-05 3.7280364469404518e-06 0 0 0 0
874000000 -0.13558011365790465 -0.9408426668100034 6.795381377808485e-05 -5.303472446357497e-05 0 0 0 0
883000000 -0.14395602961462542 -0.9342740399664461 -6.391353864760425e-05 -6.159202384268927e-05 0 0 0 0
892000000 -0.1639092998457638 -0.9253052936638653 9.907938136332471e-07 1.7018474750800272e-05 0 0 0 0
901000000 -0.16973580015548814 -0.9172527376971494 0.00010212517894766833 1.7031685273314646e-05 0 0 0 0
910000000 -0.1892777627954169 -0.9088844205430314 1.7951080228873534e-05 1.9515935317432796e-05 0 0 0 0
919000000 -0.20556701500173222 -0.900988260409934 -4.1759276798383664e-05 4.0480797197328006e-05 0 0 0 0
928000000 -0.20894747206013617 -0.8948867757501353 -4.199726942643742e-05 5.1947996128427014e-05 0 0 0 0
937000000 -0.23454699279518876 -0.8836865812113794 6.260225831613567e-05 -3.788230175792237e-05 0 0 0 0
946000000 -0.24890180312924037 -0.8774768549998707 -5.555059450466839e-05 3.459114811426561e-05 0 0 0 0
955000000 -0.266587035321913 -0.86633466320538 8.25273106191301e-05 2.2594822110141608e-05 0 0 0 0
964000000 -0.26980473495000823 -0.8615634724479814 3.7389468179481034e-05 0.00011454538176386 0 0 0 0
973000000 -0.2793023737239066 -0.8526073054425363 -9.204216396799092e-06 -2.4211136635570374e-05 0 0 0 0
982000000 -0.29063557723086564 -0.8437111428689976 -2.8117487365520603e-05 4.484546424587916e-05 0 0 0 0
991000000 -0.3044595891629142 -0.8363746966733991 -6.534707380500072e-05 3.542859093080692e-05 0 0 0 0
1000000000 -0.31672709552834943 -0.8287229693844302 7.050686360283487e-06 1.273112241773967e-05 0 0 0 0
