# HZ S RI R 50
100000000 1.0066467696312724 -0.21951710476944533 -4.394401291154265e-05 -4.1021750090605025e-05 0 0 0 0
109000000 1.0072847373859946 -0.2341654145424414 3.2800076030558935e-05 2.9022795402233194e-06 0 0 0 0
118000000 1.002242178840812 -0.2495808327581789 -0.00010782909950958483 1.3817512839609676e-05 0 0 0 0
127000000 0.9970734312852465 -0.2644082455483754 -4.204439115030067e-06 -7.249760599076186e-05 0 0 0 0
136000000 0.9916033144912033 -0.2797512687300212 2.7139536026414887e-05 -3.899914936384399e-05 0 0 0 0
145000000 0.9829431626069038 -0.2949863634360687 4.8765450126139614e-05 3.206993499303476e-05 0 0 0 0
154000000 0.9764750772810215 -0.31189892495159005 -6.336810312734389e-06 -3.901721250915267e-05 0 0 0 0
163000000 0.9707292566943043 -0.3255477893833519 2.2080009683253635e-05 3.3463647688278954e-06 0 0 0 0
172000000 0.9650593633358415 -0.3383946122595953 3.3805640449786177e-06 -1.1485567983822875e-05 0 0 0 0
181000000 0.9580235521320493 -0.3546647371961719 3.577281750177994e-05 -1.1167831766684755e-05 0 0 0 0
190000000 0.9509136471963543 -0.3693388555828138 -4.337667290579552e-05 -3.2372987606686015e-05 0 0 0 0
199000000 0.9432457184219466 -0.3845231825515222 5.601444185596853e-05 4.335445693079879e-05 0 0 0 0
208000000 0.9355836285480084 -0.3990631531334813 -1.6997216243673253e-07 -1.708831823872971e-05 0 0 0 0
217000000 0.9299047535258315 -0.41274687969993384 7.655720833062172e-06 -2.2989978802529926e-05 0 0 0 0
226000000 0.9219119706944187 -0.4278337211132825 6.39451346223402e-05 3.9703882797924825e-05 0 0 0 0
235000000 0.9145879751839425 -0.4412051943252579 -3.818378106306812e-05 1.757134036355212e-05 0 0 0 0
244000000 0.9067260918745731 -0.45454756847219235 2.733783881405179e-05 -2.8915372671652723e-05 0 0 0 0
253000000 0.8994273165810577 -0.46732069733451936 2.9893180387656425e-05 2.5345715277391538e-05 0 0 0 0
262000000 0.8926412805950823 -0.4787475356032053 1.885451986901111e-05 2.423581927444328e-05 0 0 0 0
271000000 0.8819512321538509 -0.4966022095016542 2.180040514466752e-05 -1.8978595224375658e-05 0 0 0 0
280000000 0.8736853360823682 -0.5097561297770907 -4.886447852522264e-06 3.0168463736688396e-05 0 0 0 0
289000000 0.8657423916201448 -0.5227430406232614 3.217758074863626e-05 -2.0918719883741518e-05 0 0 0 0
298000000 0.8559309435716582 -0.536977252046151 -4.471628119808181e-05 5.940468862764924e-05 0 0 0 0
307000000 0.847742837626747 -0.5480339332111996 5.6703533831759216e-05 2.0891905899882314e-05 0 0 0 0
316000000 0.8399471291871305 -0.5619681395822157 -2.2873277644896748e-05 -7.860658652567648e-06 0 0 0 0
325000000 0.8287915853117721 -0.5770688510186606 2.042368595619328e-05 5.610209370629229e-05 0 0 0 0
334000000 0.8199524350024644 -0.5871879984357288 -3.666489705149853e-05 3.667451461728467e-05 0 0 0 0
343000000 0.8117322475296632 -0.597302318700943 1.9651825293244672e-05 3.781146454830329e-05 0 0 0 0
352000000 0.802458142572257 -0.6118009080520226 -5.3418396053213496e-05 -9.007090769706308e-06 0 0 0 0
361000000 0.7926676803570102 -0.6245917253346942 1.9739390608545944e-05 3.681357079106232e-05 0 0 0 0
370000000 0.7805434575157569 -0.6386208257423699 4.275660499680521e-05 -1.5176782325188863e-05 0 0 0 0
379000000 0.7692979760935817 -0.650967312288335 1.774607270078336e-05 -8.70177983911362e-05 0 0 0 0
388000000 0.7621475791459495 -0.6598676585167208 3.705581195714331e-05 -1.4364617548125728e-05 0 0 0 0
397000000 0.7490957683135887 -0.67270181233318 -6.1012543157167075e-05 -2.6307698212968674e-05 0 0 0 0
406000000 0.7382794107299913 -0.6860531407926662 -4.5244544456948204e-05 -6.901713740573663e-05 0 0 0 0
415000000 0.7296025713989005 -0.6941155255328865 2.3625873518644067e-05 3.3871556693903936e-06 0 0 0 0
424000000 0.7165853427496724 -0.7090337568627239 2.5839724951900917e-05 -2.426285111843882e-05 0 0 0 0
433000000 0.70492087625835 -0.7202972232721297 -2.2668576814484584e-05 -2.277669047331412e-05 0 0 0 0
442000000 0.695899018148669 -0.7285887632610037 2.5716167788912737e-05 -0.00013173627992489495 0 0 0 0
451000000 0.6807317904091125 -0.743441590750844 -3.053158341912425e-05 1.4634763350028535e-05 0 0 0 0
460000000 0.6682438508706089 -0.7553484361007007 5.020771645363133e-05 -6.679786900575907e-05 0 0 0 0
469000000 0.6561689073138981 -0.7667350923898031 9.455060877751857e-06 -3.357777675734688e-05 0 0 0 0
478000000 0.6454827223117368 -0.7758267791722852 -5.297843711626803e-05 -2.1994673023357764e-05 0 0 0 0
487000000 0.6325315019214761 -0.7867211214840761 -1.1401554578437507e-05 -1.709324616768184e-05 0 0 0 0
496000000 0.6192515156184784 -0.7981613384462993 -7.578007245817112e-05 -3.2622104882233e-05 0 0 0 0
505000000 0.607685149188507 -0.8077600278924343 2.619032931514697e-05 -1.0699237031982934e-06 0 0 0 0
514000000 0.5918983614030059 -0.8199814351651387 1.03419090710666e-06 -2.0660290485862495e-05 0 0 0 0
523000000 0.5771996512681956 -0.8313522203560892 2.4329684619571494e-06 -4.6926983887918414e-05 0 0 0 0
532000000 0.5660028171103733 -0.8391530858029485 4.6617602153981745e-05 -2.8021703922075043e-05 0 0 0 0
541000000 0.5481992347455926 -0.8512390925471548 -4.311437507131111e-05 -3.198042134535005e-06 0 0 0 0
550000000 0.5363441092835303 -0.8600726555142076 -2.278489675055527e-06 4.981728799072438e-05 0 0 0 0
559000000 0.5192269476506841 -0.8706681958296894 3.9040525543876835e-05 -3.262814772775275e-05 0 0 0 0
568000000 0.5092311802926253 -0.8783077296464944 -5.8824178515636157e-05 1.1979180173163686e-05 0 0 0 0
577000000 0.49035595690434375 -0.8886020393794966 -3.272513027209284e-05 1.95162539977302e-06 0 0 0 0
586000000 0.4717504890324734 -0.8993451299610044 3.5762560221200194e-05 -6.469707535062811e-06 0 0 0 0
595000000 0.4596894706400675 -0.905849275886036 -1.0616544819037793e-05 -1.4338934641999289e-05 0 0 0 0
604000000 0.4460218565598876 -0.9124217424860114 -4.011064390864022e-05 -7.283270101944568e-05 0 0 0 0
613000000 0.4310877039581777 -0.9212393311483688 -1.2566581323630858e-05 5.876977200882038e-06 0 0 0 0
622000000 0.4081827363499454 -0.9329512253332676 3.372015355934139e-06 -3.6611454326071216e-05 0 0 0 0
631000000 0.39087260757111864 -0.9402032873931006 -3.195313093934996e-05 -1.618719993704164e-05 0 0 0 0
640000000 0.3718850116500972 -0.9466430188458946 -1.4134801779692276e-05 0.0001166642954054873 0 0 0 0
649000000 0.35115659938106497 -0.9551792265567817 -2.243050670055498e-05 4.32837590988667e-06 0 0 0 0
658000000 0.33975348208221107 -0.9570666879464219 3.5111507576932094e-05 2.8404000956198738e-05 0 0 0 0
667000000 0.31958981778880013 -0.9654140050494011 -5.1192896104145985e-06 -3.718050861431649e-05 0 0 0 0
676000000 0.3087487504850887 -0.9693670894468416 4.36385014051653e-05 7.598173167290643e-05 0 0 0 0
685000000 0.27621658049750253 -0.9773854760047272 -6.864294612001683e-05 5.850165224747384e-05 0 0 0 0
694000000 0.2611284479426257 -0.9795801758407447 4.9016206034651986e-05 7.335329214680026e-05 0 0 0 0
703000000 0.23641249973666023 -0.9852428749854838 -2.089205793924306e-05 3.4194144940286584e-05 0 0 0 0
712000000 0.2235069703143729 -0.9872154929838932 5.1841645661854176e-05 5.409078619568338e-06 0 0 0 0
721000000 0.20078159010827934 -0.9917790182595151 -1.1467751708169419e-05 5.472487678846343e-05 0 0 0 0
730000000 0.18143400581625 -0.9930945609420181 0.0001468530353915016 -5.127152392950526e-05 0 0 0 0
739000000 0.1658858201743005 -0.992674222415444 8.625725008602261e-05 -7.589327671909505e-06 0 0 0 0
748000000 0.1351867260581334 -0.9965961008839834 -2.479528533402162e-05 2.7524471298502716e-05 0 0 0 0
757000000 0.12811322264821645 -0.9938311129827087 9.677795831254363e-05 4.4152926596186356e-05 0 0 0 0
766000000 0.0981413386591924 -0.9942882731115793 4.3406930100625286e-05 3.467528683217465e-05 0 0 0 0
775000000 0.0773873860986988 -0.9922969020964822 -4.022510706843479e-07 -1.3575658241469328e-05 0 0 0 0
784000000 0.05547576508511797 -0.9918295398163184 0.00010546684655962204 -5.000470199972977e-05 0 0 0 0
793000000 0.0365502317588749 -0.9892860502150542 3.498633847909304e-05 -8.223993314515972e-05 0 0 0 0
802000000 0.022594996213810968 -0.9859883538208667 1.1029785638459083e-05 -1.3507914640012165e-07 0 0 0 0
811000000 -0.00023910149935484683 -0.9808995780590556 0.00013024065659768172 3.209721317484442e-05 0 0 0 0
820000000 -0.02060994701714308 -0.9776617173272306 7.996186495573344e-05 -1.2094579746020169e-05 0 0 0 0
829000000 -0.03512690201106243 -0.9712393707642688 5.720834597527797e-05 -8.975144033152734e-06 0 0 0 0
838000000 -0.05227461838257537 -0.9670693202107924 6.255527152743e-05 1.8452257876040063e-05 0 0 0 0
847000000 -0.07406671352544737 -0.9615338634217485 -8.73516302421381e-06 3.646012123829969e-05 0 0 0 0
856000000 -0.09627952150372462 -0.9537680533372014 1.6320289221295544e-06 -1.5048002338768223e-05 0 0 0 0
865000000 -0.09979907352763444 -0.9506581675838245 -6.465932511403562e-05 -1.9111901296857447e-05 0 0 0 0
874000000 -0.12618145684686985 -0.9410473781592357 9.790047412860114e-06 -1.3113541257995234e-05 0 0 0 0
883000000 -0.1296868006502133 -0.9362231307314517 9.67662155821547e-05 -8.623940713127287e-06 0 0 0 0
892000000 -0.1544450416728072 -0.9263525420175557 5.201858918531434e-05 -1.763689689229288e-05 0 0 0 0
901000000 -0.16830430195919793 -0.9193864012965605 -1.9235039235486738e-05 7.5002480615438845e-06 0 0 0 0
910000000 -0.18393001548150395 -0.9110217161538697 1.533530926196135e-05 -6.458678332683062e-06 0 0 0 0
919000000 -0.19593811722788232 -0.9019662801875288 7.040926217113645e-05 -1.1174474490177755e-05 0 0 0 0
928000000 -0.2143636787988325 -0.8939736824480852 1.8111312266790686e-05 2.258742960187769e-05 0 0 0 0
937000000 -0.23287267516326926 -0.8860827649228517 7.291198033991207e-06 -2.263427108587327e-05 0 0 0 0
946000000 -0.24058600808557887 -0.8787143203618227 1.072269819790222e-05 3.6928719517855896e-05 0 0 0 0
955000000 -0.25767878191248655 -0.8685434347180732 -6.191895484730627e-05 4.0767725212032236e-05 0 0 0 0
964000000 -0.2724457702463326 -0.8613395106838737 1.4325214416305036e-05 8.13302723132824e-05 0 0 0 0
973000000 -0.283365373862099 -0.8520356316885142 3.415138405087866e-05 -2.5405773900512677e-06 0 0 0 0
982000000 -0.2915451334471772 -0.8442300364103249 3.707005496688256e-05 -6.082275515924375e-06 0 0 0 0
991000000 -0.3077030665257242 -0.8348762371769364 -5.0539174199395867e-05 3.528569342356334e-05 0 0 0 0
1000000000 -0.3163136438232166 -0.8266686160615585 0.00010816548707394019 3.8646185879455215e-05 0 0 0 0
