# HZ S RI R 50
100000000 1.0124130748892597 -0.21916310876296213 -3.57982766133243e-05 -7.648127606096638e-05 0 0 0 0
109000000 1.007506405962882 -0.23469863318132161 -2.689038495926791e-06 2.2603543843020934e-05 0 0 0 0
118000000 1.0023538855723777 -0.2499954329947353 -4.378421807111343e-05 1.125980361088875e-05 0 0 0 0
127000000 0.9971737760197841 -0.265441653418423 2.2566454768321078e-05 -1.4933200138979399e-05 0 0 0 0
136000000 0.9919465491518055 -0.27968345718132487 7.144819798816211e-07 6.877993232422245e-05 0 0 0 0
145000000 0.9832266348724991 -0.29570016418262984 -2.5150843045514625e-05 4.9660648002369735e-06 0 0 0 0
154000000 0.9769776910356659 -0.3109470314004493 3.795732477980532e-05 -1.1227377488687692e-05 0 0 0 0
163000000 0.970726500796405 -0.3248309262967055 -1.4212825170272015e-05 -4.3240762666361325e-05 0 0 0 0
172000000 0.9642796159576371 -0.341275601527109 6.362340838153658e-05 3.1351695929571015e-05 0 0 0 0
181000000 0.9579330068486284 -0.35513877941847394 7.149920506476627e-07 4.353201227814681e-05 0 0 0 0
190000000 0.9499935455290389 -0.3717252789258938 -3.8644974825987996e-05 -5.596198023517902e-06 0 0 0 0
199000000 0.944358220349409 -0.38317244587269006 2.929944251923339e-05 4.416785545569596e-05 0 0 0 0
208000000 0.9369984871079445 -0.3974323401683925 -8.932681481540566e-06 3.157244603901605e-05 0 0 0 0
217000000 0.9296549638346988 -0.4112960059351359 2.577185211839926e-05 1.9223111293982994e-05 0 0 0 0
226000000 0.9225055439346828 -0.4263622650655822 -2.3773844990876058e-05 3.204372283591135e-06 0 0 0 0
235000000 0.9147363356363358 -0.4407009119354056 -2.28211007907482e-05 7.619177732697405e-05 0 0 0 0
244000000 0.906674021918221 -0.45457876793522034 1.6733436868290245e-05 3.6836694198509265e-06 0 0 0 0
253000000 0.8992675715449152 -0.46705814837721 7.436443421619417e-06 6.473887865078889e-07 0 0 0 0
262000000 0.891125322024219 -0.4821035424060281 -3.468151672135424e-05 -4.100227865585557e-05 0 0 0 0
271000000 0.8824232632094442 -0.49520416199866457 4.5284524476914295e-06 -1.561063912656921e-05 0 0 0 0
280000000 0.8728592667842465 -0.5092216673625318 3.5013475539955265e-05 -4.095692908062647e-05 0 0 0 0
289000000 0.8647256883101225 -0.5237547902038191 -2.4704757740007925e-05 -9.684453672661168e-06 0 0 0 0
298000000 0.8563277409804417 -0.5361536869568797 2.662147910149322e-07 4.804386913124183e-06 0 0 0 0
307000000 0.8459130978135543 -0.5494089391044896 -4.3500584478480155e-05 1.7095842110945512e-05 0 0 0 0
316000000 0.8398909783289744 -0.5613874787541274 -6.31881223137779e-06 7.736562603429967e-05 0 0 0 0
325000000 0.8302730699078061 -0.5742859346734311 3.0910305648457757e-05 -3.207296073858371e-05 0 0 0 0
334000000 0.8201102011977026 -0.5868154485488635 -4.2346163381183254e-05 4.828726284524339e-05 0 0 0 0
343000000 0.8103186207856953 -0.5986702184999498 -1.2893970743883528e-05 6.331783913870785e-05 0 0 0 0
352000000 0.8011496426917745 -0.612291123163875 1.4147545080445418e-06 -3.0416544447927817e-05 0 0 0 0
361000000 0.7907057947262357 -0.6268655371287704 2.6670765262374232e-05 5.249439513001405e-06 0 0 0 0
370000000 0.7811123082377976 -0.6375075355088213 5.2113231192121004e-05 9.803717393778824e-05 0 0 0 0
379000000 0.771279148386133 -0.6492026384271513 -3.820077084396892e-05 -3.278188273068206e-05 0 0 0 0
388000000 0.7601772447813593 -0.6620437681028641 2.5019082176330982e-05 3.4194528154806305e-05 0 0 0 0
397000000 0.748430864469188 -0.6732322102664656 -1.8119481059259922e-05 -6.114387229892141e-06 0 0 0 0
406000000 0.7384463339196433 -0.6837637633913328 2.7558582239680073e-05 4.179469927655373e-06 0 0 0 0
415000000 0.7273934899231427 -0.6968460010107651 4.690987225690496e-05 -4.9061340522137346e-05 0 0 0 0
424000000 0.7174557711250693 -0.7066678235141564 2.271267456883617e-05 -6.168711392642883e-05 0 0 0 0
433000000 0.7042856149735907 -0.720972045895486 6.01449624606933e-06 2.6375548972907322e-05 0 0 0 0
442000000 0.6971664461205382 -0.7284462091404218 -4.877992276287915e-05 -1.4155341894275883e-05 0 0 0 0
451000000 0.6812260292896027 -0.7426428750016109 -2.9336846711411927e-06 -5.2618610132977754e-05 0 0 0 0
460000000 0.6720041138312594 -0.7544024531949551 2.554999905160711e-06 3.620484186331327e-05 0 0 0 0
469000000 0.6584487232870385 -0.7644659888402722 -6.359004323001125e-05 -3.2165810545007416e-05 0 0 0 0
478000000 0.6462251826929228 -0.7753943103081856 3.8281867544685965e-06 5.0914541990147045e-05 0 0 0 0
487000000 0.6333173790454724 -0.7861653213082629 3.4247262596833634e-05 5.891497048069376e-05 0 0 0 0
496000000 0.619432464248797 -0.7983319126090772 -6.211563698689283e-06 0.00010029000849650758 0 0 0 0
505000000 0.6044318112567306 -0.8101685539655616 1.734790420649817e-06 4.4372638530231844e-05 0 0 0 0
514000000 0.5940015303345864 -0.8186162466868161 -1.5839375034893282e-06 5.4115939015637415e-05 0 0 0 0
523000000 0.5800628442565873 -0.8299402278889021 2.192823223100316e-05 -1.4543169831392977e-05 0 0 0 0
532000000 0.5623285500077949 -0.8419366651216317 -1.2733749403576106e-06 2.0524436034417925e-05 0 0 0 0
541000000 0.5543088263359093 -0.8475613432704394 -2.0148182306175463e-06 -6.908871787581072e-05 0 0 0 0
550000000 0.5398575230767239 -0.8576024003341007 1.1095617104098448e-05 -8.22756027996581e-05 0 0 0 0
559000000 0.5243337797431523 -0.8676996367345265 0.00010200556385369528 -4.835390879556684e-06 0 0 0 0
568000000 0.5037768812094853 -0.879106332600038 -4.923107955916754e-05 -1.797006769261304e-05 0 0 0 0
577000000 0.4925058789619189 -0.88858743459525 -1.2370401432734432e-05 -4.479563995586333e-05 0 0 0 0
586000000 0.4726916523118543 -0.8996278346763468 1.578972391975355e-05 -2.339097671987961e-05 0 0 0 0
595000000 0.4616729504670645 -0.9066883084349096 2.5740591940949895e-05 -3.054289198670103e-05 0 0 0 0
604000000 0.4421992292694375 -0.9166634178565791 -4.175516903673694e-05 -1.5301841765060033e-06 0 0 0 0
613000000 0.4289188241906898 -0.9232595137349509 -1.4794524529168229e-05 1.949062268955227e-05 0 0 0 0
622000000 0.4103022586545987 -0.9311127465498937 -9.357754928528057e-06 1.994015806982693e-05 0 0 0 0
631000000 0.3895354104106897 -0.9401301203484662 -2.260182460576679e-05 -5.828167122274858e-05 0 0 0 0
640000000 0.3721317475326562 -0.9466459971370125 2.3185765554394355e-05 -1.8211436386215265e-05 0 0 0 0
649000000 0.3589222423269948 -0.9525982440009338 -4.441471893803731e-05 1.1448916804498725e-06 0 0 0 0
658000000 0.3381386361223292 -0.9603132869199028 -1.352796720408975e-07 5.079020503628681e-05 0 0 0 0
667000000 0.31440931893241286 -0.967211331379693 3.6436003332407736e-05 6.752379949086385e-05 0 0 0 0
676000000 0.29744926430890023 -0.9723942140703801 3.5771021803578725e-05 4.006780546400016e-05 0 0 0 0
685000000 0.2825034604504789 -0.974755854927084 1.3839078685971243e-05 3.704386603875913e-05 0 0 0 0
694000000 0.25853087440427697 -0.9824249854030002 9.013501220446546e-05 1.591415680648084e-05 0 0 0 0
703000000 0.2423580738172042 -0.9851481938184218 8.035002366342952e-05 9.928788035593857e-05 0 0 0 0
712000000 0.22036078603485582 -0.9882191792405994 -7.10678514900211e-05 -2.0361971630954985e-05 0 0 0 0
721000000 0.19955806802494905 -0.9931592067002514 4.592344796970133e-05 3.133512726475987e-05 0 0 0 0
730000000 0.1802662240662877 -0.9946890796711932 6.744065391312262e-05 3.791296206219303e-05 0 0 0 0
739000000 0.16549504752436736 -0.9939244016425889 -1.0971902812345404e-05 9.631530935973179e-05 0 0 0 0
748000000 0.13757659448388454 -0.9960265909474185 4.5250231087559524e-05 4.840924397426207e-06 0 0 0 0
757000000 0.11817495817693151 -0.9955163038322782 8.875606212484898e-05 6.0997206035834416e-05 0 0 0 0
766000000 0.09528704395561322 -0.9942079507284121 2.2200758324458455e-05 0.00014486908347031012 0 0 0 0
775000000 0.0790445960564696 -0.9927068184454318 4.796406324539811e-06 -2.770019191794281e-05 0 0 0 0
784000000 0.05211561607658998 -0.9915547194155785 3.0709808275614144e-05 3.241755941776442e-05 0 0 0 0
793000000 0.03838457672626716 -0.9894105085027723 0.00011879205345889959 -5.54656965021461e-05 0 0 0 0
802000000 0.02060702466585263 -0.9857260339839484 9.5718269376788e-05 -4.07562146650827e-05 0 0 0 0
811000000 -0.001224572630181774 -0.9819036854360185 -8.778127220767818e-06 -2.5441125645183154e-05 0 0 0 0
820000000 -0.02242085543879742 -0.976968575723348 6.115849637873722e-06 -1.3082945242434063e-05 0 0 0 0
829000000 -0.04046003711082907 -0.9711388842101545 5.834362837800797e-06 8.932848969176384e-06 0 0 0 0
838000000 -0.05433092473094654 -0.9667580974258975 -2.3248219129111214e-05 -2.3609501181683245e-05 0 0 0 0
847000000 -0.07284639342678112 -0.9598523599889721 2.3013229183239162e-06 1.6834255033469974e-05 0 0 0 0
856000000 -0.094172044792312 -0.9533515275271872 1.7127667692996257e-05 -2.845515474653959e-05 0 0 0 0
865000000 -0.10927939110160889 -0.9485250131588351 3.5167796017607885e-05 -3.216383307178088e-05 0 0 0 0
874000000 -0.12396778103524704 -0.9414861360295668 7.935754148219394e-05 8.815201168702359e-05 0 0 0 0
883000000 -0.14470012438956248 -0.9356825159455955 1.8165762708053845e-05 6.294964533455309e-05 0 0 0 0
892000000 -0.15956296272950743 -0.9265600039305933 2.67388592477627e-05 7.632931827941977e-06 0 0 0 0
901000000 -0.16794950415377288 -0.9208949562665406 -2.3334159766370578e-05 4.404949034328e-05 0 0 0 0
910000000 -0.18911796300216455 -0.9105100919081983 3.449771024732503e-05 5.717650381486649e-05 0 0 0 0
919000000 -0.19987513788794634 -0.9034852719812031 -3.273992971805622e-05 7.704836935498074e-06 0 0 0 0
928000000 -0.22015676907280424 -0.8940030695560353 -6.220389649842213e-05 3.925964250798007e-05 0 0 0 0
937000000 -0.232625128348892 -0.8864213313109787 -4.8768339040271665e-05 8.816671741879335e-05 0 0 0 0
946000000 -0.25199973639238016 -0.8769268886720696 1.32756857887425e-07 -5.0613297879114283e-05 0 0 0 0
955000000 -0.2547528538181072 -0.8693252839522382 2.6643084620312407e-06 9.1283802313626e-06 0 0 0 0
964000000 -0.27319092404797596 -0.8609792451961534 -2.9094630936179905e-05 2.2742767370288854e-05 0 0 0 0
973000000 -0.2869033165165385 -0.8522343910651627 4.0237699285125696e-05 4.3842383160640624e-05 0 0 0 0
982000000 -0.29227803815027376 -0.8449567925095185 -1.0429511683704133e-05 -1.0201104360909028e-05 0 0 0 0
991000000 -0.30662182973494434 -0.8349741260945291 -1.3956132588503632e-05 1.8063784939054767e-06 0 0 0 0
1000000000 -0.3178230227828837 -0.8265299256460518 1.8132357283179975e-05 5.2059481595765326e-05 0 0 0 0
