# HZ S RI R 50
100000000 1.0123643126920836 -0.21941453618921294 1.6182647681139534e-05 2.777967945238414e-05 0 0 0 0
109000000 1.0076160586792178 -0.23456084739218608 4.150047353287918e-05 8.828745479426764e-06 0 0 0 0
118000000 1.0026966764766831 -0.24952099568359676 3.8666166331815365e-05 -2.4520769447286088e-05 0 0 0 0
127000000 0.9961909082601051 -0.26598298888757865 4.939580602856622e-05 2.1656670298206013e-05 0 0 0 0
136000000 0.9915347469940888 -0.2809557186779791 5.70563932177147e-05 -7.603178854334926e-05 0 0 0 0
145000000 0.9834159548034406 -0.2955983648571907 -1.9611056283488984e-05 -1.1951215893904624e-05 0 0 0 0
154000000 0.9771817362718859 -0.3107896946670885 1.1659749351540273e-05 6.5962543392641145e-06 0 0 0 0
163000000 0.9710106606440319 -0.3255945167761656 3.9082434053374755e-05 -5.345709317926178e-05 0 0 0 0
172000000 0.9637245859903321 -0.3406196966329714 -2.932619770640361e-05 3.321452458672074e-05 0 0 0 0
181000000 0.9585956407615167 -0.35382054138539126 -2.9756387230048232e-05 -4.0694204299657385e-05 0 0 0 0
190000000 0.9518151687795168 -0.36860495584580816 -9.928941668275034e-06 1.3552466867538895e-05 0 0 0 0
199000000 0.9438864676129505 -0.38393653510158704 -9.054593399262484e-06 3.741127344831e-05 0 0 0 0
208000000 0.9369871501529312 -0.3983111829138698 8.924774556231256e-07 1.3557445238221142e-05 0 0 0 0
217000000 0.9289898072012251 -0.41241442939023676 -3.347079062675097e-05 1.638763916769182e-05 0 0 0 0
226000000 0.9222977544084626 -0.4271422764515328 3.63008538748101e-05 3.8320485355009674e-05 0 0 0 0
235000000 0.9147154898038128 -0.44056495222423364 4.3020368163786246e-05 -1.3254928740351567e-05 0 0 0 0
244000000 0.9067938689884377 -0.45406805806482725 1.0812585814294778e-05 6.373911942051911e-06 0 0 0 0
253000000 0.8987468697395078 -0.46814049584697814 2.4054563084402077e-06 7.302317089656388e-07 0 0 0 0
262000000 0.8897196965271128 -0.48355878510530154 2.6697942805146255e-05 2.643958168268178e-05 0 0 0 0
271000000 0.8828923945784581 -0.49502856851215404 2.1952540676481108e-05 1.447681878462002e-05 0 0 0 0
280000000 0.8737355115136933 -0.5095074677250147 -1.0225980883885726e-05 3.5849597806802936e-05 0 0 0 0
289000000 0.8647103361561014 -0.5224748275539398 -7.398066221581535e-06 2.5229026676083758e-05 0 0 0 0
298000000 0.8573310792542655 -0.5367703392431179 -7.010451854876327e-05 -2.105126491759829e-05 0 0 0 0
307000000 0.8481150286296644 -0.5493390969794584 -1.9116995268484155e-05 5.951983405374389e-07 0 0 0 0
316000000 0.8387426632302547 -0.561819279523821 -5.686491864423083e-05 4.012763501159986e-05 0 0 0 0
325000000 0.8296356889914729 -0.5737740426999194 -1.912375699504087e-05 -3.739916953588145e-05 0 0 0 0
334000000 0.8192818352726543 -0.5886819977931127 -3.294771680658623e-05 -3.655146102480302e-05 0 0 0 0
343000000 0.8119555004240836 -0.5970775102137859 -2.7911968853896905e-05 -2.77718655364496e-05 0 0 0 0
352000000 0.8012598288321761 -0.6122035457967582 1.7923880200317768e-06 1.7710256483620693e-05 0 0 0 0
361000000 0.7919204444042462 -0.623442186978011 -5.1315498715372824e-05 5.915104542380104e-05 0 0 0 0
370000000 0.781347833526509 -0.6370176106032445 -1.0621537331506105e-05 3.330030493300144e-05 0 0 0 0
379000000 0.76972808390082 -0.6491858551101338 2.185629377261337e-05 3.2942284755187445e-05 0 0 0 0
388000000 0.7560233374571016 -0.6655200054077154 -2.615638795576714e-06 -2.417589857798202e-05 0 0 0 0
397000000 0.7485517260005817 -0.6751122905765112 -9.664029526029517e-05 3.957444443912637e-05 0 0 0 0
406000000 0.7398809669691944 -0.6831788900915884 -7.549445790873185e-05 1.9533380230718023e-05 0 0 0 0
415000000 0.7291850314114977 -0.6955209675417268 1.3391726123132892e-05 1.2717466458251155e-05 0 0 0 0
424000000 0.716980878271949 -0.7087928249236403 2.570763750656299e-05 -1.0604825940400598e-05 0 0 0 0
433000000 0.7015411504629542 -0.7238717873778879 -8.708669304817123e-05 1.796534431698311e-05 0 0 0 0
442000000 0.6937109528617287 -0.7307490117491483 6.0185313786147755e-05 1.548490095373467e-05 0 0 0 0
451000000 0.677352833680296 -0.7461913078794973 -1.1859225818612644e-06 4.4172403104563635e-05 0 0 0 0
460000000 0.6713610048363526 -0.7535207991867722 7.69952592535357e-06 7.806584023646919e-05 0 0 0 0
469000000 0.6584591962035213 -0.7639801890928366 4.749368458449127e-06 -1.5788674072763646e-05 0 0 0 0
478000000 0.6441881841766223 -0.7775346237486174 4.193967428844016e-05 -1.942499886753063e-05 0 0 0 0
487000000 0.6338161025028954 -0.787501365415603 1.648129549261972e-05 2.030777840470626e-05 0 0 0 0
496000000 0.6205706989746864 -0.7974118676122391 3.719105252878347e-05 7.461096001066511e-05 0 0 0 0
505000000 0.604550613369709 -0.8102821968026407 -7.696949374264335e-06 -4.744252937600125e-05 0 0 0 0
514000000 0.5950674013396652 -0.817518807048957 3.0565566516175276e-05 -5.186187442878753e-05 0 0 0 0
523000000 0.58393302258725 -0.8267585879308998 -5.892546882008865e-06 8.31380767200474e-06 0 0 0 0
532000000 0.5663841455726124 -0.8384381372164798 4.06845379625505e-05 -7.848852498732758e-06 0 0 0 0
541000000 0.5495889668260376 -0.850570698602697 -4.212274434444231e-05 -1.1119925352913418e-05 0 0 0 0
550000000 0.5390439759742641 -0.8578926399792758 -3.2919802006779626e-05 -4.0294853518793414e-05 0 0 0 0
559000000 0.5193209802152499 -0.8714691159707746 -3.723875728063768e-05 5.326536845344437e-05 0 0 0 0
568000000 0.502691834064543 -0.8808489005252657 -1.7172605659741283e-05 2.768698144262323e-05 0 0 0 0
577000000 0.4895292275815406 -0.8890739610640256 5.5893613690028545e-05 7.55012868842854e-05 0 0 0 0
586000000 0.4730237536675686 -0.9010029422073977 -2.918856411409584e-05 -7.164695591884779e-07 0 0 0 0
595000000 0.4556456471910555 -0.9074175038229928 3.5535926311597256e-05 7.032416575752155e-05 0 0 0 0
604000000 0.4474958868912339 -0.9120990731699913 -1.2304224627073767e-05 -5.8183142956992315e-05 0 0 0 0
613000000 0.4255255689818387 -0.9228925717362082 3.629041113255269e-06 -3.252621268083058e-05 0 0 0 0
622000000 0.4069894298229392 -0.9319567377229502 3.489100556095711e-05 2.973462028487343e-06 0 0 0 0
631000000 0.3884303586025094 -0.9394870928089408 -5.629588586279023e-05 1.0159023274596664e-05 0 0 0 0
640000000 0.370591509684864 -0.9469515477681781 3.500555283865796e-05 -2.6440992275347478e-05 0 0 0 0
649000000 0.3560626905004497 -0.9535636947798359 -1.085914217063227e-05 -2.3125261856914353e-05 0 0 0 0
658000000 0.33440577075182687 -0.9612268458108338 -4.072962804573023e-05 2.235891612157669e-05 0 0 0 0
667000000 0.320352674218616 -0.9625247681363869 -2.526962660781242e-06 -3.5406158760255985e-05 0 0 0 0
676000000 0.29761383378694317 -0.9732625415664741 2.3437869295425424e-05 3.909605745877392e-05 0 0 0 0
685000000 0.2770069034649203 -0.9779207839162231 2.8403864517972207e-05 -1.1316789519321268e-05 0 0 0 0
694000000 0.26072529809515943 -0.9802370412996494 3.267415128449235e-05 9.383882492128967e-06 0 0 0 0
703000000 0.24321629927831984 -0.9831333256437154 -3.688538032752953e-05 8.385286226201187e-05 0 0 0 0
712000000 0.22430126258538213 -0.9859473081100477 -2.5884130694048772e-05 5.434791740215539e-05 0 0 0 0
721000000 0.2079042443085041 -0.9899731660248967 1.4761113826367017e-06 2.745256936559215e-05 0 0 0 0
730000000 0.18530952883462817 -0.9929806386856824 -9.61034163352634e-05 0.00010487945859346303 0 0 0 0
739000000 0.16885727847793758 -0.9941225274323636 4.2913594120009965e-05 3.7249700190761696e-05 0 0 0 0
748000000 0.13491903980065106 -0.9957782329209566 7.88484245509811e-05 1.1364665570731163e-05 0 0 0 0
757000000 0.11506147885795077 -0.9964254462571864 7.250720441632338e-05 4.514080907803073e-06 0 0 0 0
766000000 0.0990705589423683 -0.9944600574128406 0.00012378501593509277 5.115665826705949e-05 0 0 0 0
775000000 0.08084389808867602 -0.9934113793305503 6.645994027032556e-05 5.497883549311822e-05 0 0 0 0
784000000 0.057659127960682795 -0.9904914617270406 8.676307734544646e-05 -1.586248220604814e-05 0 0 0 0
793000000 0.0421491157446414 -0.9898332251637315 3.711455349986947e-05 5.871930539885225e-06 0 0 0 0
802000000 0.01989795163393947 -0.984791327251012 6.176765475601845e-05 -3.372689909215793e-05 0 0 0 0
811000000 0.0034626953312544735 -0.9802967773892418 4.120428570167861e-05 -5.635034298928035e-05 0 0 0 0
820000000 -0.017536274981082803 -0.9780122104674225 1.6182421039925525e-05 3.553017931611962e-05 0 0 0 0
829000000 -0.038288615161879425 -0.9724370083454157 2.580867293401506e-05 -3.2887357721626963e-05 0 0 0 0
838000000 -0.05375311708704126 -0.9670949303879057 1.665065200317442e-05 -3.417044892671445e-05 0 0 0 0
847000000 -0.07430328141851594 -0.9603941365378965 4.7860328523179566e-05 -8.081090901644108e-05 0 0 0 0
856000000 -0.09425306112264785 -0.9561132847677212 1.0971059020647305e-08 2.4425684507918782e-05 0 0 0 0
865000000 -0.10773437440594173 -0.9487025439927614 1.621655023296889e-05 -4.800549920332035e-05 0 0 0 0
874000000 -0.12510166819780033 -0.940374507366646 -8.151102348297628e-05 -4.2794325190649396e-05 0 0 0 0
883000000 -0.14466178392274867 -0.934462156944936 1.6880927472162033e-05 5.739525001811583e-06 0 0 0 0
892000000 -0.15760124205800574 -0.9258302609790363 1.628986436758322e-05 -4.932515009624376e-05 0 0 0 0
901000000 -0.17109613901695112 -0.9186682693585857 1.682876948408606e-05 2.3744778468266383e-05 0 0 0 0
910000000 -0.20320362187576949 -0.9096808931227945 1.710714975423849e-06 3.002277313093545e-06 0 0 0 0
919000000 -0.1999214345894101 -0.9065085553986598 5.8623533557336874e-05 3.5514963273073075e-05 0 0 0 0
928000000 -0.21741729886739533 -0.8957834322620745 -8.774262282143137e-06 -3.9553879459522994e-05 0 0 0 0
937000000 -0.22086470176933262 -0.8892912466605306 -1.8150387069786922e-05 4.410296950243893e-06 0 0 0 0
946000000 -0.24691977971266435 -0.8763960443586465 8.296947348572869e-05 3.599399626929339e-05 0 0 0 0
955000000 -0.2506687381435453 -0.8691702689638703 9.417027580788514e-05 3.696780441675774e-05 0 0 0 0
964000000 -0.27767155712388975 -0.8578866531731622 3.382671009719196e-05 1.9610360661487217e-05 0 0 0 0
973000000 -0.2788765550514115 -0.8550801190099434 1.2663011010037726e-06 9.361111965296464e-05 0 0 0 0
982000000 -0.2956771443815435 -0.8428513949104566 1.606992957100017e-05 1.8042228704345e-06 0 0 0 0
991000000 -0.3097131758100013 -0.8344673860102069 -4.170955996993144e-05 8.773711229959288e-06 0 0 0 0
1000000000 -0.31432019433070013 -0.8271022001902513 4.9753066206062133e-05 -2.2900782514341743e-05 0 0 0 0
