# HZ S RI R 50
100000000 1.0151705808478106 -0.21902293306213905 8.071946220405958e-05 -2.7451372600098733e-07 0 0 0 0
109000000 1.0076303241567797 -0.2346683439885073 4.721686002763658e-05 -2.5249920869320846e-05 0 0 0 0
118000000 1.0025804159478893 -0.2496199757659541 1.8324483875017277e-05 7.376932730521101e-06 0 0 0 0
127000000 0.996848257775633 -0.2649183587115108 -3.0162759464954653e-05 1.5368254557482372e-05 0 0 0 0
136000000 0.9912870344280986 -0.2799052166359856 -8.068410349848701e-06 4.612414976021884e-06 0 0 0 0
145000000 0.9833206590908028 -0.29525451754498266 -7.967950734383382e-06 -2.172650973701088e-05 0 0 0 0
154000000 0.9767532458950546 -0.31138914967244424 -3.3335326928345444e-05 2.8849509665963534e-05 0 0 0 0
163000000 0.9705619654222397 -0.32664832266801863 -7.194836943173725e-05 2.5822960848513748e-05 0 0 0 0
172000000 0.963780940507693 -0.3407469952246388 -1.0089811363345858e-05 -7.951674476504494e-06 0 0 0 0
181000000 0.9582922394952981 -0.35534387733514505 -2.0887778348347155e-06 -4.178017289751834e-05 0 0 0 0
190000000 0.9497347101131977 -0.3701952613817558 1.5029963315696694e-06 -9.304866051530843e-06 0 0 0 0
199000000 0.9439514891435478 -0.38443478494479666 -8.000194315959483e-06 -5.9593887241320705e-06 0 0 0 0
208000000 0.9372571514882566 -0.3972402063407795 1.5323950869171255e-05 -4.4891531690900794e-05 0 0 0 0
217000000 0.9288756358747811 -0.4144439534359581 -3.053269017207745e-05 -3.0245306790932166e-05 0 0 0 0
226000000 0.9224899015689909 -0.4259880653867599 5.408995454622891e-06 -3.766686896876498e-05 0 0 0 0
235000000 0.9151487493374579 -0.44057459185012515 -8.88596239382366e-06 -4.102442373318185e-05 0 0 0 0
244000000 0.9070656978785516 -0.45443537985054966 -4.581022797940384e-06 -6.0644518180103566e-05 0 0 0 0
253000000 0.8988249757628309 -0.4697265089944801 3.679986197681002e-05 4.787338648517678e-05 0 0 0 0
262000000 0.8913461630184025 -0.4817117643813725 -1.5628303463180556e-05 3.0673895276066785e-05 0 0 0 0
271000000 0.8832934927937278 -0.4943750967322727 -7.260255399339395e-06 2.0411101381620602e-05 0 0 0 0
280000000 0.875186223051413 -0.5080463384378662 -3.225498397087045e-05 1.803636772996939e-05 0 0 0 0
289000000 0.8652055077414894 -0.522829181152272 -7.206184556179041e-05 4.6517684030618086e-05 0 0 0 0
298000000 0.8564989897877187 -0.5367477896583716 2.506438481038419e-06 -3.227214435037903e-05 0 0 0 0
307000000 0.8486598361889195 -0.5481351317238519 3.642996236134355e-05 -8.117423227801031e-05 0 0 0 0
316000000 0.8397654322319251 -0.5609661356783612 1.9984448177525918e-05 2.4564092461203025e-05 0 0 0 0
325000000 0.8289080515609685 -0.575113640690327 -2.6604158699538867e-05 4.453796393874416e-06 0 0 0 0
334000000 0.8203784169813488 -0.5873285715753056 -3.467740331549703e-05 -1.67442762836005e-05 0 0 0 0
343000000 0.810225193991032 -0.6011456872753134 -2.504069759825664e-05 3.219272799061022e-05 0 0 0 0
352000000 0.7992748458273297 -0.6112725834467753 2.947012755753435e-06 -3.853338196286367e-05 0 0 0 0
361000000 0.7893182474700794 -0.6252307009319119 2.9290605315914172e-05 -3.141360631316887e-05 0 0 0 0
370000000 0.7783629896162936 -0.6401338466932728 -4.021608262416826e-05 -3.249484547850483e-05 0 0 0 0
379000000 0.7724174116165529 -0.6471294511499911 -5.145527483397762e-05 2.3575198474225384e-05 0 0 0 0
388000000 0.7596623598667062 -0.6616730840042071 3.4596299450268746e-05 -2.454853786239321e-06 0 0 0 0
397000000 0.7451101467923343 -0.6767688366243986 4.473237006217911e-05 2.892447607243618e-05 0 0 0 0
406000000 0.7379699110116968 -0.6851693338266522 3.470816595130332e-05 3.238815344346848e-05 0 0 0 0
415000000 0.7275891861470168 -0.6973986726671614 5.890557334530692e-06 4.4404160819596894e-05 0 0 0 0
424000000 0.7171535593291991 -0.7070569864831937 -9.725047978222517e-06 1.4225131727212292e-05 0 0 0 0
433000000 0.7047628695770044 -0.7200418700510246 5.855813453782319e-05 1.487899416156736e-05 0 0 0 0
442000000 0.6938373774210707 -0.7317412190651063 -1.1692423071779117e-05 -1.3983896956160028e-05 0 0 0 0
451000000 0.6811747919982711 -0.742894056052722 -4.8338136726066765e-05 -5.2125401313364925e-05 0 0 0 0
460000000 0.6720858760282046 -0.7537873442875025 -5.686788176099903e-06 9.319559484795027e-05 0 0 0 0
469000000 0.6588365538189792 -0.7647891400171071 -5.134450306728058e-05 3.495513097446361e-05 0 0 0 0
478000000 0.6460945034628667 -0.7751716855941959 8.390399127987383e-05 -1.511134836463399e-06 0 0 0 0
487000000 0.6316927440074324 -0.7878624697992835 1.566379483350976e-05 -5.983272494737545e-05 0 0 0 0
496000000 0.6168979447512588 -0.7997210723187279 3.9119053747548874e-05 1.182470363604098e-05 0 0 0 0
505000000 0.604470964862099 -0.8102728735984077 -4.18144555478155e-05 -7.305941833082246e-05 0 0 0 0
514000000 0.5947354362182755 -0.8185907420508333 4.734208631694327e-05 1.9875205370476127e-05 0 0 0 0
523000000 0.5789274866265307 -0.8280766754815768 2.2301243858548384e-05 4.311742663335825e-05 0 0 0 0
532000000 0.5672213983561735 -0.8383134343503208 6.480619869421172e-05 -1.8191249444157197e-06 0 0 0 0
541000000 0.5479602186527818 -0.8511427606219115 1.3095888075453995e-05 -3.1497283207413867e-06 0 0 0 0
550000000 0.5374591013254103 -0.8600352778421555 1.8960384802378592e-05 2.4271449235708493e-05 0 0 0 0
559000000 0.5201593442052026 -0.8717987214349541 -3.395100142124834e-05 2.3807226419085962e-05 0 0 0 0
568000000 0.5077617525651145 -0.8811937804141369 -7.879874622666855e-06 1.362863920091623e-05 0 0 0 0
577000000 0.48935443751225394 -0.8893958860579442 -4.136925511926107e-05 -4.9224777390651176e-05 0 0 0 0
586000000 0.4775632078479852 -0.8979314666560494 7.98551829471824e-05 4.7375279129928555e-05 0 0 0 0
595000000 0.45882316904476556 -0.9070988461622433 -1.3488673752869344e-05 -1.1071268790806695e-05 0 0 0 0
604000000 0.4419799070482939 -0.9154629718959727 -3.007536860416097e-05 1.642053105435021e-05 0 0 0 0
613000000 0.422005491983097 -0.9243031975818601 7.74251495459888e-05 9.872462666410573e-06 0 0 0 0
622000000 0.40867505563764317 -0.9311894527735648 6.912550384096057e-05 2.7208292797884053e-05 0 0 0 0
631000000 0.38971296701596153 -0.9413894241512402 2.2612773899153037e-05 4.5376708706046824e-05 0 0 0 0
640000000 0.3750545323363348 -0.9469188998630493 -3.5094400963823734e-05 -5.0305336977765916e-05 0 0 0 0
649000000 0.3573658523073656 -0.9522010543748175 1.6482208138962455e-05 4.565170234261829e-05 0 0 0 0
658000000 0.3358109637118816 -0.9586157841128353 -5.646179101206664e-06 8.645052561734918e-05 0 0 0 0
667000000 0.314565194762952 -0.966837261899861 3.269377208036544e-06 7.883631217294068e-05 0 0 0 0
676000000 0.30495951744500593 -0.9698204676081367 1.1056609568135482e-05 3.014224273400285e-05 0 0 0 0
685000000 0.2860917529135101 -0.9760754007582283 3.033361955137566e-05 7.075428617921095e-05 0 0 0 0
694000000 0.26223386521784997 -0.9793029791911017 6.563825112826882e-06 8.194057132156317e-06 0 0 0 0
703000000 0.24440367051005263 -0.9846266477744586 1.0457201447121417e-06 1.674469049675918e-05 0 0 0 0
712000000 0.21730175036317442 -0.9883169994007127 -2.084270892373229e-05 0.00010841607300652605 0 0 0 0
721000000 0.20395024659387137 -0.9874165824678645 3.9584716226158737e-05 7.047270411552902e-05 0 0 0 0
730000000 0.17934208916650524 -0.9940088074451945 3.9792407419488576e-05 8.020276923305816e-06 0 0 0 0
739000000 0.16390128705741508 -0.992389251679572 7.268827557267032e-06 -1.331863731333338e-05 0 0 0 0
748000000 0.14029643086571586 -0.9947426044220765 7.652845887571878e-05 0.00010832205780432285 0 0 0 0
757000000 0.11332672027281468 -0.9953072225846561 3.5307567459905663e-06 -3.44210963104286e-05 0 0 0 0
766000000 0.09755870571437299 -0.9953841671359953 1.2563922386788397e-05 0.00012662133753170798 0 0 0 0
775000000 0.07827004359758846 -0.9956761460944565 9.071029281950556e-05 3.9043950838717466e-05 0 0 0 0
784000000 0.054721902328869 -0.9917279831597469 4.014449966217108e-05 7.608703832285428e-05 0 0 0 0
793000000 0.04937231793427296 -0.9887373216552268 5.873658224851896e-05 5.859906839413339e-06 0 0 0 0
802000000 0.016588024649599745 -0.9856155185142438 5.722365872803215e-05 -1.1000819921676659e-05 0 0 0 0
811000000 0.0033350467449111032 -0.9801280780404856 9.223644956849588e-05 -1.86022022991407e-05 0 0 0 0
820000000 -0.019584050004949616 -0.9765094108547641 3.152050561266372e-05 -4.850528080579795e-05 0 0 0 0
829000000 -0.04061576759564118 -0.9723518322260253 9.699647566467466e-06 -8.65675896619893e-05 0 0 0 0
838000000 -0.05404302602177268 -0.9674164207821638 -2.871560187532545e-06 -4.789247716366434e-05 0 0 0 0
847000000 -0.07194053151222887 -0.9599882194640516 7.446745024228001e-05 -2.349057273211938e-05 0 0 0 0
856000000 -0.09418016638324374 -0.9519901280681838 8.049645221040246e-05 -5.1241389756033525e-05 0 0 0 0
865000000 -0.10706196597222345 -0.9479944445365662 1.8292228970721733e-06 5.821531072713227e-05 0 0 0 0
874000000 -0.12668084448303696 -0.9390456073620365 -1.3786097695216147e-05 1.962665202206681e-05 0 0 0 0
883000000 -0.13750919371921277 -0.9347568564449696 -1.3751017524880358e-05 -4.671398445011794e-05 0 0 0 0
892000000 -0.1570592261907119 -0.9268223053227865 -5.7498978919537225e-06 5.102944518791462e-05 0 0 0 0
901000000 -0.1689289204081552 -0.9180883146934286 -1.0951527578833435e-05 -4.1336319054255006e-05 0 0 0 0
910000000 -0.18417951885049405 -0.9116998449430642 5.225735330964546e-05 2.6055645338231885e-05 0 0 0 0
919000000 -0.2042636125854454 -0.9021420642912251 4.815412625236399e-05 -3.1164899843316276e-05 0 0 0 0
928000000 -0.2135737230382877 -0.8956841355714691 1.6617386147518702e-05 -1.3339297891698929e-05 0 0 0 0
937000000 -0.22937509426884678 -0.8868681286808885 -1.6380439068039033e-05 2.6933578358271747e-05 0 0 0 0
946000000 -0.25012861735744457 -0.8758308320949063 5.345668850277819e-06 -4.961316176035011e-05 0 0 0 0
955000000 -0.25947613453350776 -0.8698889676915185 -8.107669482707965e-06 7.900136091413142e-06 0 0 0 0
964000000 -0.2707235477636897 -0.8592067013883001 -3.922805086375105e-05 -1.1457018654558052e-05 0 0 0 0
973000000 -0.27938633321877177 -0.8537779393326823 -1.523439308034323e-05 3.975551989999426e-05 0 0 0 0
982000000 -0.3036953368970708 -0.8418205933062805 5.5271799611059365e-06 -6.568611624950376e-05 0 0 0 0
991000000 -0.3118639289265392 -0.8326863998235852 -2.6676510428944896e-05 -2.8226391248241542e-05 0 0 0 0
1000000000 -0.3221698633917843 -0.8245195958348193 5.898062951949902e-06 2.3696830390539626e-05 0 0 0 0
