# HZ S RI R 50
100000000 1.0125648670274698 -0.21959620770358487 9.995361577593358e-06 7.090846210958846e-06 0 0 0 0
109000000 1.0073971740386367 -0.23388046390430933 3.241802998814582e-05 3.743120664718379e-05 0 0 0 0
118000000 1.0019792318556562 -0.24956733939253123 -2.098949501665381e-06 -6.9513031820092e-05 0 0 0 0
127000000 0.9969112883718748 -0.26529611719799095 1.9730847029498754e-06 3.343300450875947e-05 0 0 0 0
136000000 0.9913746441870995 -0.28072968451940683 -5.065680235281188e-05 1.6959400178914623e-06 0 0 0 0
145000000 0.9827432199558745 -0.29688137062141257 2.608538341977425e-06 2.6014431461129535e-05 0 0 0 0
154000000 0.9775072262121197 -0.3105309116866496 2.419750106461786e-05 3.0116849765913395e-05 0 0 0 0
163000000 0.9707753449943475 -0.3266714937616274 -5.6453464911773457e-05 -3.1768869564879746e-06 0 0 0 0
172000000 0.9645591402547392 -0.33976514812854225 1.3518701177847289e-05 2.251767901021949e-05 0 0 0 0
181000000 0.9582314206501716 -0.35354779030091327 3.1711241822588465e-05 2.1447362069940588e-05 0 0 0 0
190000000 0.9508684905588446 -0.3693528399061673 4.608076178716072e-06 -1.7059879200151248e-05 0 0 0 0
199000000 0.9434990645540582 -0.3848864294798176 -2.6590065081807546e-05 2.6049562962128694e-06 0 0 0 0
208000000 0.9373796468919461 -0.3965065905010844 1.3966899596437666e-05 5.085099759112986e-05 0 0 0 0
217000000 0.9285166394561066 -0.4143253145216913 -1.2642271755224977e-06 -2.9289264397697286e-05 0 0 0 0
226000000 0.9230064978700788 -0.4263496034256457 4.08814327984764e-05 2.9849553708592437e-05 0 0 0 0
235000000 0.9143774053698285 -0.441827135227984 -9.982100226890239e-06 8.776909287808423e-05 0 0 0 0
244000000 0.9054681489876444 -0.4555838657815828 -4.206459451615448e-05 3.844867888887163e-05 0 0 0 0
253000000 0.8987942950684173 -0.4677313505373577 -4.137123788485268e-05 -2.3393800466585336e-06 0 0 0 0
262000000 0.8910236382628683 -0.48211540472669195 6.652946762989108e-06 -3.230448914411279e-05 0 0 0 0
271000000 0.8821324602654225 -0.49640519512453246 6.8804823505955575e-06 -1.2316509921958112e-05 0 0 0 0
280000000 0.8746289948104101 -0.5084436892474739 -9.528586699327205e-06 3.700966052774425e-05 0 0 0 0
289000000 0.865730413761147 -0.5219009417722642 2.5672774238784674e-05 -5.866318343582919e-05 0 0 0 0
298000000 0.8578527805925306 -0.5347569019890824 2.70838354419655e-05 3.114867730529141e-05 0 0 0 0
307000000 0.847943521097949 -0.5488778091454137 -2.7935050543040706e-05 -3.0124939773127266e-05 0 0 0 0
316000000 0.8392026838478494 -0.5621551540608533 -2.1488892448777153e-05 1.8622357851693027e-05 0 0 0 0
325000000 0.827821113195661 -0.5764471688098056 -7.492491279694314e-05 -1.57263543457606e-05 0 0 0 0
334000000 0.821724206125376 -0.5862878025510245 3.905385194940649e-05 2.6573613931592505e-05 0 0 0 0
343000000 0.8098085993460397 -0.602151634920543 -3.069473375920547e-05 -4.2823201980000325e-06 0 0 0 0
352000000 0.7995757085919276 -0.6136440184581371 3.120400639494075e-05 5.4134304564232884e-05 0 0 0 0
361000000 0.791429530176726 -0.6272118067158331 -2.6368672971555538e-06 -1.3289194038885899e-05 0 0 0 0
370000000 0.781573465135795 -0.6356803093005758 -3.6791360153832376e-05 -4.19883607871277e-05 0 0 0 0
379000000 0.7706551532266529 -0.6493794030894113 -5.84677508395187e-05 6.107701730125967e-06 0 0 0 0
388000000 0.7612086688967474 -0.6616888617692901 -2.5887429054209402e-05 -3.211548007036317e-05 0 0 0 0
397000000 0.7466613202687646 -0.6759942575062652 -1.053352346781204e-05 -5.2196672687772125e-06 0 0 0 0
406000000 0.7410076673736317 -0.6829115436847913 -5.9033324047279714e-05 9.085850349120706e-06 0 0 0 0
415000000 0.7250667822956514 -0.6989062665301841 4.7805406601635574e-05 -0.00010008650196782163 0 0 0 0
424000000 0.7139183113738939 -0.7095772012752269 1.1017553934733555e-05 2.6888504069208693e-06 0 0 0 0
433000000 0.7022286478014629 -0.721696524475272 -1.0134752146979808e-06 -7.111230067278831e-05 0 0 0 0
442000000 0.6945114868394454 -0.7308347871350706 -2.240032485912406e-05 2.9346102730795062e-05 0 0 0 0
451000000 0.6803361185130321 -0.743413988735453 -2.2937305204328987e-05 5.3322315939499886e-05 0 0 0 0
460000000 0.6722377205556953 -0.750481372214309 -5.304033081344749e-05 -1.9100313323601988e-05 0 0 0 0
469000000 0.6582537744787882 -0.7640403770201334 4.82479539505437e-06 -6.240235614883472e-05 0 0 0 0
478000000 0.6468031500822248 -0.7744691911358791 -5.227883724338348e-05 3.561744354779662e-05 0 0 0 0
487000000 0.6292428691957694 -0.7884817569083101 -5.7758332065984315e-06 -2.1564859309432417e-05 0 0 0 0
496000000 0.6212552242562265 -0.7973728474950418 -1.2973892660722883e-05 -1.1498488878410414e-05 0 0 0 0
505000000 0.6082077806530799 -0.8074121987781867 3.426223155303048e-05 -2.515212022325074e-05 0 0 0 0
514000000 0.5968984392777686 -0.816277929697258 -3.6017746226379704e-05 -1.3959960874822366e-05 0 0 0 0
523000000 0.5776098709399979 -0.8306691265783671 5.197471376336214e-05 3.313188548063554e-07 0 0 0 0
532000000 0.5641244381280082 -0.8403164764997108 -3.0763180800146396e-05 -1.874898784234262e-05 0 0 0 0
541000000 0.5516747705640676 -0.8491870858948578 3.002022345120018e-05 -3.002449970388451e-05 0 0 0 0
550000000 0.5345037601225834 -0.8600142347144489 4.9467631921297684e-05 -1.1324832075489819e-06 0 0 0 0
559000000 0.5231804013366368 -0.8692127718516063 -1.4035589389768448e-05 -6.618183422979765e-05 0 0 0 0
568000000 0.5076090181992601 -0.877960099501147 -4.296864421946233e-06 -2.538488169219525e-06 0 0 0 0
577000000 0.4890588853502387 -0.8897427021678453 2.2687266303392988e-05 -3.0014524600352614e-05 0 0 0 0
586000000 0.47270810587541323 -0.8977769221170192 -5.184821048544685e-05 -3.4324624507722254e-05 0 0 0 0
595000000 0.45751146122841846 -0.9075093567104358 -5.310474116424506e-05 -1.7741223266444156e-05 0 0 0 0
604000000 0.43858263505024037 -0.916142845798227 -1.463883678450568e-05 -6.0594286210395195e-06 0 0 0 0
613000000 0.4321693059826819 -0.9207806866749665 -3.338305255511947e-05 1.8080734178490134e-05 0 0 0 0
622000000 0.4133013490645197 -0.930356848573518 1.7140303999372664e-05 -7.148125560324727e-06 0 0 0 0
631000000 0.3919126075765481 -0.9387510039789196 -3.102279963810363e-05 4.821809720026764e-06 0 0 0 0
640000000 0.37385742772920155 -0.9467939097061373 -0.00010584912209614742 3.707519590244254e-05 0 0 0 0
649000000 0.354592806003391 -0.9550259390355561 3.635025858633369e-05 0.00010172525467758985 0 0 0 0
658000000 0.3449119856064915 -0.9583305745613895 -3.758095767864563e-05 2.026513904249849e-05 0 0 0 0
667000000 0.3195407314189394 -0.9655070570987417 -1.9331503751181358e-05 8.280669065155308e-05 0 0 0 0
676000000 0.2983239112837953 -0.9712503008995855 -4.705848153910058e-06 2.4443068138432755e-05 0 0 0 0
685000000 0.2770539546424847 -0.9781414218141063 1.4200066265686592e-05 8.201624309873494e-05 0 0 0 0
694000000 0.264266784980739 -0.9809797445918902 3.390631643526902e-05 2.5047219898095798e-05 0 0 0 0
703000000 0.24369157033126568 -0.9813528548618745 2.1396843805221628e-05 2.743226494813228e-05 0 0 0 0
712000000 0.22084285235997908 -0.9882263137869782 3.4712440953997975e-05 3.378251342990596e-05 0 0 0 0
721000000 0.20087435558975386 -0.9920243502661964 -1.4256380739395263e-06 6.409047587715707e-05 0 0 0 0
730000000 0.18281317650860915 -0.9929513523228197 5.359389343849971e-05 3.696287360781405e-05 0 0 0 0
739000000 0.1615421616612973 -0.9940095589286476 4.1635591885318423e-05 -5.027577473948035e-05 0 0 0 0
748000000 0.13727993299726005 -0.9959925398706627 2.9354969824765184e-05 2.629752499374343e-05 0 0 0 0
757000000 0.11993563512630155 -0.9955335366202865 4.544064371781433e-05 7.804545679658419e-05 0 0 0 0
766000000 0.09385223037705502 -0.9939826538427112 9.631598466038147e-05 9.653774305897419e-05 0 0 0 0
775000000 0.08372694091469034 -0.9942001408038549 8.153338452157287e-05 1.6709741490071487e-05 0 0 0 0
784000000 0.05462169870596182 -0.9911482837986388 5.3266357670797285e-05 0.0001045795336318824 0 0 0 0
793000000 0.03547342804035523 -0.9881068407356376 0.0001003682760664358 -1.619630264049051e-05 0 0 0 0
802000000 0.01424604199158659 -0.9853940546537504 8.437798664265593e-05 3.533543080533536e-05 0 0 0 0
811000000 0.00312124127387713 -0.9827037186347686 1.54128964984156e-05 4.825065622571939e-05 0 0 0 0
820000000 -0.02817996611261096 -0.9764323414519488 6.94590239277384e-05 -7.388852508674814e-06 0 0 0 0
829000000 -0.037981365321725455 -0.9703266496821112 -1.278014294642035e-05 -5.548407360441337e-05 0 0 0 0
838000000 -0.05808635298548033 -0.9663871802101883 4.87055870537086e-05 3.901099550819148e-05 0 0 0 0
847000000 -0.0715155334455412 -0.9584196324531599 9.029605983740212e-06 -9.337766846969141e-06 0 0 0 0
856000000 -0.09625125462631415 -0.9546661842996716 6.438049564073846e-05 -2.44281098775099e-05 0 0 0 0
865000000 -0.10748505991335437 -0.9465227008439514 -2.2482341888940402e-05 1.6532281416515932e-06 0 0 0 0
874000000 -0.12063624758129383 -0.940762122470001 -9.014579126069154e-06 3.6394218483214204e-05 0 0 0 0
883000000 -0.13777726895481715 -0.9333358208494206 -1.242670751471509e-05 2.9140893639558073e-05 0 0 0 0
892000000 -0.1573079687231407 -0.9259848296348007 -4.2221844293543886e-05 3.7435526494874394e-05 0 0 0 0
901000000 -0.17197767701427294 -0.9192130362798165 -9.877098083346153e-06 2.9763324394682036e-06 0 0 0 0
910000000 -0.1886062372187842 -0.9099805125496936 6.209857308086595e-05 1.347628383974534e-05 0 0 0 0
919000000 -0.20323016264758545 -0.9050576637691189 4.4600824892802746e-05 4.827198700338076e-08 0 0 0 0
928000000 -0.22043512050011824 -0.8931901632642583 2.338262040901927e-05 -1.2982681753495968e-05 0 0 0 0
937000000 -0.22904115195480165 -0.8866361886353846 -1.090761340089367e-05 4.461904412454436e-05 0 0 0 0
946000000 -0.24367123883187802 -0.8786814712028423 -5.071654434484645e-05 -3.071868080792129e-05 0 0 0 0
955000000 -0.26466790065418627 -0.8671773580039018 -3.945751222686646e-05 9.134503804322939e-06 0 0 0 0
964000000 -0.27395810710772844 -0.8606221430522838 -2.7017549180721673e-05 -2.368566094430311e-05 0 0 0 0
973000000 -0.28495542211701136 -0.8510083550112979 -8.73411076376924e-06 -3.608185318628486e-05 0 0 0 0
982000000 -0.2894401815841121 -0.8451069540423987 5.288168976483302e-05 0.00012593743080752 0 0 0 0
991000000 -0.30770798070567823 -0.8337307842576928 3.1678719979946305e-05 -4.0826284117834936e-07 0 0 0 0
1000000000 -0.31891656308910993 -0.8268150469161428 -9.409351013802985e-05 7.259372160185623e-05 0 0 0 0
