# HZ S RI R 50
100000000 1.0123337738608897 -0.21909475542052437 -7.149604122565269e-05 4.1186271809181453e-05 0 0 0 0
109000000 1.0076375016699861 -0.2354915995044404 -3.2233229724476923e-05 -5.4428368768474404e-05 0 0 0 0
118000000 1.0022511096564715 -0.24946712061671558 -1.8628150767173064e-05 5.106336978026748e-06 0 0 0 0
127000000 0.9967788774744631 -0.2652046859412283 -1.3900986758111726e-05 -5.257052903183208e-05 0 0 0 0
136000000 0.9912848734963786 -0.2807232520681233 1.1890391500307718e-05 1.908109466471449e-06 0 0 0 0
145000000 0.982795965252377 -0.2960709306395049 -2.0789259713152514e-05 1.506505282447607e-05 0 0 0 0
154000000 0.9770705662110496 -0.31092944931781985 2.2137850908002135e-05 -4.6541144287804544e-05 0 0 0 0
163000000 0.9703375503978063 -0.3257801887006648 2.2443321891337924e-05 -2.46678543301478e-05 0 0 0 0
172000000 0.9646342649429435 -0.3393909276269846 -4.964349971956986e-05 -1.1168332392194068e-05 0 0 0 0
181000000 0.9577938701077929 -0.3541067735699372 -2.101304874299864e-05 3.697982888597575e-05 0 0 0 0
190000000 0.9512896498874301 -0.36870021574728745 1.781818252761074e-05 -4.8619807497351615e-05 0 0 0 0
199000000 0.9430771352901312 -0.3861756520040636 2.3653043217040937e-05 3.783637376296302e-05 0 0 0 0
208000000 0.93641617599445 -0.39910887807168266 2.0405914799105955e-05 -1.5989047249470072e-05 0 0 0 0
217000000 0.9300240564844425 -0.4119870515502936 7.463567170304119e-05 -2.278597157542188e-05 0 0 0 0
226000000 0.9221378283013649 -0.42682675354387506 1.1849141948297754e-05 6.452202401920744e-06 0 0 0 0
235000000 0.9137766861400664 -0.4411934496797757 8.57453841386343e-06 2.9599209149678597e-05 0 0 0 0
244000000 0.9066819657480459 -0.4550710833557777 1.4925878652363472e-05 -1.3306158379464665e-05 0 0 0 0
253000000 0.8989434063896136 -0.46876293879970604 1.6525351920001778e-05 -5.130300386389682e-05 0 0 0 0
262000000 0.8911397618269238 -0.48204259005513383 1.5866303919405003e-05 -1.3134054582495863e-05 0 0 0 0
271000000 0.8830828552357232 -0.49450171794790904 7.136892305461128e-06 -5.5835690046149205e-05 0 0 0 0
280000000 0.8739197437661157 -0.510627739373512 -3.238772830557598e-05 -5.076442567184324e-05 0 0 0 0
289000000 0.865763938291672 -0.5233743963645537 -2.5644911039018084e-05 1.9708887386718118e-05 0 0 0 0
298000000 0.8568375841576846 -0.5358793623231894 -4.316720755400573e-05 -2.4985076283858386e-05 0 0 0 0
307000000 0.8475280551325665 -0.5496297055127684 3.5770120692996644e-05 -5.5543722786692045e-06 0 0 0 0
316000000 0.8379128580150471 -0.5623447847693958 4.8113097018770945e-05 -3.6361895305945686e-05 0 0 0 0
325000000 0.8291780018084048 -0.5751251422661422 7.4917058498555636e-06 -1.965200001578623e-05 0 0 0 0
334000000 0.8191266999606565 -0.586529091198557 4.406932250471578e-05 -1.9165332554207147e-05 0 0 0 0
343000000 0.8099028208519502 -0.5996951620559522 -1.46667020709336e-05 2.4106011697767208e-05 0 0 0 0
352000000 0.800519886715975 -0.6125341867030347 -3.154283751770581e-05 2.3831549796976107e-05 0 0 0 0
361000000 0.7902875525030777 -0.6256165098749743 5.093054617358847e-06 2.624741815033911e-05 0 0 0 0
370000000 0.7794493144065924 -0.638077990501562 -4.6253000567185526e-05 1.827097149644486e-05 0 0 0 0
379000000 0.771519203603945 -0.6484457396434947 -7.2249420456970454e-06 -6.109243860671948e-06 0 0 0 0
388000000 0.7577362794237053 -0.6645136145684082 -7.625097415546685e-05 -1.2369476764537798e-05 0 0 0 0
397000000 0.7483667041281361 -0.6732652863712664 3.812450919914459e-06 2.368425995412055e-05 0 0 0 0
406000000 0.7387586968499086 -0.6844509117366723 -8.352991278315805e-05 -1.9373178088102437e-05 0 0 0 0
415000000 0.7252492436114353 -0.6983290396330503 5.468888939785958e-05 -3.886848936345426e-06 0 0 0 0
424000000 0.7156771513084969 -0.7095945290837848 3.992248747351078e-05 3.262447439034801e-05 0 0 0 0
433000000 0.7037369983500439 -0.7210822049278377 -1.4449430670308037e-05 -5.220484702027746e-07 0 0 0 0
442000000 0.6910563365991348 -0.7338035951003379 -3.169284426480562e-05 -2.6759109877172975e-05 0 0 0 0
451000000 0.6806513663311252 -0.7437159548189868 -5.384996170134734e-06 3.479695184293612e-05 0 0 0 0
460000000 0.6685542108501634 -0.7543477699073259 5.8154373173736066e-05 -7.205660427139116e-05 0 0 0 0
469000000 0.656242645372967 -0.7664752781410186 2.694887439059449e-05 -3.947040759921628e-05 0 0 0 0
478000000 0.644902108118358 -0.7764020128123987 6.822022537461824e-05 -4.235899953780965e-05 0 0 0 0
487000000 0.6354536570564727 -0.7838500102803505 -1.3427504975470285e-06 -5.0673935976452905e-05 0 0 0 0
496000000 0.6211125494847454 -0.7976269252705186 1.5456683649169077e-05 -6.0172618405180775e-05 0 0 0 0
505000000 0.6064499757396392 -0.8089269220605114 2.6540556285099222e-05 1.5882452280674258e-05 0 0 0 0
514000000 0.591291003409709 -0.8205898145873902 -5.9056729998482705e-06 1.276358978319683e-05 0 0 0 0
523000000 0.5755413794188635 -0.8325106639630335 2.8192114517867137e-05 1.4130713024786127e-06 0 0 0 0
532000000 0.5609925919707828 -0.8419726331440044 6.086043625441896e-05 -3.7860068632851064e-05 0 0 0 0
541000000 0.5491279019529465 -0.8512826751862322 1.0464475875884518e-06 -1.7186569163538922e-05 0 0 0 0
550000000 0.5370708657362021 -0.8599124985265534 -8.315471693738223e-05 7.383560097904113e-06 0 0 0 0
559000000 0.5250000280403858 -0.8701230476118728 5.1964510005384786e-05 1.2762074635430774e-05 0 0 0 0
568000000 0.5086647379533776 -0.8789294829557239 1.7971728720145392e-05 5.376210562287681e-05 0 0 0 0
577000000 0.4903879683533416 -0.8890977056494229 8.48808477895092e-05 5.530298718785533e-05 0 0 0 0
586000000 0.479497553524433 -0.8966112901379191 -5.404938927876298e-06 5.8871014851879694e-05 0 0 0 0
595000000 0.45881519854225394 -0.9061189679204379 -6.977230409770078e-05 -1.2341746997970458e-05 0 0 0 0
604000000 0.4400871883491635 -0.9165267851602698 5.608204399778367e-05 -4.004423051265283e-05 0 0 0 0
613000000 0.42263370172067105 -0.9237053925139772 5.838884225216299e-05 2.9708047191242048e-05 0 0 0 0
622000000 0.41019606277758536 -0.9324870091289678 -2.5569531311244433e-05 -2.8326739938547723e-06 0 0 0 0
631000000 0.3927609971248995 -0.9385716893609989 5.8939955410356636e-05 6.932544063411869e-05 0 0 0 0
640000000 0.36850243077642425 -0.9480525491823308 4.536829544882376e-06 -4.9400623400632915e-05 0 0 0 0
649000000 0.3545852994920274 -0.9542081106159258 4.589008595228467e-05 4.616844090352157e-05 0 0 0 0
658000000 0.3417368131999397 -0.9592160177998901 -3.947055419066807e-06 1.4050184677690925e-05 0 0 0 0
667000000 0.32152882015491596 -0.9632936733084824 -5.358279600355114e-05 1.0528051988364438e-05 0 0 0 0
676000000 0.30203095297397126 -0.9709764692804701 -4.6480113836083194e-05 -1.5027514488205706e-05 0 0 0 0
685000000 0.27817225394191236 -0.9783892793610353 -3.7338662589225304e-06 -0.0001158202085456675 0 0 0 0
694000000 0.26122873625549614 -0.9811145594965431 -1.9754828988698526e-05 8.904450819860685e-05 0 0 0 0
703000000 0.2411181886278802 -0.9827788120334486 -3.1447667824722204e-06 4.960755298920816e-05 0 0 0 0
712000000 0.21537295284925767 -0.9887901912865553 1.6402506325356242e-05 7.5410720313262e-05 0 0 0 0
721000000 0.20744280664457723 -0.9890044796976368 3.0521951998460066e-05 5.376078939185924e-05 0 0 0 0
730000000 0.18216737801523944 -0.9916788298952571 2.8072902227271803e-05 1.772305926480066e-07 0 0 0 0
739000000 0.15449114952801934 -0.9945723962543984 -5.395726659211763e-06 2.567978620642809e-05 0 0 0 0
748000000 0.13813614444449185 -0.9961295011425993 2.4138931320968483e-05 1.2949064774710272e-05 0 0 0 0
757000000 0.121630308451933 -0.9944494027858357 7.623190567462039e-05 1.5380103093377146e-05 0 0 0 0
766000000 0.09275613544314051 -0.9946521623396332 4.4355135243312e-06 -1.6289753280831533e-05 0 0 0 0
775000000 0.08084989395912659 -0.9931920068402665 1.9378021004008892e-05 -8.948032456096939e-05 0 0 0 0
784000000 0.0622275478831766 -0.9897726731242688 7.74033751128012e-05 -6.700318128740678e-05 0 0 0 0
793000000 0.040420341184036875 -0.9878672675079532 8.239508410167448e-05 -8.672260259327086e-06 0 0 0 0
802000000 0.012680694182062456 -0.9850847085316932 2.9263115082357676e-05 1.0477911024841295e-05 0 0 0 0
811000000 -0.0007844793685097586 -0.9807715964099445 5.382057543120708e-05 -2.3960995322929054e-05 0 0 0 0
820000000 -0.018972091954415828 -0.9773976604173269 4.079307059238123e-05 4.0179972200257727e-05 0 0 0 0
829000000 -0.03918481989545175 -0.9709270615138844 -3.236202274552508e-05 -2.5556785883895837e-06 0 0 0 0
838000000 -0.05919847218708871 -0.96811519368125 3.660138125823694e-06 -8.828309793452545e-05 0 0 0 0
847000000 -0.06742580024294437 -0.9617622151083121 3.101542677644381e-05 2.7981898796872003e-05 0 0 0 0
856000000 -0.09452781777107605 -0.9530264858597561 -2.6247282625258996e-05 -8.593096476368013e-05 0 0 0 0
865000000 -0.10517000743979525 -0.9503808081900795 -3.86742075873212e-06 0.00011351333139315562 0 0 0 0
874000000 -0.12477632125880918 -0.9423325612850605 -2.24656592168197e-06 -3.641562681348778e-05 0 0 0 0
883000000 -0.14370321056201069 -0.933088444344739 -2.1303764006643033e-06 8.742518935755175e-06 0 0 0 0
892000000 -0.15655419029779202 -0.9259613776689325 1.8131403664231295e-06 -3.9944086514429236e-05 0 0 0 0
901000000 -0.1670484021422696 -0.9192145104935106 1.1318226125887804e-05 -1.6300146856648864e-05 0 0 0 0
910000000 -0.18958360837042965 -0.9115735280481906 5.730335182362531e-06 1.5742695890351853e-05 0 0 0 0
919000000 -0.20887469545479223 -0.8999071274453628 3.200158282521573e-05 2.196916999476159e-05 0 0 0 0
928000000 -0.2184379610641091 -0.8934616169490314 4.4851147864588434e-05 1.2519418878132912e-05 0 0 0 0
937000000 -0.23049138719031612 -0.8870500923784749 -2.7917689447451543e-05 -6.296320825397678e-05 0 0 0 0
946000000 -0.2473386334575002 -0.8752966031098282 -1.7536498469266558e-05 4.193172581394423e-05 0 0 0 0
955000000 -0.25690712195139137 -0.8701860440043032 -5.720031063076882e-05 6.155610358472736e-05 0 0 0 0
964000000 -0.26602207498072594 -0.8626931446204407 -2.0476927421332644e-05 -3.671565091197583e-05 0 0 0 0
973000000 -0.2834378977956845 -0.852546862786629 -4.195736126550092e-06 5.998008930517672e-05 0 0 0 0
982000000 -0.29175945352778093 -0.8444669877260575 6.466229274912774e-05 1.9251531682669526e-05 0 0 0 0
991000000 -0.3070949362326537 -0.8353826122790429 -8.012013622486383e-06 1.7318375172889482e-05 0 0 0 0
1000000000 -0.32406132632099105 -0.8247210275482163 8.215599790086108e-05 4.179579791733607e-05 0 0 0 0
